! PocketVna 1.60  pocketvna.com
! Live measurements ((Reflection-S11, Transmission-S21, Transmission-S12, Reflection-S22) Linear 400000000-2000000000/800 calibrated)
# Hz S RI R 50
! Hz          ReS11                     ImS11                      ReS21                      ImS21                     ReS12                     ImS12                      ReS22                      ImS22                     
400000000     -0.016402813342830509     -0.52506466630859261       0.43290796515303337       -0.51128058749091432       0.48387508609933344        -0.52554120442617192      0.093466228407515811       -0.58593679084497396      
402002503     -0.035535943947796196     -0.53243541815776319       0.43343129454485646       -0.52218280114684357       0.48537337718077717        -0.53882032325200779      0.072517111398745643       -0.58354095290975017      
404005006     -0.054886404694512003     -0.53063002404751658       0.43514622635651906       -0.53982282152120886       0.48740628811098846        -0.55074463609103097      0.062285531929192339       -0.59309503559653787      
406007509     -0.064922820178001786     -0.53117193818072639       0.43724354643351027       -0.55935452664260754       0.4836162489692214         -0.56645279842941409      0.05470995775300358        -0.59352722928828749      
408010012     -0.069417206994746516     -0.52292520962950917       0.43292888890111436       -0.57360164293008542       0.48205005291270187        -0.58307062286268407      0.036389306102777068       -0.59524315026408414      
410012515     -0.083272843238882052     -0.53308891747337694       0.43631037786485322       -0.59160515207066044       0.47758946373091271        -0.59618519657900026      0.023459743422045657       -0.59994768515441321      
412015018     -0.1067197912667794       -0.52932062501792321       0.43111937681763124       -0.60950067684158871       0.47667920395900698        -0.60736262739818792      0.0032081524378933133      -0.59625407015939524      
414017521     -0.13096689493381397      -0.52353346354768271       0.42896113461300478       -0.62406650272179254       0.47279803410981075        -0.6207026649889148       -0.0094747109767389977     -0.5854483968092139       
416020025     -0.13869889748796158      -0.52300304981958567       0.43158255626309922       -0.63926936137093537       0.46094128521399069        -0.63764544951488966      -0.017939796557540705      -0.58671568929037998      
418022528     -0.14103567091402022      -0.52148640652961908       0.42625612989733636       -0.66070449950645183       0.45248040969149361        -0.65345512856898291      -0.0342413034454295        -0.5822346244737483       
420025031     -0.15885376530946546      -0.51684383061645778       0.42151812866697674       -0.67780108240822667       0.44482217325762807        -0.6695838637914352       -0.046477172684380195      -0.58762488919062261      
422027534     -0.17748658846040188      -0.50421596205834851       0.41760371667972107       -0.6917632759479887        0.43524577919832125        -0.6775796666395052       -0.061060982154868305      -0.58651074720330298      
424030037     -0.1931867843978852       -0.50818104291685551       0.41345576710879267       -0.70400389016617593       0.42016684475541227        -0.69306105608501611      -0.086984979139609273      -0.58035360663735547      
426032540     -0.19968905296464234      -0.51476306586561316       0.40312321490641906       -0.72692345068414732       0.40618771459333441        -0.70874543031479631      -0.10198041214747149       -0.57578826038486675      
428035043     -0.21162095396288089      -0.5007804841047605        0.40347063317874621       -0.73868817032271183       0.39131871378119076        -0.72644870409102158      -0.11532063559680747       -0.56426706052094988      
430037546     -0.23048952065142089      -0.48172679545142816       0.3934778282931875        -0.75591167828957961       0.36819129315426319        -0.73829417708269141      -0.13318741661664996       -0.56121515742191397      
432040050     -0.24759641775372518      -0.47435717323235282       0.3817301770290229        -0.77199664172514049       0.35330850018390064        -0.74748381080165649      -0.15307560698539202       -0.55933529130352111      
434042553     -0.26078116351970265      -0.47508838820379085       0.36833926440081149       -0.77975043702586622       0.33964452168054449        -0.75913750280070014      -0.16406935817645013       -0.55143364600343814      
436045056     -0.26857107455422341      -0.46876971539479068       0.35693241190762759       -0.78908505130526008       0.31641663588624963        -0.77375015528943614      -0.18388623066031837       -0.54207033017499406      
438047559     -0.2746476842380261       -0.45811482085781391       0.34712102295418618       -0.80553610039874057       0.29749666820388454        -0.78379594480485593      -0.20342780344588768       -0.5322941397063945       
440050062     -0.2907003759687487       -0.44505032586520527       0.33355149730216438       -0.81714620144662264       0.26780480335509921        -0.78939646735640656      -0.21751841803131364       -0.5294744030773556       
442052565     -0.31074611105395372      -0.43526730030200794       0.31981724804187439       -0.8233081937379173        0.24534823731063515        -0.80223077553307731      -0.22987255261960593       -0.52589814454905937      
444055068     -0.31343569739200333      -0.42321986796292593       0.29815042678734321       -0.83263651611566214       0.21933570126870311        -0.81144858097299055      -0.24270305925193839       -0.51186470912097382      
446057571     -0.32212961614127483      -0.41316065613962455       0.28431855010458013       -0.8397279668481572        0.19018303169209236        -0.81768627235679725      -0.26010559699756569       -0.50434595728452902      
448060075     -0.33985430975308595      -0.40468817537157475       0.26003595077561303       -0.85325457963477469       0.16053852588822076        -0.82521093000550405      -0.27487471120868134       -0.49537522039786797      
450062578     -0.35218274266240507      -0.3953314093618801        0.23988875402642376       -0.85521542589001165       0.12899359478543709        -0.8335114921058987       -0.28811636892925513       -0.49029996921144575      
452065081     -0.3641599505772416       -0.38004291098971299       0.21861996891992341       -0.85872944579429022       0.10847331616236917        -0.8397085375942811       -0.3036559727002161        -0.4895916904243261       
454067584     -0.36186584028781721      -0.36132360732050522       0.19799346087764064       -0.85576840890470729       0.075879107432395135       -0.83705008937174841      -0.32530508851412032       -0.4806338376100176       
456070087     -0.37419937728088398      -0.3505493559926241        0.17181686258558232       -0.85519472367736293       0.044927166012251267       -0.83628403948748331      -0.34370605116801473       -0.47208795410503934      
458072590     -0.38499130407362991      -0.34216384152258783       0.14388298394915819       -0.85562564365493643       0.0185199132978069         -0.84457504763206281      -0.35149200739627001       -0.45543556070966712      
460075093     -0.40072259228885687      -0.32870608133104828       0.11902512280273526       -0.85277722719322724       -0.0096969617397748425     -0.85010585971334429      -0.36064608468589349       -0.44083683115343392      
462077596     -0.41137673414127518      -0.30957629617904098       0.098094410456896028      -0.85039156393239568       -0.037278636232448349      -0.84709519163616409      -0.37240879060924598       -0.43499483206449685      
464080100     -0.41843367122779096      -0.29331573176638515       0.075389268478125923      -0.85002594609782178       -0.060100575080383099      -0.84688261862845238      -0.38907221586277024       -0.41936294970394833      
466082603     -0.42467619036438975      -0.28182732191185073       0.045779832011869984      -0.84611908194923058       -0.086981686688263407      -0.84401212197505637      -0.40418334439917297       -0.40908212560553758      
468085106     -0.44034750826597735      -0.2675914525423686        0.019365835307139506      -0.83866382768012249       -0.1155210678650007        -0.84172312447207576      -0.40593074841197879       -0.40018106460539388      
470087609     -0.4500033036874348       -0.25141541019871605       -0.0070649578223561712    -0.82586890338812247       -0.13318879245276444       -0.83699656172407533      -0.41943125661496894       -0.39282088442208762      
472090112     -0.45539741475675971      -0.24015188690599562       -0.032079973000772824     -0.82304025851315055       -0.14936466396008941       -0.83334598764295609      -0.43164084567301791       -0.38885201872393232      
474092615     -0.45522410630647675      -0.2199511734260573        -0.057047105563623829     -0.81778747246575456       -0.17159987237663898       -0.82154909418814737      -0.44437146210229256       -0.38479143349472361      
476095118     -0.45596328890876753      -0.20420496059775539       -0.079653325541729714     -0.80774922574819219       -0.18952275875180954       -0.81689410677760244      -0.45108661007586703       -0.37071561408613085      
478097621     -0.46635454582120461      -0.19465828788449324       -0.10105168930291322      -0.79474520051592334       -0.20775916438071296       -0.8077000484120701       -0.4624728449432382        -0.3481931676437563       
480100125     -0.47675688667877864      -0.17579578678463614       -0.12507037323123102      -0.78367101303076703       -0.22524162789014046       -0.7983088772386443       -0.4740717306743773        -0.33634766524476584      
482102628     -0.47599469425255908      -0.161362255328238         -0.14672378250771104      -0.7756386187039146        -0.23556630014975682       -0.78856662470569883      -0.4792498883743791        -0.32443080582691602      
484105131     -0.47234338925056973      -0.15013214805902547       -0.17037612217303744      -0.76071982885426848       -0.25195012974197112       -0.77578600482541615      -0.47949462580879221       -0.31111315291364228      
486107634     -0.48154808090254997      -0.13959533950084299       -0.19050190037031187      -0.7498933060252938        -0.26017555178776314       -0.76433163386995684      -0.4927946929391489        -0.30498555727506804      
488110137     -0.489740795831486        -0.12020821560009347       -0.20492530705987744      -0.7385947724247387        -0.27318625240960637       -0.75043639479288016      -0.49269502479616623       -0.29720672165943707      
490112640     -0.49380006975017432      -0.10306223194472428       -0.22489316724254355      -0.72441487433974483       -0.27933105512348438       -0.74102551358032087      -0.49595271255388507       -0.27518747795811682      
492115143     -0.49091182289764329      -0.089906929839724301      -0.24390863955747211      -0.71051356149662448       -0.28430862060231021       -0.7326082938719094       -0.49925638830616109       -0.25944035756888784      
494117647     -0.48778600329752581      -0.082262880065050087      -0.25930440405703759      -0.69971213031834689       -0.28629380321633058       -0.71959867412616985      -0.50480014557429864       -0.24997245203768462      
496120150     -0.49117122331141394      -0.071650640450393391      -0.27249231158044562      -0.68602555034609936       -0.29182574460513161       -0.69960188939556656      -0.5131349331643984        -0.23640319134590801      
498122653     -0.48619324381464252      -0.055305797750096614      -0.27979428111242322      -0.67359318517063438       -0.29737560007290192       -0.68776488250273471      -0.50883314953043535       -0.22929160452580061      
500125156     -0.48152377338396618      -0.037226591941601925      -0.28968878271406867      -0.66155339196724861       -0.30240611448152793       -0.67272723646779675      -0.50927246070021093       -0.21241245758536892      
502127659     -0.48412511985898926      -0.025513613070969055      -0.30427864626421558      -0.64990515121030223       -0.30292532052167359       -0.6568997691071925       -0.50757806334436362       -0.20063778515543942      
504130162     -0.48568182964894985      -0.018012064407323124      -0.31096236348416717      -0.63930851828660995       -0.30954445841613831       -0.64276549578107711      -0.51469332651501132       -0.18517728142171061      
506132665     -0.48903467000849266      -0.0031091710899144357     -0.31604894456710653      -0.6231397788138634        -0.30261830868920503       -0.6302817943897091       -0.51040961849679822       -0.17793611630644901      
508135168     -0.47672993817854586      0.00563069292456779        -0.32112241794789242      -0.61156650024436576       -0.29722955924481104       -0.61977000000077564      -0.5170955104273891        -0.16255730308952868      
510137672     -0.47319615192777154      0.025326594417636326       -0.32899463513272414      -0.60133094036204715       -0.302221561531831         -0.60275624790799909      -0.50921079554667059       -0.14481340448292332      
512140175     -0.46524928459640669      0.030126884929021821       -0.33719816673903236      -0.59109553157146477       -0.29994046703166838       -0.59415253297030823      -0.5106592894278017        -0.13407104112427598      
514142678     -0.46566804121000865      0.03865496465514303        -0.3374520506169128       -0.57864085788994934       -0.29128187312660481       -0.58209143589951851      -0.51970657120033215       -0.12176635695711696      
516145181     -0.45190979216719512      0.047206121654056833       -0.33831789576988536      -0.56943673141791085       -0.28935420920069371       -0.56519168745822768      -0.51689961190229294       -0.11030793857309287      
518147684     -0.45035818310581771      0.065554672727967042       -0.34200540480740405      -0.56058933775782938       -0.29145273479617884       -0.55216917180849723      -0.51826751204508614       -0.094824856972008542     
520150187     -0.44067900843085517      0.074894392744909902       -0.34015741381986653      -0.55054667238582788       -0.28526296890534025       -0.53953225354254275      -0.50996064004473418       -0.089684026583061557     
522152690     -0.44220016771954285      0.081611910221139145       -0.33817609500189216      -0.53700654881891419       -0.28412414217601711       -0.5286762422866883       -0.51401377087348743       -0.072671298887088356     
524155193     -0.42973289832045647      0.08761642993114549        -0.34045665433122063      -0.52654888322613302       -0.28086920745298916       -0.51040847521183297      -0.5131054710970574        -0.054270983921335621     
526157697     -0.41903099098358743      0.095205243036445827       -0.33749698946272827      -0.51817751747860397       -0.28018834026776468       -0.49785229693572092      -0.51395017153824896       -0.040892458028035983     
528160200     -0.41332180449491174      0.10037117372711298        -0.33486849425996523      -0.50877275966319557       -0.2767754582486997        -0.48706992467657634      -0.51127066248799469       -0.033905406014816127     
530162703     -0.4102381816343727       0.11295375354749697        -0.33455564873207477      -0.50067840498674399       -0.27708770004961925       -0.47561308134327757      -0.49986125221485506       -0.020750939352154711     
532165206     -0.41452208623776765      0.12165349228062859        -0.33010420720272393      -0.49212090247549273       -0.26812957419293026       -0.46559215546718868      -0.5010105694901047        -0.0046635529464406234    
534167709     -0.40795783689107989      0.13330750969968796        -0.32919361787595813      -0.48694699314423412       -0.26857398571751379       -0.45733729513848859      -0.49982966515574961       0.0088408609973243905     
536170212     -0.39099110637941625      0.14756890963587849        -0.32302776527201515      -0.47963285524150667       -0.26964726218326673       -0.44787021518833953      -0.49575930482704977       0.016086636295974822      
538172715     -0.38421630224381337      0.15533706535489306        -0.3201635901753237       -0.46969887668177346       -0.2632437204000293        -0.43726379524890097      -0.49593005166985871       0.028189268526202054      
540175218     -0.37716288103977724      0.15304512517775515        -0.31545835295011193      -0.46145174054386029       -0.25891557228296702       -0.42985445246684512      -0.48789310790612772       0.038115463963894786      
542177722     -0.36663538070187124      0.16442510501267488        -0.30946986730901788      -0.45430621393093779       -0.2584604277380651        -0.41719252512427163      -0.48526668433767817       0.058197082325165697      
544180225     -0.35815037984728398      0.17318130931135226        -0.30369061281611309      -0.45153686494165962       -0.25728133944270903       -0.41063134564867987      -0.49024578368675814       0.064747642631321614      
546182728     -0.35238875459088742      0.18266325600183728        -0.30223684521870653      -0.44218616922368031       -0.25243519854541668       -0.40303390654537857      -0.49160909532250491       0.0679218518146113        
548185231     -0.34989301358457681      0.18113948266141008        -0.29189639540574147      -0.43446298409930728       -0.2502648352533236        -0.39757475756883526      -0.49069226615885569       0.077595922071553566      
550187734     -0.34701488460417812      0.18977502325771775        -0.28347998591180285      -0.42978465944455474       -0.25071420816563789       -0.39146709955798975      -0.48139747012869266       0.094613041433777315      
552190237     -0.33702004997504681      0.20432829086015944        -0.2797901071668476       -0.42126011705163807       -0.25172422198280131       -0.38510546332658102      -0.485279227742832         0.103470592528568         
554192740     -0.3319550337710217       0.20487693370537077        -0.27456028045176323      -0.41437268217970641       -0.25269521243685072       -0.37998337584574249      -0.4821120896060741        0.10465381714813794       
556195243     -0.31392328793123575      0.21043590101245249        -0.27271770078964075      -0.41238837781555665       -0.25145107675023459       -0.3768015146172356       -0.4770110263012346        0.12594222428272442       
558197747     -0.30188440395700639      0.21193207401638425        -0.2679474397926222       -0.40603584177391311       -0.25179902758677564       -0.37174077356006741      -0.4757560149396704        0.12773294781752706       
560200250     -0.29672331821180487      0.22426099493926946        -0.26053486209461268      -0.3965553771414605        -0.25403925121660043       -0.37017653630367892      -0.4675006721009608        0.13757274266638669       
562202753     -0.29585504694772002      0.2318946510843779         -0.25592055997275343      -0.38870198146208246       -0.25367934019612171       -0.36615086098401994      -0.46885042745112948       0.13505544600526176       
564205256     -0.28660955272261346      0.22766557332590009        -0.25129993840795833      -0.38493354101843813       -0.25282452707660857       -0.36058834283387731      -0.47140516672792809       0.15188133474079107       
566207759     -0.28453555119742868      0.24357540445076351        -0.24860119173763967      -0.38032825887356903       -0.25318581824985104       -0.36181789598358344      -0.46499890386213516       0.15654540371196338       
568210262     -0.27873484111644647      0.24190764099134585        -0.24421715746058278      -0.37405365111364119       -0.25347421201533527       -0.35980208126588942      -0.45802409375444098       0.16571730051706154       
570212765     -0.27127397785421786      0.25429606937978222        -0.24051931899834275      -0.36909846037030392       -0.25270176116550919       -0.36078013617295712      -0.45077233066974409       0.16855987169506223       
