# Hz S DB R 50
! CMT, S5180, 51801906, 22.3.3/1
! Date: 09/01/2023 11:17:48
! Data: Format (Calibration Info)
! Freq	S11:dB/Ang(F2)	S21:dB/Ang(F2)	S12:dB/Ang(F2)	S22:dB/Ang(F2)
5.00000000000E+05	-6.45002038392E+01	-5.00859716684E+01	-4.13734151382E-03	-1.38888767957E-01	-4.76450834161E-03	-1.39161385408E-01	-6.86116042037E+01	-3.74006061451E+01
2.04975000000E+07	-3.94418046744E+01	-9.11950368899E+01	-2.05001091168E-02	-5.79618915426E+00	-2.05914251665E-02	-5.77049800115E+00	-3.95222745718E+01	-9.38911297093E+01
4.04950000000E+07	-3.32573575858E+01	-9.83624855794E+01	-3.26462821416E-02	-1.13258487985E+01	-3.10915762187E-02	-1.13269526810E+01	-3.35531934335E+01	-1.02357655349E+02
6.04925000000E+07	-2.95472642330E+01	-1.05622233411E+02	-4.66792311280E-02	-1.68793885775E+01	-4.65681297294E-02	-1.68731097016E+01	-3.00916716436E+01	-1.09955974751E+02
8.04900000000E+07	-2.68937507036E+01	-1.13344442048E+02	-6.17420092005E-02	-2.24293911364E+01	-6.15724285690E-02	-2.24089018974E+01	-2.75381193597E+01	-1.17420085382E+02
1.00487500000E+08	-2.48701252692E+01	-1.21442034608E+02	-7.85613292378E-02	-2.79554389925E+01	-7.95365114592E-02	-2.79415697875E+01	-2.54570211867E+01	-1.24737198421E+02
1.20485000000E+08	-2.32967195406E+01	-1.29241183887E+02	-9.33626475684E-02	-3.34993154381E+01	-9.53558697919E-02	-3.34809688921E+01	-2.36301939448E+01	-1.31323994587E+02
1.40482500000E+08	-2.20358016871E+01	-1.36183337645E+02	-1.09537396332E-01	-3.90746428903E+01	-1.13228362233E-01	-3.90519487292E+01	-2.19894134603E+01	-1.37262625153E+02
1.60480000000E+08	-2.10111767202E+01	-1.42370554784E+02	-1.26717565583E-01	-4.46819747772E+01	-1.35241200460E-01	-4.46496522309E+01	-2.05505297435E+01	-1.42502550367E+02
1.80477500000E+08	-2.01437420075E+01	-1.47931113613E+02	-1.49444225035E-01	-5.02840737686E+01	-1.59857267280E-01	-5.02559876838E+01	-1.93379276917E+01	-1.47171676040E+02
2.00475000000E+08	-1.93565276803E+01	-1.53311241000E+02	-1.68927586867E-01	-5.59424012533E+01	-1.82885264570E-01	-5.59032775853E+01	-1.83490684776E+01	-1.51645132517E+02
2.20472500000E+08	-1.85686284022E+01	-1.58993068977E+02	-1.90304291299E-01	-6.16243808232E+01	-2.06446975129E-01	-6.16095330926E+01	-1.75542934134E+01	-1.56048454579E+02
2.40470000000E+08	-1.77489018494E+01	-1.65134598753E+02	-2.11679916532E-01	-6.73528083707E+01	-2.30106693861E-01	-6.73487809533E+01	-1.68812075300E+01	-1.60680321204E+02
2.60467500000E+08	-1.68991762034E+01	-1.71732903288E+02	-2.42413195724E-01	-7.32033268456E+01	-2.52904235191E-01	-7.31591538172E+01	-1.63124896218E+01	-1.65861091119E+02
2.80465000000E+08	-1.60329712141E+01	-1.78492952588E+02	-2.75772080738E-01	-7.90093446705E+01	-2.81680434057E-01	-7.89956950964E+01	-1.57469775330E+01	-1.71862507100E+02
3.00462500000E+08	-1.51808869142E+01	1.74868436443E+02	-3.12829815315E-01	-8.49005798834E+01	-3.09045261098E-01	-8.48859124234E+01	-1.51619087965E+01	-1.78695663000E+02
3.20460000000E+08	-1.43818253103E+01	1.68391187087E+02	-3.45057296203E-01	-9.07996780269E+01	-3.36694788347E-01	-9.08311212541E+01	-1.45334246853E+01	1.73931913386E+02
3.40457500000E+08	-1.36624314605E+01	1.61949642196E+02	-3.79328127592E-01	-9.68674370258E+01	-3.64031647168E-01	-9.69128421759E+01	-1.38783639439E+01	1.66259498669E+02
3.60455000000E+08	-1.30267051430E+01	1.55544831224E+02	-4.24849760052E-01	-1.03055303199E+02	-4.07769416288E-01	-1.03095699520E+02	-1.32361592423E+01	1.58811439910E+02
3.80452500000E+08	-1.24549714317E+01	1.48868557871E+02	-4.81183729961E-01	-1.09301040448E+02	-4.64703978750E-01	-1.09306302056E+02	-1.26257420629E+01	1.51729695146E+02
4.00450000000E+08	-1.19338901273E+01	1.41927032655E+02	-5.44252722466E-01	-1.15549977059E+02	-5.29349152475E-01	-1.15523723165E+02	-1.20585714043E+01	1.44963800952E+02
4.20447500000E+08	-1.14521277847E+01	1.34819828903E+02	-5.98619200054E-01	-1.21835392813E+02	-5.81315046079E-01	-1.21790840954E+02	-1.15404259605E+01	1.38369628602E+02
4.40445000000E+08	-1.09789463145E+01	1.27825680287E+02	-6.31934906719E-01	-1.28290746507E+02	-6.15355769835E-01	-1.28259408876E+02	-1.10390427562E+01	1.31631730038E+02
4.60442500000E+08	-1.05169519459E+01	1.21005951139E+02	-6.62228864210E-01	-1.35064523311E+02	-6.48978102897E-01	-1.35046719753E+02	-1.05539195200E+01	1.24485559872E+02
4.80440000000E+08	-1.00800778829E+01	1.14479866635E+02	-7.18136184154E-01	-1.42163889634E+02	-7.08402944826E-01	-1.42156084364E+02	-1.01072420641E+01	1.16908456650E+02
5.00437500000E+08	-9.67923645576E+00	1.08043145895E+02	-8.10167160150E-01	-1.49418456909E+02	-8.06526418455E-01	-1.49363708360E+02	-9.69783484046E+00	1.09127593933E+02
5.20435000000E+08	-9.32052752377E+00	1.01371153739E+02	-9.13641725683E-01	-1.56664830188E+02	-9.12551820311E-01	-1.56518042975E+02	-9.35535565357E+00	1.01215990823E+02
5.40432500000E+08	-9.03775176300E+00	9.40275614737E+01	-9.98801424632E-01	-1.63985798518E+02	-9.83448356706E-01	-1.63753479124E+02	-9.11282321177E+00	9.32145694760E+01
5.60430000000E+08	-8.84790176024E+00	8.59558869770E+01	-1.03263483502E+00	-1.71660963364E+02	-1.00137899210E+00	-1.71349428076E+02	-8.98127854867E+00	8.52141550165E+01
5.80427500000E+08	-8.78757844916E+00	7.70452297123E+01	-1.03986241835E+00	-1.79995453252E+02	-9.87955374082E-01	-1.79690081524E+02	-8.96674761128E+00	7.69888897784E+01
6.00425000000E+08	-8.94242828587E+00	6.76142562761E+01	-1.04931167832E+00	1.70908756498E+02	-9.90794734111E-01	1.71117453747E+02	-9.12110245577E+00	6.82101899764E+01
6.20422500000E+08	-9.40098978516E+00	5.81109133965E+01	-1.06791924443E+00	1.61116360672E+02	-1.02284596058E+00	1.61199142768E+02	-9.51922767844E+00	5.85885137657E+01
6.40420000000E+08	-1.03842581352E+01	4.90247267462E+01	-1.05742034933E+00	1.50444948811E+02	-1.03841540013E+00	1.50428072192E+02	-1.03843397033E+01	4.79301493149E+01
6.60417500000E+08	-1.23731274738E+01	4.15217881803E+01	-9.99693585904E-01	1.38193707212E+02	-1.00452216791E+00	1.38142763954E+02	-1.22040314872E+01	3.66034854656E+01
6.80415000000E+08	-1.65743552923E+01	4.28284790951E+01	-9.50749305009E-01	1.23337470789E+02	-9.66075822138E-01	1.23275580612E+02	-1.64861895227E+01	2.73879075562E+01
7.00412500000E+08	-2.01768496867E+01	1.02324008623E+02	-1.09789049147E+00	1.05020018695E+02	-1.09730292053E+00	1.04958071195E+02	-2.71174695904E+01	9.98344300989E+01
7.20410000000E+08	-1.14777229904E+01	1.28288921097E+02	-1.67380384896E+00	8.30045523906E+01	-1.63265683770E+00	8.27528227268E+01	-1.24550962707E+01	1.39706633856E+02
7.40407500000E+08	-6.18111279454E+00	1.13729668491E+02	-2.98382310641E+00	5.76538847292E+01	-2.93249097408E+00	5.70326611204E+01	-6.34181043107E+00	1.19973923476E+02
7.60405000000E+08	-3.43554258160E+00	9.28645029792E+01	-5.21634043330E+00	3.14203008665E+01	-5.20066316018E+00	3.08288081218E+01	-3.45622970909E+00	9.73505212891E+01
7.80402500000E+08	-2.24607161954E+00	7.22826321916E+01	-7.74524844136E+00	6.01549071557E+00	-7.72243540602E+00	5.96991945712E+00	-2.29615957718E+00	7.60542604026E+01
8.00400000000E+08	-2.75043156434E+00	5.40373028307E+01	-9.01129642168E+00	-3.30150033612E+01	-8.91823208838E+00	-3.25710983121E+01	-3.23172674543E+00	5.60128972824E+01
8.20397500000E+08	-1.71142768290E+00	5.84588029404E+01	-1.91203536659E+01	-1.24633494340E+02	-1.89270519158E+01	-1.23540951315E+02	-2.06106282223E+00	6.75491057917E+01
8.40395000000E+08	-7.14576043671E-01	4.23135726885E+01	-3.99821997514E+01	-1.38882805724E+02	-3.96638154223E+01	-1.38246034826E+02	-7.65810939220E-01	4.83756816498E+01
8.60392500000E+08	-5.31150391417E-01	3.09323568945E+01	-4.97219213588E+01	-5.64142437255E+01	-4.95015797253E+01	-5.68783157024E+01	-5.39834790712E-01	3.50160794452E+01
8.80390000000E+08	-4.57932147415E-01	2.14539728401E+01	-4.63330390947E+01	-6.18484753277E+01	-4.62409896817E+01	-6.26125355330E+01	-4.41129047882E-01	2.41886563044E+01
9.00387500000E+08	-4.26542296506E-01	1.27635487006E+01	-4.10345411226E+01	-7.18518338661E+01	-4.10270949984E+01	-7.25232486073E+01	-3.83108991998E-01	1.49433133513E+01
9.20385000000E+08	-4.17409269643E-01	4.43686001031E+00	-3.57817503324E+01	-7.58439008958E+01	-3.59585940799E+01	-7.62142680321E+01	-3.31596387783E-01	6.86122232782E+00
9.40382500000E+08	-4.16227266451E-01	-3.58211561796E+00	-3.12700817115E+01	-7.96764314317E+01	-3.15481398064E+01	-7.94954140620E+01	-3.01447148745E-01	-4.23365326945E-01
9.60380000000E+08	-4.09720859164E-01	-1.11831930508E+01	-2.76376073756E+01	-8.62117683632E+01	-2.79403392914E+01	-8.57268319016E+01	-2.87729829320E-01	-7.26309706248E+00
9.80377500000E+08	-3.98774097320E-01	-1.82386397003E+01	-2.49820668666E+01	-9.38019553023E+01	-2.52186680301E+01	-9.32830244811E+01	-2.90551438206E-01	-1.39677660409E+01
1.00037500000E+09	-3.85264220507E-01	-2.47228169362E+01	-2.30329510045E+01	-1.00496054469E+02	-2.32441966895E+01	-1.00183046192E+02	-3.18656048621E-01	-2.07213294213E+01
1.02037250000E+09	-3.76829123208E-01	-3.08301347133E+01	-2.15092761904E+01	-1.05288236565E+02	-2.16678133964E+01	-1.05357696200E+02	-3.58660098336E-01	-2.76099875054E+01
1.04037000000E+09	-3.79163895803E-01	-3.68441887051E+01	-2.00715773140E+01	-1.08268798603E+02	-2.01681962475E+01	-1.08815250148E+02	-4.04874105169E-01	-3.45804885591E+01
1.06036750000E+09	-3.97500178925E-01	-4.29692104664E+01	-1.84294712486E+01	-1.10897183330E+02	-1.84729215666E+01	-1.11878876113E+02	-4.42599252841E-01	-4.14498787400E+01
1.08036500000E+09	-4.32021980159E-01	-4.92954664626E+01	-1.67004647626E+01	-1.15919688689E+02	-1.66909416221E+01	-1.17332266262E+02	-4.60645078435E-01	-4.80308486522E+01
1.10036250000E+09	-4.75340772758E-01	-5.57948638008E+01	-1.53010181175E+01	-1.23584875791E+02	-1.53007415047E+01	-1.25273251363E+02	-4.59856048518E-01	-5.42490378920E+01
1.12036000000E+09	-5.23793956525E-01	-6.22213559322E+01	-1.44254681470E+01	-1.31357709117E+02	-1.44580851449E+01	-1.32817443317E+02	-4.51366353593E-01	-6.00199051694E+01
1.14035750000E+09	-5.71403277002E-01	-6.83480001583E+01	-1.38740613771E+01	-1.37271818723E+02	-1.39327614098E+01	-1.38128031947E+02	-4.39967768737E-01	-6.55292760509E+01
1.16035500000E+09	-6.22018655643E-01	-7.41210816147E+01	-1.33488429197E+01	-1.40868182644E+02	-1.34072588102E+01	-1.40912730402E+02	-4.49009154671E-01	-7.09437390488E+01
1.18035250000E+09	-6.78618054808E-01	-7.95571093549E+01	-1.25551844863E+01	-1.43236242850E+02	-1.25457148655E+01	-1.42303997118E+02	-4.94510501171E-01	-7.63901549039E+01
1.20035000000E+09	-7.42460169331E-01	-8.48950163102E+01	-1.14058619160E+01	-1.47045048549E+02	-1.12801148411E+01	-1.45698208834E+02	-5.67371686568E-01	-8.19152403120E+01
1.22034750000E+09	-8.15275049447E-01	-9.04485657459E+01	-1.03206639291E+01	-1.54011503356E+02	-1.01365978304E+01	-1.52949228325E+02	-6.66122146095E-01	-8.76164606573E+01
1.24034500000E+09	-9.18475553455E-01	-9.63574531385E+01	-9.67238568613E+00	-1.62152007059E+02	-9.53518156642E+00	-1.61501034732E+02	-7.95846231775E-01	-9.33934581546E+01
1.26034250000E+09	-1.02863982730E+00	-1.02633260265E+02	-9.36299688562E+00	-1.69061434599E+02	-9.33037720496E+00	-1.68531552235E+02	-9.16308201570E-01	-9.91961749404E+01
1.28034000000E+09	-1.13612306561E+00	-1.09148358466E+02	-9.13303201215E+00	-1.73638583747E+02	-9.21606636381E+00	-1.72866263987E+02	-1.02239532426E+00	-1.05093403592E+02
1.30033750000E+09	-1.25613927082E+00	-1.15613914986E+02	-8.67295141426E+00	-1.76272511912E+02	-8.81581620371E+00	-1.74856069581E+02	-1.13352629214E+00	-1.11110433289E+02
1.32033500000E+09	-1.38137487079E+00	-1.21610345776E+02	-7.77777386699E+00	-1.79163967380E+02	-7.86899019689E+00	-1.77243886324E+02	-1.24602833986E+00	-1.17075786042E+02
1.34033250000E+09	-1.49301013451E+00	-1.27285433592E+02	-6.71310154980E+00	1.74912598583E+02	-6.70559529248E+00	1.76553259595E+02	-1.34372759775E+00	-1.23245604169E+02
1.36033000000E+09	-1.67488399516E+00	-1.32881229043E+02	-5.98432317151E+00	1.66614385141E+02	-5.94477349352E+00	1.67494460970E+02	-1.50625214943E+00	-1.29614343827E+02
1.38032750000E+09	-1.93681849224E+00	-1.38381574808E+02	-5.68216588251E+00	1.58732840654E+02	-5.66385877602E+00	1.58937026047E+02	-1.73151828160E+00	-1.35784009386E+02
1.40032500000E+09	-2.23798728748E+00	-1.44319683911E+02	-5.56564297091E+00	1.52776519506E+02	-5.59502903395E+00	1.52640397763E+02	-1.97970893942E+00	-1.41894723788E+02
1.42032250000E+09	-2.60576099968E+00	-1.51010964269E+02	-5.33203212309E+00	1.48774811092E+02	-5.40587580844E+00	1.48574059056E+02	-2.28025331703E+00	-1.48048717429E+02
1.44032000000E+09	-3.03119259532E+00	-1.58055554425E+02	-4.74462635935E+00	1.44997753543E+02	-4.84917619570E+00	1.45122527665E+02	-2.63997429220E+00	-1.54013031894E+02
1.46031750000E+09	-3.41171113327E+00	-1.65168466040E+02	-3.92595393349E+00	1.38996088583E+02	-4.02281504262E+00	1.39523962893E+02	-2.99676619196E+00	-1.59880801472E+02
1.48031500000E+09	-3.79428632400E+00	-1.72470639750E+02	-3.28133720942E+00	1.30566645406E+02	-3.34439149420E+00	1.31407962085E+02	-3.40891850892E+00	-1.66226591366E+02
1.50031250000E+09	-4.28183760972E+00	-1.79342487598E+02	-2.99648110371E+00	1.21831400896E+02	-3.00877717187E+00	1.22789838039E+02	-3.94745323350E+00	-1.72595010514E+02
1.52031000000E+09	-4.87543155144E+00	1.74236402923E+02	-2.90866013939E+00	1.14594843158E+02	-2.86686443233E+00	1.15370513891E+02	-4.58871584420E+00	-1.79103022713E+02
1.54030750000E+09	-5.67215372353E+00	1.67688936365E+02	-2.76240831120E+00	1.09038283503E+02	-2.67902620363E+00	1.09314982776E+02	-5.42062989763E+00	1.73950115105E+02
1.56030500000E+09	-6.79746631266E+00	1.60867107931E+02	-2.38409098578E+00	1.03894327055E+02	-2.28619892214E+00	1.03545105957E+02	-6.54513323462E+00	1.67210603602E+02
1.58030250000E+09	-8.23011226874E+00	1.53790313431E+02	-1.85733950107E+00	9.73847548077E+01	-1.78242532633E+00	9.65296992685E+01	-7.90119554626E+00	1.61103982610E+02
1.60030000000E+09	-9.97118762410E+00	1.45955952510E+02	-1.44169264271E+00	8.93028328284E+01	-1.42467362350E+00	8.81778131370E+01	-9.50074396193E+00	1.55001441718E+02
1.62029750000E+09	-1.19804398388E+01	1.38452765245E+02	-1.27168114091E+00	8.08298506649E+01	-1.31194804614E+00	7.99340788896E+01	-1.14640008835E+01	1.49141585435E+02
1.64029500000E+09	-1.41027390561E+01	1.32234749565E+02	-1.24965128012E+00	7.30780182878E+01	-1.29787009934E+00	7.27554716145E+01	-1.37804047095E+01	1.43281752154E+02
1.66029250000E+09	-1.64871252844E+01	1.28147829946E+02	-1.23186475675E+00	6.61425259796E+01	-1.23935665238E+00	6.62571997334E+01	-1.67974251683E+01	1.36902577998E+02
1.68029000000E+09	-1.96038963917E+01	1.29311578365E+02	-1.16193983347E+00	5.93666027704E+01	-1.12787056806E+00	5.95211261049E+01	-2.13858948957E+01	1.32871544299E+02
1.70028750000E+09	-2.41609122421E+01	1.44332831399E+02	-1.08590793774E+00	5.22942453655E+01	-1.07752837113E+00	5.23210513385E+01	-2.98185939420E+01	1.49906935642E+02
1.72028500000E+09	-2.68406797943E+01	-1.56714534302E+02	-1.07166231008E+00	4.52087713340E+01	-1.11952373444E+00	4.52780680444E+01	-2.79215421967E+01	-1.18191142564E+02
1.74028250000E+09	-2.11986347287E+01	-1.18715820389E+02	-1.08799238322E+00	3.84684343522E+01	-1.17457254406E+00	3.86855592160E+01	-2.08080988026E+01	-1.10043375149E+02
1.76028000000E+09	-1.68460008055E+01	-1.10885372052E+02	-1.07642508013E+00	3.18451343990E+01	-1.14900914411E+00	3.21578651844E+01	-1.68926218933E+01	-1.14620777877E+02
1.78027750000E+09	-1.41083162936E+01	-1.12095944100E+02	-1.07135561712E+00	2.48338135349E+01	-1.09601989729E+00	2.49787345982E+01	-1.43337389787E+01	-1.21056062511E+02
1.80027500000E+09	-1.24926161594E+01	-1.16791222087E+02	-1.16286309555E+00	1.75808661985E+01	-1.14468203914E+00	1.73013155942E+01	-1.25788172620E+01	-1.26400136604E+02
1.82027250000E+09	-1.14300028011E+01	-1.23122717042E+02	-1.37825629065E+00	1.07608796162E+01	-1.34891078150E+00	1.01358048582E+01	-1.11874969163E+01	-1.30340448809E+02
1.84027000000E+09	-1.06040978379E+01	-1.31176113510E+02	-1.62541001734E+00	4.90599037379E+00	-1.60401090937E+00	4.27324426093E+00	-1.00103892193E+01	-1.34509056921E+02
1.86026750000E+09	-9.96385390294E+00	-1.39728877929E+02	-1.76002325723E+00	-5.31920385837E-02	-1.72151663464E+00	-3.54910900866E-01	-9.17061965527E+00	-1.39239036051E+02
1.88026500000E+09	-9.36398752010E+00	-1.46968780137E+02	-1.69615403692E+00	-5.09259813555E+00	-1.61345812593E+00	-5.12981423209E+00	-8.57964200931E+00	-1.44120313917E+02
1.90026250000E+09	-8.73501464617E+00	-1.53020534930E+02	-1.53103264659E+00	-1.13365546182E+01	-1.41550555752E+00	-1.12392476164E+01	-8.09192937877E+00	-1.50048833948E+02
1.92026000000E+09	-8.27669265334E+00	-1.58295660380E+02	-1.47329790878E+00	-1.86950566701E+01	-1.36209016697E+00	-1.85723205773E+01	-7.83460110657E+00	-1.57231467299E+02
1.94025750000E+09	-8.05256574365E+00	-1.62556083648E+02	-1.62703255549E+00	-2.58663219703E+01	-1.54460426672E+00	-2.57705445007E+01	-7.74934059137E+00	-1.64087983951E+02
1.96025500000E+09	-7.97319892448E+00	-1.66829917865E+02	-1.87438333404E+00	-3.18333882529E+01	-1.83183778682E+00	-3.18172424367E+01	-7.62965113545E+00	-1.70448744891E+02
1.98025250000E+09	-8.07108219382E+00	-1.72287663646E+02	-2.02919268889E+00	-3.66236655641E+01	-2.05041565066E+00	-3.67084272056E+01	-7.50806141067E+00	-1.76705464105E+02
2.00025000000E+09	-8.34264601566E+00	-1.78894760728E+02	-1.97172846924E+00	-4.13056167291E+01	-2.05682366571E+00	-4.12200361993E+01	-7.48521831736E+00	1.77590284659E+02
2.02024750000E+09	-8.58038564456E+00	1.73792508859E+02	-1.76323820767E+00	-4.71083767418E+01	-1.87121526458E+00	-4.66526722904E+01	-7.51933068646E+00	1.72543043840E+02
2.04024500000E+09	-8.72034713221E+00	1.65844189838E+02	-1.58789641733E+00	-5.44451089849E+01	-1.65523258054E+00	-5.36222863330E+01	-7.64646279040E+00	1.67188813302E+02
2.06024250000E+09	-8.92033841171E+00	1.58227190112E+02	-1.57422825356E+00	-6.25411582333E+01	-1.56831139611E+00	-6.16043746784E+01	-8.05772823503E+00	1.61139904334E+02
2.08024000000E+09	-9.29790784132E+00	1.52249622675E+02	-1.69703037353E+00	-7.02339484583E+01	-1.62779926058E+00	-6.95290095343E+01	-8.80047382619E+00	1.54782332291E+02
2.10023750000E+09	-9.99541638002E+00	1.47756933081E+02	-1.79727794820E+00	-7.71866816791E+01	-1.71775228420E+00	-7.69074794920E+01	-9.88685566883E+00	1.48046758938E+02
2.12023500000E+09	-1.12837934978E+01	1.44635448366E+02	-1.76701525280E+00	-8.40415450040E+01	-1.73519411812E+00	-8.41073574867E+01	-1.14643338771E+01	1.41077548767E+02
2.14023250000E+09	-1.34918250383E+01	1.43652516151E+02	-1.64588667667E+00	-9.16621976628E+01	-1.66805957670E+00	-9.18296705438E+01	-1.36234594790E+01	1.35559409374E+02
2.16023000000E+09	-1.69378997978E+01	1.47483513403E+02	-1.54811269332E+00	-1.00344274288E+02	-1.60082746074E+00	-1.00427969861E+02	-1.65378369420E+01	1.34578934156E+02
2.18022750000E+09	-2.17576941024E+01	1.67116968442E+02	-1.54463297016E+00	-1.09698130112E+02	-1.59334000099E+00	-1.09731778411E+02	-2.03728048632E+01	1.45992475277E+02
2.20022500000E+09	-2.26771710169E+01	-1.44126745150E+02	-1.61787289569E+00	-1.19456315429E+02	-1.65736815634E+00	-1.19546598787E+02	-2.23870416617E+01	-1.73261144504E+02
2.22022250000E+09	-1.83533616630E+01	-1.23743671043E+02	-1.74347308083E+00	-1.29668576537E+02	-1.78606221400E+00	-1.29750252679E+02	-1.82450963446E+01	-1.40090097506E+02
2.24022000000E+09	-1.47065466852E+01	-1.25525074839E+02	-1.93633558344E+00	-1.40527645131E+02	-1.98433204434E+00	-1.40392001179E+02	-1.38218111058E+01	-1.32905003175E+02
2.26021750000E+09	-1.18228917644E+01	-1.33799019695E+02	-2.23852014559E+00	-1.51985491207E+02	-2.25208742789E+00	-1.51420175651E+02	-1.06097933378E+01	-1.35607451027E+02
2.28021500000E+09	-9.46974823048E+00	-1.43319815827E+02	-2.63629073262E+00	-1.63658898335E+02	-2.57618252947E+00	-1.62871814320E+02	-8.40493088131E+00	-1.42439111275E+02
2.30021250000E+09	-7.65967716247E+00	-1.52361605236E+02	-3.08220546166E+00	-1.75485519605E+02	-2.96558731468E+00	-1.75000716061E+02	-7.02433947837E+00	-1.51293544612E+02
