# Hz S DB R 50
! CMT, S5180, 51801906, 22.3.3/1
! Date: 09/01/2023 11:16:10
! Data: Format (Calibration Info)
! Freq	S11:dB/Ang(F2)	S21:dB/Ang(F2)	S12:dB/Ang(F2)	S22:dB/Ang(F2)
5.00000000000E+05	-6.01037061731E+00	1.79866351635E+02	-6.04178689311E+00	-1.54781245233E-01	-6.03858834832E+00	-1.42773603582E-01	-6.00534751707E+00	1.79875548133E+02
2.04975000000E+07	-5.98527999396E+00	1.75058990782E+02	-6.03259058076E+00	-5.58656032768E+00	-6.02824729917E+00	-5.59012147402E+00	-5.99280145731E+00	1.75394292578E+02
4.04950000000E+07	-5.99940491681E+00	1.70145561902E+02	-6.03426240624E+00	-1.08817969933E+01	-6.02037288706E+00	-1.09077897566E+01	-6.02223971788E+00	1.70693010836E+02
6.04925000000E+07	-6.02326212683E+00	1.65193945814E+02	-6.03578101160E+00	-1.61593340441E+01	-6.01137133126E+00	-1.62313684195E+01	-6.06418270350E+00	1.65764129510E+02
8.04900000000E+07	-6.05789886913E+00	1.60231607674E+02	-6.03322501214E+00	-2.14103041980E+01	-6.00343437318E+00	-2.15140353404E+01	-6.10411273792E+00	1.60664071140E+02
1.00487500000E+08	-6.10331957809E+00	1.55249353906E+02	-6.02248251606E+00	-2.66854370837E+01	-5.99438890770E+00	-2.67582836720E+01	-6.13155867947E+00	1.55530527760E+02
1.20485000000E+08	-6.15915565370E+00	1.50247202080E+02	-6.01599139418E+00	-3.20243344344E+01	-5.99162792237E+00	-3.20141597190E+01	-6.14665498349E+00	1.50492387160E+02
1.40482500000E+08	-6.22359776304E+00	1.45187230969E+02	-6.01608256510E+00	-3.73452109397E+01	-5.99918542236E+00	-3.72246048604E+01	-6.16125782854E+00	1.45662818397E+02
1.60480000000E+08	-6.29648503344E+00	1.40087136162E+02	-6.01351914280E+00	-4.26035711043E+01	-6.00717039111E+00	-4.23550026431E+01	-6.18996400157E+00	1.41021348876E+02
1.80477500000E+08	-6.38512493457E+00	1.34902713798E+02	-6.00808192030E+00	-4.78483445907E+01	-6.00252935397E+00	-4.74340563088E+01	-6.25281224609E+00	1.36506123233E+02
2.00475000000E+08	-6.48839033544E+00	1.29654532629E+02	-5.99537397770E+00	-5.31304692742E+01	-5.98968491267E+00	-5.26405160432E+01	-6.35773650389E+00	1.31923926144E+02
2.20472500000E+08	-6.59626138449E+00	1.24295962040E+02	-5.98424571942E+00	-5.84461517212E+01	-5.98333918830E+00	-5.79551156628E+01	-6.50801669597E+00	1.27085129955E+02
2.40470000000E+08	-6.71043865092E+00	1.18957733909E+02	-5.98318378884E+00	-6.37114095659E+01	-5.98242313024E+00	-6.33003371377E+01	-6.68433551136E+00	1.21931830396E+02
2.60467500000E+08	-6.83161020196E+00	1.13565713210E+02	-5.98187617703E+00	-6.89516706113E+01	-5.97508802573E+00	-6.86549011069E+01	-6.86490857041E+00	1.16466163434E+02
2.80465000000E+08	-6.95588295975E+00	1.08177461471E+02	-5.96794678388E+00	-7.40819316464E+01	-5.96727218217E+00	-7.39716276499E+01	-7.03127085535E+00	1.10746747643E+02
3.00462500000E+08	-7.08249762008E+00	1.02777517002E+02	-5.94279176583E+00	-7.92741776445E+01	-5.94433993403E+00	-7.93006709530E+01	-7.16789029090E+00	1.05014541656E+02
3.20460000000E+08	-7.22524357828E+00	9.73763164233E+01	-5.91309387853E+00	-8.44909135832E+01	-5.92146611414E+00	-8.46606850284E+01	-7.28674526453E+00	9.93683985322E+01
3.40457500000E+08	-7.38301232986E+00	9.18585461726E+01	-5.89660498968E+00	-8.97883930828E+01	-5.90730504149E+00	-8.99929844431E+01	-7.41149108228E+00	9.38666114085E+01
3.60455000000E+08	-7.56353387178E+00	8.62601281304E+01	-5.89529445404E+00	-9.50045370834E+01	-5.89805191976E+00	-9.51800275968E+01	-7.56219061410E+00	8.84479694123E+01
3.80452500000E+08	-7.76593858499E+00	8.04947876289E+01	-5.88981172502E+00	-1.00088705340E+02	-5.88361483204E+00	-1.00220199335E+02	-7.76351147561E+00	8.29447268446E+01
4.00450000000E+08	-7.99443613966E+00	7.45547588532E+01	-5.86231717767E+00	-1.05095641084E+02	-5.84691503910E+00	-1.05196142802E+02	-8.02165502261E+00	7.72317136257E+01
4.20447500000E+08	-8.25313168777E+00	6.84618113980E+01	-5.81421188504E+00	-1.10201113721E+02	-5.79073920171E+00	-1.10291232807E+02	-8.32744252803E+00	7.11842649217E+01
4.40445000000E+08	-8.53843090315E+00	6.23412144454E+01	-5.76107024160E+00	-1.15430628598E+02	-5.74010978512E+00	-1.15537594355E+02	-8.65580360559E+00	6.48887208853E+01
4.60442500000E+08	-8.85972445998E+00	5.61528671519E+01	-5.73565235640E+00	-1.20724001740E+02	-5.72246440956E+00	-1.20796381552E+02	-8.98347186572E+00	5.84729024162E+01
4.80440000000E+08	-9.22605691191E+00	4.99278060795E+01	-5.73146186972E+00	-1.25831619904E+02	-5.72328371343E+00	-1.25896389869E+02	-9.31105737026E+00	5.20281018967E+01
5.00437500000E+08	-9.62187670551E+00	4.35248914865E+01	-5.72416476870E+00	-1.30693349674E+02	-5.71489181168E+00	-1.30697580587E+02	-9.65627075905E+00	4.57568121394E+01
5.20435000000E+08	-1.00594193174E+01	3.69369210414E+01	-5.68015618668E+00	-1.35376382103E+02	-5.66284804281E+00	-1.35322579258E+02	-1.00470033312E+01	3.95353351954E+01
5.40432500000E+08	-1.05333715350E+01	3.00438627414E+01	-5.59663604695E+00	-1.40063535416E+02	-5.56332837555E+00	-1.40047452391E+02	-1.05363872862E+01	3.30496812438E+01
5.60430000000E+08	-1.10510608729E+01	2.27926198739E+01	-5.48539239149E+00	-1.44959056910E+02	-5.43780769367E+00	-1.44983387250E+02	-1.11490219064E+01	2.60871476554E+01
5.80427500000E+08	-1.16181329038E+01	1.51675900184E+01	-5.37882544780E+00	-1.49987413720E+02	-5.32858414547E+00	-1.50103002415E+02	-1.18742839771E+01	1.83507881749E+01
6.00425000000E+08	-1.22548288038E+01	7.07628132282E+00	-5.28282887432E+00	-1.54958022264E+02	-5.24439928539E+00	-1.55128017914E+02	-1.26907645110E+01	9.44942683966E+00
6.20422500000E+08	-1.29994933327E+01	-1.45473873807E+00	-5.17520924951E+00	-1.59773690293E+02	-5.15161933788E+00	-1.59919441265E+02	-1.35388795646E+01	-5.10848929800E-01
6.40420000000E+08	-1.38810520884E+01	-1.06020599452E+01	-5.02139610956E+00	-1.64509155551E+02	-5.01279994330E+00	-1.64586287181E+02	-1.43690087206E+01	-1.12729033587E+01
6.60417500000E+08	-1.49267467742E+01	-2.07546345806E+01	-4.82690649468E+00	-1.69380126116E+02	-4.82904001640E+00	-1.69374001136E+02	-1.51985681563E+01	-2.23913728283E+01
6.80415000000E+08	-1.61736270823E+01	-3.21637305855E+01	-4.60301547149E+00	-1.74474053075E+02	-4.61395950029E+00	-1.74400422918E+02	-1.61313231192E+01	-3.36237097790E+01
7.00412500000E+08	-1.76276886089E+01	-4.54911254490E+01	-4.37290340805E+00	-1.79745882431E+02	-4.38677730182E+00	-1.79602256012E+02	-1.73453060297E+01	-4.55043608956E+01
7.20410000000E+08	-1.93144202379E+01	-6.15229065676E+01	-4.13159988590E+00	1.74910075603E+02	-4.14378994268E+00	1.75056021616E+02	-1.90226271540E+01	-5.96325142328E+01
7.40407500000E+08	-2.12175392365E+01	-8.14016446752E+01	-3.86199081240E+00	1.69387916418E+02	-3.86256904519E+00	1.69519233861E+02	-2.11953157741E+01	-7.93109382881E+01
7.60405000000E+08	-2.31274315349E+01	-1.07893005039E+02	-3.56426341191E+00	1.63533436468E+02	-3.55979085368E+00	1.63598435666E+02	-2.31972133035E+01	-1.09737801826E+02
7.80402500000E+08	-2.42453295778E+01	-1.43021070128E+02	-3.27061581841E+00	1.57251231236E+02	-3.27053068684E+00	1.57249679149E+02	-2.32347941446E+01	-1.47382336893E+02
8.00400000000E+08	-2.34925295013E+01	1.79972294274E+02	-3.00664396597E+00	1.50636725668E+02	-3.01979156417E+00	1.50676294313E+02	-2.15888263127E+01	-1.77137169277E+02
8.20397500000E+08	-2.14958292431E+01	1.50483629410E+02	-2.77579282563E+00	1.43879465999E+02	-2.79113189885E+00	1.44053307830E+02	-2.00042006069E+01	1.62305939314E+02
8.40395000000E+08	-1.94486029667E+01	1.28907299073E+02	-2.55212506495E+00	1.36932107320E+02	-2.55479802280E+00	1.37206647028E+02	-1.90653246385E+01	1.44963050911E+02
8.60392500000E+08	-1.77680981318E+01	1.12126258652E+02	-2.35341609676E+00	1.29657009320E+02	-2.33425991355E+00	1.29885437328E+02	-1.86264142256E+01	1.27107327903E+02
8.80390000000E+08	-1.64921200886E+01	9.77683199262E+01	-2.21715422487E+00	1.22047704950E+02	-2.19957420195E+00	1.22102652274E+02	-1.82422244402E+01	1.07017940650E+02
9.00387500000E+08	-1.55792417752E+01	8.44119888816E+01	-2.17217734356E+00	1.14413385829E+02	-2.16675185885E+00	1.14358542464E+02	-1.75165142978E+01	8.59719979622E+01
9.20385000000E+08	-1.49726466932E+01	7.16195741012E+01	-2.19410596989E+00	1.07156694876E+02	-2.19498476069E+00	1.07001422848E+02	-1.63481908283E+01	6.75344797357E+01
9.40382500000E+08	-1.44910144229E+01	5.93587207670E+01	-2.20897845306E+00	1.00289114801E+02	-2.22624976247E+00	9.99638017596E+01	-1.50561934001E+01	5.33521686121E+01
9.60380000000E+08	-1.40937227162E+01	4.74607250366E+01	-2.18773372356E+00	9.34186451934E+01	-2.23159449946E+00	9.29779206207E+01	-1.39806854792E+01	4.26551285988E+01
9.80377500000E+08	-1.37811565366E+01	3.61205179405E+01	-2.17569094765E+00	8.61891124222E+01	-2.24224034566E+00	8.58232470821E+01	-1.33249362076E+01	3.43510465701E+01
1.00037500000E+09	-1.35365140582E+01	2.57857379570E+01	-2.24909166252E+00	7.87547787283E+01	-2.30583168103E+00	7.85098152570E+01	-1.30267433903E+01	2.73747711629E+01
1.02037250000E+09	-1.33964511190E+01	1.58116024283E+01	-2.40888343501E+00	7.16859492013E+01	-2.44584092214E+00	7.14745403540E+01	-1.30986182539E+01	2.02380715958E+01
1.04037000000E+09	-1.34408253496E+01	6.14316248979E+00	-2.59625268603E+00	6.53032972152E+01	-2.62042468740E+00	6.51148896309E+01	-1.35112834585E+01	1.21425864911E+01
1.06036750000E+09	-1.35914120473E+01	-3.26825534020E+00	-2.73016725472E+00	5.94793176870E+01	-2.73933498391E+00	5.93589662423E+01	-1.40860338588E+01	2.71428301720E+00
1.08036500000E+09	-1.37721154089E+01	-1.29898129589E+01	-2.78656972547E+00	5.36657090371E+01	-2.76704227172E+00	5.35847045986E+01	-1.45968476832E+01	-8.64268079363E+00
1.10036250000E+09	-1.39806613535E+01	-2.30721589953E+01	-2.81522249425E+00	4.74332478631E+01	-2.77655395666E+00	4.72413479044E+01	-1.48735845739E+01	-2.13737297641E+01
1.12036000000E+09	-1.41350872032E+01	-3.28373270842E+01	-2.90525712781E+00	4.09280594144E+01	-2.87405899668E+00	4.06381907231E+01	-1.48026649274E+01	-3.36953425458E+01
1.14035750000E+09	-1.41619157092E+01	-4.24472543462E+01	-3.07205619738E+00	3.46842732950E+01	-3.06571671408E+00	3.44372243057E+01	-1.44539150121E+01	-4.45352501030E+01
1.16035500000E+09	-1.41852837765E+01	-5.17874469741E+01	-3.24937249111E+00	2.90883111546E+01	-3.25805302150E+00	2.90181884329E+01	-1.40765082362E+01	-5.38783765411E+01
1.18035250000E+09	-1.42187361355E+01	-6.04125886149E+01	-3.35724757225E+00	2.39392286384E+01	-3.36119192377E+00	2.40911157666E+01	-1.38368595401E+01	-6.16060284122E+01
1.20035000000E+09	-1.42159954574E+01	-6.89745504768E+01	-3.36724856446E+00	1.86641152185E+01	-3.35412405541E+00	1.89553354092E+01	-1.37212398824E+01	-6.87656247293E+01
1.22034750000E+09	-1.42329650313E+01	-7.81264395590E+01	-3.35078833004E+00	1.28227801203E+01	-3.31902147514E+00	1.30865675562E+01	-1.37658013280E+01	-7.63300904935E+01
1.24034500000E+09	-1.42738723699E+01	-8.75345479217E+01	-3.40047291336E+00	6.62387976333E+00	-3.37297717804E+00	6.76743154465E+00	-1.39213472602E+01	-8.42703387535E+01
1.26034250000E+09	-1.42037484471E+01	-9.71530838786E+01	-3.52851585125E+00	6.54322808637E-01	-3.52345776735E+00	7.21505140781E-01	-1.40055583008E+01	-9.27930586554E+01
1.28034000000E+09	-1.40600231503E+01	-1.07030816588E+02	-3.67254933766E+00	-4.65498155990E+00	-3.69707104989E+00	-4.51218476125E+00	-1.39634502730E+01	-1.02156082818E+02
1.30033750000E+09	-1.39216128420E+01	-1.16157227985E+02	-3.73869685922E+00	-9.42236566613E+00	-3.77432118310E+00	-9.10654185310E+00	-1.38237607408E+01	-1.11422884239E+02
1.32033500000E+09	-1.37624576538E+01	-1.24204638476E+02	-3.68500700611E+00	-1.42888331098E+01	-3.71068027899E+00	-1.38908105637E+01	-1.35421815841E+01	-1.19959064028E+02
1.34033250000E+09	-1.36104597193E+01	-1.31958615668E+02	-3.58136184609E+00	-1.98663503218E+01	-3.58731840325E+00	-1.94993488720E+01	-1.31846496156E+01	-1.28233109194E+02
1.36033000000E+09	-1.35900343004E+01	-1.39534833714E+02	-3.54854764974E+00	-2.60602560018E+01	-3.54855468096E+00	-2.58370726819E+01	-1.29231453566E+01	-1.36077767085E+02
1.38032750000E+09	-1.35853580423E+01	-1.46923940792E+02	-3.63445273946E+00	-3.21395200310E+01	-3.63468514613E+00	-3.20102879652E+01	-1.27097775809E+01	-1.43105790017E+02
1.40032500000E+09	-1.34808522943E+01	-1.54879327889E+02	-3.76899530310E+00	-3.74759930075E+01	-3.77370902079E+00	-3.74036532599E+01	-1.24889404719E+01	-1.50074752408E+02
1.42032250000E+09	-1.33082482496E+01	-1.63363560386E+02	-3.83551038208E+00	-4.21080107446E+01	-3.84035840032E+00	-4.20472547423E+01	-1.22951150530E+01	-1.57122372026E+02
1.44032000000E+09	-1.30426201693E+01	-1.71404169704E+02	-3.76408331368E+00	-4.66732616350E+01	-3.77514427941E+00	-4.66364096145E+01	-1.20984908014E+01	-1.63811314403E+02
1.46031750000E+09	-1.26632590729E+01	-1.78957993987E+02	-3.60891209920E+00	-5.20044577728E+01	-3.62891754876E+00	-5.19063365236E+01	-1.18298467112E+01	-1.70228748903E+02
1.48031500000E+09	-1.23316971042E+01	1.73842456080E+02	-3.49105405323E+00	-5.81602955195E+01	-3.51755456809E+00	-5.78803043261E+01	-1.15780573167E+01	-1.76596941226E+02
1.50031250000E+09	-1.21546429283E+01	1.67254715491E+02	-3.50075588429E+00	-6.45262194792E+01	-3.50628393458E+00	-6.40775524981E+01	-1.14179803834E+01	1.77562147231E+02
1.52031000000E+09	-1.20830816909E+01	1.60887892356E+02	-3.58346730833E+00	-7.02331765522E+01	-3.55409269526E+00	-6.98111281410E+01	-1.13031823657E+01	1.71768534406E+02
1.54030750000E+09	-1.21136057264E+01	1.54027878048E+02	-3.63011096161E+00	-7.51143351911E+01	-3.57139860744E+00	-7.49630401469E+01	-1.13301449343E+01	1.65489257749E+02
1.56030500000E+09	-1.22025490849E+01	1.46623731506E+02	-3.53867970239E+00	-7.96786645413E+01	-3.47525286961E+00	-7.99299003228E+01	-1.15300893914E+01	1.58746208932E+02
1.58030250000E+09	-1.22279477244E+01	1.38708988111E+02	-3.32517333801E+00	-8.48778614076E+01	-3.28833956178E+00	-8.54980227373E+01	-1.17819697883E+01	1.51235074559E+02
1.60030000000E+09	-1.21455418102E+01	1.30381834178E+02	-3.13226506032E+00	-9.09964952337E+01	-3.14391723181E+00	-9.18828015936E+01	-1.19920318680E+01	1.42455067554E+02
1.62029750000E+09	-1.19946992599E+01	1.22640472733E+02	-3.07040850184E+00	-9.74987818746E+01	-3.13334322174E+00	-9.83094913752E+01	-1.20894835883E+01	1.32870755403E+02
1.64029500000E+09	-1.17813442800E+01	1.15695512318E+02	-3.10362033186E+00	-1.03490473606E+02	-3.17487852784E+00	-1.03829964858E+02	-1.19117698410E+01	1.23288580944E+02
1.66029250000E+09	-1.16273995041E+01	1.09141494801E+02	-3.11435317242E+00	-1.08634692451E+02	-3.12396146057E+00	-1.08482089900E+02	-1.15107020318E+01	1.14007517293E+02
1.68029000000E+09	-1.16342311865E+01	1.02890186779E+02	-2.99223881160E+00	-1.13501751393E+02	-2.88902253249E+00	-1.13218229946E+02	-1.10816960811E+01	1.05837676468E+02
1.70028750000E+09	-1.17525700147E+01	9.65422934108E+01	-2.74066299418E+00	-1.19027434445E+02	-2.58282465418E+00	-1.19033885607E+02	-1.06923561690E+01	9.89881034715E+01
1.72028500000E+09	-1.20146414101E+01	8.89559737863E+01	-2.50244149892E+00	-1.25662604607E+02	-2.36059583781E+00	-1.25861562967E+02	-1.04810724034E+01	9.26999506896E+01
1.74028250000E+09	-1.23891654657E+01	8.05127754239E+01	-2.39820503311E+00	-1.32777576723E+02	-2.30181339627E+00	-1.32864162567E+02	-1.05514174319E+01	8.70277252390E+01
1.76028000000E+09	-1.27211520880E+01	7.16721874827E+01	-2.40294008816E+00	-1.39439446209E+02	-2.33667903497E+00	-1.39250729201E+02	-1.08626535647E+01	8.16348375899E+01
1.78027750000E+09	-1.29513723632E+01	6.23543290499E+01	-2.39388485465E+00	-1.45266125983E+02	-2.34701024767E+00	-1.44859952349E+02	-1.13630277665E+01	7.54383469328E+01
1.80027500000E+09	-1.32475342471E+01	5.32767427830E+01	-2.25631233351E+00	-1.50744545211E+02	-2.22443508340E+00	-1.50250086690E+02	-1.21350935890E+01	6.80778252738E+01
1.82027250000E+09	-1.36791912918E+01	4.55607405063E+01	-1.99876768101E+00	-1.56852042536E+02	-1.98241816660E+00	-1.56392698042E+02	-1.30187286989E+01	5.98407099517E+01
1.84027000000E+09	-1.42658990649E+01	3.82232091261E+01	-1.76371564870E+00	-1.63957024836E+02	-1.76485509883E+00	-1.63692500690E+02	-1.38802346838E+01	4.95876525115E+01
1.86026750000E+09	-1.52629608232E+01	3.03204683435E+01	-1.65922056096E+00	-1.71629943198E+02	-1.67989332644E+00	-1.71496027887E+02	-1.48561275813E+01	3.74641698823E+01
1.88026500000E+09	-1.67072825584E+01	2.18928675150E+01	-1.67017295418E+00	-1.78995174638E+02	-1.71024034428E+00	-1.78947185203E+02	-1.59724170330E+01	2.53862344448E+01
1.90026250000E+09	-1.84530490105E+01	1.17895264681E+01	-1.68816935011E+00	1.74177160021E+02	-1.72561002597E+00	1.74234822921E+02	-1.72916775510E+01	1.37909953485E+01
1.92026000000E+09	-2.05811179237E+01	-9.21339755912E-01	-1.64433483573E+00	1.67387203122E+02	-1.67592719280E+00	1.67464549861E+02	-1.92334758003E+01	2.74219692892E+00
1.94025750000E+09	-2.32543300896E+01	-1.47618549828E+01	-1.58455119061E+00	1.60123525107E+02	-1.60383296393E+00	1.60274125693E+02	-2.23737511872E+01	-6.92752872915E+00
1.96025500000E+09	-2.70802441606E+01	-2.87865723341E+01	-1.59484497492E+00	1.52490960829E+02	-1.58615275990E+00	1.52668947112E+02	-2.81111655176E+01	-1.65731580756E+01
1.98025250000E+09	-3.61875650451E+01	-5.15701619902E+01	-1.67603067650E+00	1.45037037753E+02	-1.65244160935E+00	1.45112737754E+02	-4.76647846910E+01	-1.20226210455E+02
2.00025000000E+09	-3.31610805699E+01	1.51182133217E+02	-1.77234644397E+00	1.37919595392E+02	-1.75953947409E+00	1.37872553770E+02	-2.74879084989E+01	1.60522268217E+02
2.02024750000E+09	-2.39706762780E+01	1.36414308219E+02	-1.85075838422E+00	1.30870853903E+02	-1.85937104056E+00	1.30843334913E+02	-2.16153923993E+01	1.51249847105E+02
2.04024500000E+09	-1.94359220754E+01	1.28808081835E+02	-1.94609928200E+00	1.23529345736E+02	-1.95483923360E+00	1.23657685312E+02	-1.82451125912E+01	1.42836697270E+02
2.06024250000E+09	-1.67084219125E+01	1.22404427823E+02	-2.12546015719E+00	1.16003278195E+02	-2.11259395077E+00	1.16265409322E+02	-1.60061207480E+01	1.33632486336E+02
2.08024000000E+09	-1.50351943522E+01	1.16201810119E+02	-2.40665904450E+00	1.08920297748E+02	-2.36048343971E+00	1.09141339326E+02	-1.43850398956E+01	1.24248192771E+02
2.10023750000E+09	-1.39863421037E+01	1.09117094687E+02	-2.70487391103E+00	1.02626831608E+02	-2.64399335065E+00	1.02666431884E+02	-1.31059004418E+01	1.14673438062E+02
2.12023500000E+09	-1.33039060666E+01	1.00421807299E+02	-2.92036292545E+00	9.68400749853E+01	-2.88249733051E+00	9.67440159775E+01	-1.20654084589E+01	1.04875501977E+02
2.14023250000E+09	-1.27264120243E+01	9.03870515931E+01	-3.03689465859E+00	9.09125418161E+01	-3.05031411543E+00	9.08601984663E+01	-1.11980753837E+01	9.56589080823E+01
2.16023000000E+09	-1.20426763411E+01	7.99365984290E+01	-3.14637196627E+00	8.44227976342E+01	-3.19550820364E+00	8.47621098538E+01	-1.04670386588E+01	8.71831935852E+01
2.18022750000E+09	-1.11904257966E+01	7.02723442415E+01	-3.33013685924E+00	7.77457286839E+01	-3.36399240264E+00	7.85184747168E+01	-9.85082759398E+00	7.92409599772E+01
2.20022500000E+09	-1.03119537446E+01	6.23014850908E+01	-3.57987018751E+00	7.14485411086E+01	-3.55556408232E+00	7.23435331909E+01	-9.36831121558E+00	7.16731854580E+01
2.22022250000E+09	-9.55047201003E+00	5.59543681603E+01	-3.84020445654E+00	6.58332825933E+01	-3.75523538630E+00	6.63723183784E+01	-9.00159582038E+00	6.41448965376E+01
2.24022000000E+09	-9.00468168808E+00	5.05775006113E+01	-4.04627294874E+00	6.06838979818E+01	-3.95762772107E+00	6.05198907762E+01	-8.73707473220E+00	5.64031863934E+01
2.26021750000E+09	-8.68785543764E+00	4.53844597657E+01	-4.18609386482E+00	5.55512084774E+01	-4.15612715372E+00	5.48649761141E+01	-8.52452798229E+00	4.82868847015E+01
2.28021500000E+09	-8.55921924528E+00	3.97127846498E+01	-4.30006372321E+00	5.02485043389E+01	-4.34517803620E+00	4.94463401390E+01	-8.33585734771E+00	3.98218687341E+01
2.30021250000E+09	-8.53462008246E+00	3.30246339065E+01	-4.41682987323E+00	4.47748804328E+01	-4.50579512657E+00	4.43096853554E+01	-8.12213960717E+00	3.13010637949E+01
2.32021000000E+09	-8.48071897033E+00	2.53243611263E+01	-4.53060911702E+00	3.92436595273E+01	-4.59432413114E+00	3.92299418661E+01	-7.85176868588E+00	2.30704348545E+01
