# Hz S DB R 50
! CMT, S5180, 51801906, 22.3.3/1
! Date: 09/01/2023 15:27:36
! Data: Format (Calibration Info)
! Freq	S11:dB/Ang(F2)	S21:dB/Ang(F2)	S12:dB/Ang(F2)	S22:dB/Ang(F2)
5.00000000000E+05	-6.00278845403E+00	1.79878447509E+02	-6.04324895546E+00	-1.67461203884E-01	-6.03903431335E+00	-1.71930693379E-01	-6.00528680452E+00	1.79873144080E+02
2.04975000000E+07	-5.96971542691E+00	1.75103659536E+02	-6.04064974468E+00	-5.73635039789E+00	-6.03603693944E+00	-5.77851267910E+00	-5.99131277837E+00	1.76122244027E+02
4.04950000000E+07	-5.99627991367E+00	1.70220901430E+02	-6.05685372282E+00	-1.11569544327E+01	-6.03517646800E+00	-1.12896236021E+01	-5.99334170870E+00	1.72291497531E+02
6.04925000000E+07	-6.03003811216E+00	1.65279905508E+02	-6.07154885045E+00	-1.65075570937E+01	-6.03100426119E+00	-1.66685747645E+01	-5.99861260677E+00	1.68451950075E+02
8.04900000000E+07	-6.06626938262E+00	1.60333706769E+02	-6.07066044327E+00	-2.17660301122E+01	-6.02501358888E+00	-2.19767539978E+01	-6.00077101700E+00	1.64560486537E+02
1.00487500000E+08	-6.09923117574E+00	1.55344623106E+02	-6.06231257215E+00	-2.71034864529E+01	-6.01613763384E+00	-2.72720555139E+01	-6.00494762110E+00	1.60649453157E+02
1.20485000000E+08	-6.13591795749E+00	1.50301629929E+02	-6.04781553316E+00	-3.25412018659E+01	-6.01172707927E+00	-3.26033813600E+01	-6.00514480678E+00	1.56721088651E+02
1.40482500000E+08	-6.18764419918E+00	1.45228188490E+02	-6.04479273936E+00	-3.80063189859E+01	-6.02350098778E+00	-3.79542171024E+01	-5.99609933870E+00	1.52759099310E+02
1.60480000000E+08	-6.26136823730E+00	1.40125211705E+02	-6.03977894642E+00	-4.34482691189E+01	-6.03770415411E+00	-4.32384972605E+01	-5.97938629388E+00	1.48837981594E+02
1.80477500000E+08	-6.36416806774E+00	1.34954557440E+02	-6.04181326437E+00	-4.89024197047E+01	-6.05068675807E+00	-4.85467920506E+01	-5.96552680614E+00	1.44929590174E+02
2.00475000000E+08	-6.47937942875E+00	1.29742510356E+02	-6.03494091829E+00	-5.43296660379E+01	-6.05183274173E+00	-5.39032133432E+01	-5.95063124171E+00	1.41078375926E+02
2.20472500000E+08	-6.59934077754E+00	1.24474529752E+02	-6.03400863682E+00	-5.97662066119E+01	-6.05182147172E+00	-5.93481119117E+01	-5.93730042050E+00	1.37211944315E+02
2.40470000000E+08	-6.71146203960E+00	1.19179483571E+02	-6.03674069807E+00	-6.51840174128E+01	-6.04989512407E+00	-6.48046451391E+01	-5.92739293315E+00	1.33360805255E+02
2.60467500000E+08	-6.81487976684E+00	1.13882259304E+02	-6.03752352170E+00	-7.05199213545E+01	-6.03405523343E+00	-7.02478791231E+01	-5.92027137489E+00	1.29482567979E+02
2.80465000000E+08	-6.91565056435E+00	1.08594152438E+02	-6.01917781632E+00	-7.58002063935E+01	-6.00232660842E+00	-7.56981236706E+01	-5.91425874853E+00	1.25522653208E+02
3.00462500000E+08	-7.03208175790E+00	1.03305325462E+02	-5.98581807040E+00	-8.11686374625E+01	-5.96262120156E+00	-8.12204258751E+01	-5.90010326738E+00	1.21432607077E+02
3.20460000000E+08	-7.17924341465E+00	9.79974669420E+01	-5.94141518545E+00	-8.67168759982E+01	-5.92952530185E+00	-8.68226154589E+01	-5.88121137377E+00	1.17232022790E+02
3.40457500000E+08	-7.36986739531E+00	9.26124049835E+01	-5.91600117175E+00	-9.23736968310E+01	-5.92110566300E+00	-9.24695658931E+01	-5.86231613938E+00	1.12939607392E+02
3.60455000000E+08	-7.59693189173E+00	8.70825952016E+01	-5.91611833868E+00	-9.80517726822E+01	-5.92834057844E+00	-9.80211557349E+01	-5.82916684126E+00	1.08607490864E+02
3.80452500000E+08	-7.83501746812E+00	8.13150038961E+01	-5.92293757498E+00	-1.03633690851E+02	-5.93266986808E+00	-1.03475163756E+02	-5.79169807697E+00	1.04252436008E+02
4.00450000000E+08	-8.08147881574E+00	7.54193537657E+01	-5.91981136743E+00	-1.09035486008E+02	-5.91376231071E+00	-1.08866499908E+02	-5.74854160513E+00	9.99205458227E+01
4.20447500000E+08	-8.31390323746E+00	6.94193823673E+01	-5.87251779218E+00	-1.14463200461E+02	-5.86179169580E+00	-1.14416960894E+02	-5.70638910465E+00	9.56353939107E+01
4.40445000000E+08	-8.55643191071E+00	6.34276886314E+01	-5.79655289145E+00	-1.20105731804E+02	-5.79781783969E+00	-1.20230301285E+02	-5.65402181752E+00	9.13434016454E+01
4.60442500000E+08	-8.82595988862E+00	5.75119550311E+01	-5.72578440883E+00	-1.26036760772E+02	-5.75108301535E+00	-1.26217992231E+02	-5.59803274207E+00	8.69758202689E+01
4.80440000000E+08	-9.16322956205E+00	5.16372193419E+01	-5.69123994382E+00	-1.32088277608E+02	-5.72866701729E+00	-1.32126097929E+02	-5.54369740646E+00	8.25070202182E+01
5.00437500000E+08	-9.58073184354E+00	4.55948838668E+01	-5.69122997497E+00	-1.38049630170E+02	-5.70692632628E+00	-1.37892438819E+02	-5.48475154804E+00	7.79207534102E+01
5.20435000000E+08	-1.00917319638E+01	3.92637687902E+01	-5.68825060491E+00	-1.43851541149E+02	-5.65783596141E+00	-1.43554227958E+02	-5.40478526348E+00	7.31362674984E+01
5.40432500000E+08	-1.06780837743E+01	3.25664195454E+01	-5.65902999187E+00	-1.49593824681E+02	-5.57862903116E+00	-1.49364168837E+02	-5.32184297149E+00	6.81439753398E+01
5.60430000000E+08	-1.12902953939E+01	2.55099698256E+01	-5.58495786210E+00	-1.55519190562E+02	-5.49483363293E+00	-1.55449904107E+02	-5.23334868733E+00	6.30614949634E+01
5.80427500000E+08	-1.18931527148E+01	1.81605265634E+01	-5.50904168545E+00	-1.61800168576E+02	-5.43715561095E+00	-1.61810305371E+02	-5.12882797719E+00	5.79055545740E+01
6.00425000000E+08	-1.25082626819E+01	1.05416408566E+01	-5.46222721034E+00	-1.68336596795E+02	-5.41559557550E+00	-1.68178091953E+02	-5.01502369184E+00	5.26708520296E+01
6.20422500000E+08	-1.31833829963E+01	2.81610454756E+00	-5.44098465615E+00	-1.74819283631E+02	-5.39721532272E+00	-1.74550295853E+02	-4.89485774968E+00	4.72611282280E+01
6.40420000000E+08	-1.40266460295E+01	-5.29555309077E+00	-5.40396129366E+00	1.78811873040E+02	-5.35776959442E+00	1.78992992941E+02	-4.77138669835E+00	4.15822166815E+01
6.60417500000E+08	-1.51634162553E+01	-1.43327920259E+01	-5.30895053463E+00	1.72419010863E+02	-5.29364698733E+00	1.72231022026E+02	-4.65165886916E+00	3.55403586900E+01
6.80415000000E+08	-1.67230452342E+01	-2.51009695532E+01	-5.16808057255E+00	1.65447551477E+02	-5.23330528036E+00	1.64990044842E+02	-4.54154355474E+00	2.90941107072E+01
7.00412500000E+08	-1.87882863491E+01	-3.89113833262E+01	-5.06354157511E+00	1.57669637854E+02	-5.20493611840E+00	1.57524836106E+02	-4.44439533287E+00	2.22867974868E+01
7.20410000000E+08	-2.13521327175E+01	-5.75662100529E+01	-5.07172478915E+00	1.49430428949E+02	-5.20368674035E+00	1.49994292572E+02	-4.37120909739E+00	1.51925213623E+01
7.40407500000E+08	-2.41182585274E+01	-8.41509473420E+01	-5.18530888245E+00	1.41347358886E+02	-5.20167789234E+00	1.42332677184E+02	-4.30611325967E+00	7.82890418701E+00
7.60405000000E+08	-2.61446013204E+01	-1.21694791313E+02	-5.34115663255E+00	1.33634476294E+02	-5.21860686663E+00	1.34335457516E+02	-4.25394892965E+00	1.54549926501E-01
7.80402500000E+08	-2.59475817129E+01	-1.64214449922E+02	-5.45324776685E+00	1.26043092064E+02	-5.29111611881E+00	1.25996918919E+02	-4.22863719505E+00	-7.93001076132E+00
8.00400000000E+08	-2.37537103302E+01	1.61353895563E+02	-5.52074055301E+00	1.17912153647E+02	-5.44459727202E+00	1.17517578297E+02	-4.24769342401E+00	-1.63903188365E+01
8.20397500000E+08	-2.10380449432E+01	1.37461757517E+02	-5.65961557086E+00	1.08849291196E+02	-5.66431454600E+00	1.08980311356E+02	-4.32364605257E+00	-2.52528903398E+01
8.40395000000E+08	-1.85697784031E+01	1.20467958634E+02	-5.96262325899E+00	9.94254742932E+01	-5.93847900974E+00	1.00315512147E+02	-4.46851819974E+00	-3.44092263000E+01
8.60392500000E+08	-1.65816600468E+01	1.07266995450E+02	-6.41467536486E+00	9.04606904326E+01	-6.28573336115E+00	9.13371674698E+01	-4.67272961419E+00	-4.36831078246E+01
8.80390000000E+08	-1.51378612293E+01	9.60306986194E+01	-6.91413802984E+00	8.22742926066E+01	-6.75219759361E+00	8.21926191224E+01	-4.94767003969E+00	-5.29226545046E+01
9.00387500000E+08	-1.42029545592E+01	8.55652452652E+01	-7.36329046668E+00	7.44002432904E+01	-7.33458624109E+00	7.33021179517E+01	-5.28552461842E+00	-6.18952977064E+01
9.20385000000E+08	-1.36924566292E+01	7.49818690365E+01	-7.80212883174E+00	6.60083567871E+01	-7.99413489500E+00	6.49818333205E+01	-5.67531119409E+00	-7.04999251815E+01
9.40382500000E+08	-1.34738861616E+01	6.38793435357E+01	-8.37688114709E+00	5.71139954713E+01	-8.66437909396E+00	5.73056855119E+01	-6.12128174367E+00	-7.88478705187E+01
9.60380000000E+08	-1.33920746302E+01	5.25531617248E+01	-9.16013529189E+00	4.85630359317E+01	-9.30778450229E+00	4.99365665010E+01	-6.62786641248E+00	-8.68611156835E+01
9.80377500000E+08	-1.33257398082E+01	4.14595965622E+01	-1.00680694464E+01	4.12051587328E+01	-9.96058757010E+00	4.24774904927E+01	-7.17446521262E+00	-9.46263544041E+01
1.00037500000E+09	-1.32463770232E+01	3.13183555232E+01	-1.09713562916E+01	3.51725011244E+01	-1.06855701785E+01	3.50440641390E+01	-7.74070796010E+00	-1.02268069243E+02
1.02037250000E+09	-1.32335089892E+01	2.24465515364E+01	-1.17442642645E+01	2.99482730619E+01	-1.15044333164E+01	2.80842545651E+01	-8.32198945405E+00	-1.09805816129E+02
1.04037000000E+09	-1.33649130434E+01	1.45580117258E+01	-1.23852551785E+01	2.44467658325E+01	-1.23649224578E+01	2.20293408866E+01	-8.88604337218E+00	-1.17089265489E+02
1.06036750000E+09	-1.36715517504E+01	7.02538133073E+00	-1.30371347304E+01	1.80812082902E+01	-1.31977439042E+01	1.67713440698E+01	-9.40464656272E+00	-1.24030652585E+02
1.08036500000E+09	-1.41654472010E+01	-1.05902473750E+00	-1.38150817088E+01	1.14616723706E+01	-1.39561538213E+01	1.17975367060E+01	-9.88063185957E+00	-1.30475560370E+02
1.10036250000E+09	-1.47455250424E+01	-1.02822892081E+01	-1.47386221355E+01	5.36034975939E+00	-1.46904047638E+01	6.47812831210E+00	-1.03308188594E+01	-1.36341746415E+02
1.12036000000E+09	-1.52787543481E+01	-2.07647590223E+01	-1.56885141429E+01	3.75434510221E-01	-1.55021359450E+01	9.10123516193E-01	-1.07680657182E+01	-1.41545509085E+02
1.14035750000E+09	-1.56179610487E+01	-3.17617988637E+01	-1.65726453637E+01	-3.86777115010E+00	-1.64036199061E+01	-4.26637818584E+00	-1.12154765470E+01	-1.46348146663E+02
1.16035500000E+09	-1.57747335890E+01	-4.21925693244E+01	-1.73444186595E+01	-7.88801309646E+00	-1.73431251446E+01	-8.73713980125E+00	-1.16904189005E+01	-1.50919236962E+02
1.18035250000E+09	-1.58731318849E+01	-5.13308697489E+01	-1.80800852159E+01	-1.23655995111E+01	-1.82074168055E+01	-1.25835825274E+01	-1.21572743767E+01	-1.55485039772E+02
1.20035000000E+09	-1.60789844441E+01	-5.94315800977E+01	-1.88623409187E+01	-1.72576513260E+01	-1.89805471810E+01	-1.64952875184E+01	-1.25825622836E+01	-1.60166695363E+02
1.22034750000E+09	-1.64892497888E+01	-6.75555139098E+01	-1.97388915004E+01	-2.21682250147E+01	-1.97353052437E+01	-2.10116815711E+01	-1.29552562043E+01	-1.64979149123E+02
1.24034500000E+09	-1.70664868511E+01	-7.69336919432E+01	-2.06978967479E+01	-2.66372234966E+01	-2.05709471708E+01	-2.59838906223E+01	-1.32440298067E+01	-1.69710496709E+02
1.26034250000E+09	-1.76357657549E+01	-8.85113913825E+01	-2.16695676392E+01	-3.04920819416E+01	-2.15139469575E+01	-3.07953084184E+01	-1.34308466574E+01	-1.74196464474E+02
1.28034000000E+09	-1.78807224511E+01	-1.01990949613E+02	-2.25912820053E+01	-3.40201642977E+01	-2.25320970354E+01	-3.49838957253E+01	-1.35530208865E+01	-1.78166186194E+02
1.30033750000E+09	-1.76559195286E+01	-1.15409616273E+02	-2.34784767966E+01	-3.81324873284E+01	-2.35284287521E+01	-3.88484154464E+01	-1.36296560254E+01	1.78471052973E+02
1.32033500000E+09	-1.71169270172E+01	-1.26527045028E+02	-2.44186409838E+01	-4.28761130570E+01	-2.44955115501E+01	-4.28165086797E+01	-1.36946586346E+01	1.75539968208E+02
1.34033250000E+09	-1.65951187241E+01	-1.35159414656E+02	-2.54982037292E+01	-4.82065808741E+01	-2.55133870060E+01	-4.75152377618E+01	-1.37605169836E+01	1.72930130477E+02
1.36033000000E+09	-1.62673123867E+01	-1.42357460755E+02	-2.67635859143E+01	-5.35014079140E+01	-2.67097270680E+01	-5.29738724661E+01	-1.38257010695E+01	1.70516286880E+02
1.38032750000E+09	-1.61785522383E+01	-1.49644124220E+02	-2.82311717402E+01	-5.87678692023E+01	-2.81350226460E+01	-5.86813988583E+01	-1.38655144241E+01	1.68130714515E+02
1.40032500000E+09	-1.62373406882E+01	-1.58220900732E+02	-2.98260564775E+01	-6.41404963913E+01	-2.97795446429E+01	-6.43815489239E+01	-1.38520813302E+01	1.65706747688E+02
1.42032250000E+09	-1.62143072465E+01	-1.68507760497E+02	-3.16331267885E+01	-7.03203404558E+01	-3.16590353326E+01	-7.07508323518E+01	-1.37654357556E+01	1.63277512933E+02
1.44032000000E+09	-1.59136610178E+01	-1.79555187203E+02	-3.37670670814E+01	-7.87758373356E+01	-3.38349851410E+01	-7.89552023135E+01	-1.36202973738E+01	1.60913421596E+02
1.46031750000E+09	-1.53077518231E+01	1.70376933323E+02	-3.64777534930E+01	-9.20713704634E+01	-3.65230260992E+01	-9.20374010894E+01	-1.34153017837E+01	1.58645069406E+02
1.48031500000E+09	-1.45822382197E+01	1.62357711199E+02	-3.98901548031E+01	-1.16077488026E+02	-3.98840842025E+01	-1.15682631057E+02	-1.31866277547E+01	1.56363425695E+02
1.50031250000E+09	-1.39554721137E+01	1.56202979066E+02	-4.20505388298E+01	-1.60212055791E+02	-4.20272029784E+01	-1.60037931306E+02	-1.29667492311E+01	1.54168663600E+02
1.52031000000E+09	-1.35330191475E+01	1.51047605837E+02	-3.97113059395E+01	1.57052901452E+02	-3.96480644572E+01	1.57017294053E+02	-1.27530210358E+01	1.51700601836E+02
1.54030750000E+09	-1.33288441192E+01	1.45724181042E+02	-3.61995996924E+01	1.34927804171E+02	-3.61151281791E+01	1.34661813164E+02	-1.25427848321E+01	1.48906865657E+02
1.56030500000E+09	-1.32857215938E+01	1.39345534005E+02	-3.31660482480E+01	1.22678735572E+02	-3.31287015566E+01	1.22087084093E+02	-1.23207212624E+01	1.45604658624E+02
1.58030250000E+09	-1.32705232360E+01	1.31546403760E+02	-3.06503776564E+01	1.13694672864E+02	-3.06304339290E+01	1.12985288237E+02	-1.20513028110E+01	1.41848789852E+02
1.60030000000E+09	-1.30960144815E+01	1.22731718380E+02	-2.85506594563E+01	1.05743641856E+02	-2.86038833630E+01	1.04977169708E+02	-1.17010353722E+01	1.37803638190E+02
1.62029750000E+09	-1.27276543226E+01	1.14160351883E+02	-2.68537458149E+01	9.85013424832E+01	-2.69768458784E+01	9.79837484374E+01	-1.12651559142E+01	1.33730582188E+02
1.64029500000E+09	-1.22460495762E+01	1.06795305467E+02	-2.54581573042E+01	9.20627987046E+01	-2.55491914505E+01	9.22466557910E+01	-1.07432976508E+01	1.29830763118E+02
1.66029250000E+09	-1.18097778607E+01	1.00915565109E+02	-2.42205413891E+01	8.69355848849E+01	-2.42266894711E+01	8.75765394804E+01	-1.01765752644E+01	1.26249791594E+02
1.68029000000E+09	-1.15353713214E+01	9.59489735272E+01	-2.30088432803E+01	8.24233538005E+01	-2.28473966477E+01	8.30060167350E+01	-9.60130721462E+00	1.22982537783E+02
1.70028750000E+09	-1.14739867104E+01	9.11123881393E+01	-2.17348168709E+01	7.77196493445E+01	-2.14972751169E+01	7.75299067416E+01	-9.06522288449E+00	1.19797934910E+02
1.72028500000E+09	-1.16276114695E+01	8.53756717826E+01	-2.04893386023E+01	7.20092853091E+01	-2.03054267492E+01	7.11456263980E+01	-8.56876783760E+00	1.16503555921E+02
1.74028250000E+09	-1.18818877185E+01	7.82155658444E+01	-1.93944281593E+01	6.53616675229E+01	-1.93234149090E+01	6.46964831322E+01	-8.12810920706E+00	1.12950279141E+02
1.76028000000E+09	-1.20819303832E+01	6.96330053682E+01	-1.84998647974E+01	5.86315737359E+01	-1.84767338358E+01	5.88700280454E+01	-7.73910817351E+00	1.08890308150E+02
1.78027750000E+09	-1.21249944648E+01	6.05052362077E+01	-1.77231990389E+01	5.27217297755E+01	-1.76093427175E+01	5.37431791714E+01	-7.37823442011E+00	1.04320708805E+02
1.80027500000E+09	-1.20286201485E+01	5.21602901943E+01	-1.68896263641E+01	4.78862266190E+01	-1.66431704942E+01	4.86141023772E+01	-7.04743408648E+00	9.92966378460E+01
1.82027250000E+09	-1.19360841751E+01	4.54764039240E+01	-1.58740454926E+01	4.31693501832E+01	-1.55944533423E+01	4.25910699250E+01	-6.73290739715E+00	9.39320483207E+01
1.84027000000E+09	-1.20301777288E+01	4.03153454033E+01	-1.46956644865E+01	3.70730801636E+01	-1.46243754099E+01	3.52930657132E+01	-6.42212431529E+00	8.83673383663E+01
1.86026750000E+09	-1.24596647512E+01	3.59913279238E+01	-1.36302555752E+01	2.89077048790E+01	-1.38295172516E+01	2.73818609827E+01	-6.11377362686E+00	8.26114781091E+01
1.88026500000E+09	-1.32909889589E+01	3.15670387219E+01	-1.29018321187E+01	1.98759629065E+01	-1.32110953431E+01	1.98151175842E+01	-5.81452463091E+00	7.67574456537E+01
1.90026250000E+09	-1.45131586872E+01	2.60772720977E+01	-1.24854359366E+01	1.16180540702E+01	-1.26294549577E+01	1.29989481624E+01	-5.51829999600E+00	7.07546057480E+01
1.92026000000E+09	-1.60114953493E+01	1.86983202977E+01	-1.21631539935E+01	5.10066210373E+00	-1.19761061327E+01	6.57385152854E+00	-5.22161561304E+00	6.45457886879E+01
1.94025750000E+09	-1.76020337381E+01	9.81389125691E+00	-1.16646844179E+01	-1.64740371766E-01	-1.12481171512E+01	-4.03409696623E-01	-4.94928370445E+00	5.81095875818E+01
1.96025500000E+09	-1.91135784886E+01	1.72437566680E+00	-1.08839477132E+01	-6.00654376282E+00	-1.05551608997E+01	-8.30171958017E+00	-4.69123174262E+00	5.16063605803E+01
1.98025250000E+09	-2.07365332158E+01	-1.19093864433E+00	-9.99842707516E+00	-1.42356208721E+01	-9.99864835655E+00	-1.68039140964E+01	-4.45569826399E+00	4.49359403756E+01
2.00025000000E+09	-2.27235280650E+01	6.84031006365E+00	-9.34884102140E+00	-2.44895177469E+01	-9.56602753742E+00	-2.52317967410E+01	-4.28677386307E+00	3.83454880616E+01
2.02024750000E+09	-2.39912783343E+01	3.30603688468E+01	-9.06940055626E+00	-3.48310852696E+01	-9.20237540676E+00	-3.34389004080E+01	-4.19726736236E+00	3.20501474685E+01
2.04024500000E+09	-2.21906611568E+01	6.38719576166E+01	-9.00605062930E+00	-4.35620444625E+01	-8.88048597795E+00	-4.15433634684E+01	-4.17347833664E+00	2.60843094949E+01
2.06024250000E+09	-1.91776846315E+01	8.06153860470E+01	-8.92184217549E+00	-5.03748392820E+01	-8.62969365273E+00	-4.96431155404E+01	-4.22554498315E+00	2.03963994297E+01
2.08024000000E+09	-1.68240448982E+01	8.73177308664E+01	-8.63504605639E+00	-5.63263608106E+01	-8.45619528014E+00	-5.75057774869E+01	-4.34177304673E+00	1.48746020913E+01
2.10023750000E+09	-1.52198495036E+01	8.83569812615E+01	-8.18571834615E+00	-6.30785564800E+01	-8.32645714818E+00	-6.49200392575E+01	-4.48779619006E+00	9.35401694302E+00
2.12023500000E+09	-1.41393297839E+01	8.53034151607E+01	-7.79236011383E+00	-7.12665172011E+01	-8.18250612437E+00	-7.20237274219E+01	-4.65914480748E+00	3.63217746577E+00
2.14023250000E+09	-1.33125758032E+01	7.88482596088E+01	-7.63801124236E+00	-8.00592698577E+01	-8.02017475316E+00	-7.91990868362E+01	-4.84956901913E+00	-2.31360009663E+00
2.16023000000E+09	-1.24250150263E+01	7.01933230073E+01	-7.70314567987E+00	-8.82430734872E+01	-7.87025471901E+00	-8.65925138546E+01	-5.03991594215E+00	-8.38110665512E+00
2.18022750000E+09	-1.13402691204E+01	6.13192123703E+01	-7.84197741062E+00	-9.52783282491E+01	-7.77379576936E+00	-9.40408950247E+01	-5.20895508527E+00	-1.44586755057E+01
2.20022500000E+09	-1.01721155682E+01	5.38732538273E+01	-7.91623740809E+00	-1.01519913787E+02	-7.73562330536E+00	-1.01378436680E+02	-5.36995017146E+00	-2.03945964577E+01
2.22022250000E+09	-9.11354752731E+00	4.83514063482E+01	-7.87213506772E+00	-1.07618212990E+02	-7.72523202963E+00	-1.08433446024E+02	-5.51187629074E+00	-2.61258773590E+01
2.24022000000E+09	-8.29012643947E+00	4.41741006830E+01	-7.76103160215E+00	-1.14162403508E+02	-7.73305681823E+00	-1.15228296067E+02	-5.63353412748E+00	-3.16707178493E+01
2.26021750000E+09	-7.75610833059E+00	4.04762626256E+01	-7.66053316701E+00	-1.21158469223E+02	-7.74502451293E+00	-1.21778012302E+02	-5.74755071989E+00	-3.70143958666E+01
2.28021500000E+09	-7.50368195894E+00	3.63992303564E+01	-7.61655997872E+00	-1.28233487036E+02	-7.77005509861E+00	-1.28002862504E+02	-5.87476535692E+00	-4.22631526980E+01
2.30021250000E+09	-7.43701853547E+00	3.12415604037E+01	-7.60819491212E+00	-1.35051708634E+02	-7.76881513651E+00	-1.33891688456E+02	-6.00174419036E+00	-4.74078852681E+01
2.32021000000E+09	-7.42573942049E+00	2.46553439362E+01	-7.62807507170E+00	-1.41609590044E+02	-7.72512725011E+00	-1.39810789360E+02	-6.13705831585E+00	-5.24270516756E+01
