# Hz S DB R 50
! CMT, S5180, 51801906, 22.3.3/1
! Date: 09/01/2023 11:19:51
! Data: Format (Calibration Info)
! Freq	S11:dB/Ang(F2)	S21:dB/Ang(F2)	S12:dB/Ang(F2)	S22:dB/Ang(F2)
5.00000000000E+05	-6.00028563724E+00	1.79878072476E+02	-6.04066074552E+00	-1.01112904604E-01	-6.03741438178E+00	-7.75283463245E-02	-6.00004384080E+00	1.79886707705E+02
2.04975000000E+07	-5.96424591833E+00	1.75231527713E+02	-6.02667048337E+00	-3.10841188378E+00	-6.02277054892E+00	-3.09474448492E+00	-5.98402328195E+00	1.76341925644E+02
4.04950000000E+07	-5.98683455702E+00	1.70421015178E+02	-6.02384436835E+00	-5.99571968865E+00	-6.00826796603E+00	-6.02081898798E+00	-5.98009060504E+00	1.72688852742E+02
6.04925000000E+07	-6.01950113648E+00	1.65543953299E+02	-6.01648830369E+00	-8.84065124009E+00	-5.99329107498E+00	-8.92515073364E+00	-5.98392616413E+00	1.68967184436E+02
8.04900000000E+07	-6.05977724168E+00	1.60591796148E+02	-6.00392854994E+00	-1.16984270358E+01	-5.97091928173E+00	-1.17838741780E+01	-5.98696850007E+00	1.65180075528E+02
1.00487500000E+08	-6.10052404324E+00	1.55595555357E+02	-5.97171050010E+00	-1.45800129174E+01	-5.94018269069E+00	-1.46292821591E+01	-5.98919500973E+00	1.61341787201E+02
1.20485000000E+08	-6.14807829630E+00	1.50578099719E+02	-5.94342707713E+00	-1.75485033407E+01	-5.91606416233E+00	-1.75385557503E+01	-5.99255942036E+00	1.57441546474E+02
1.40482500000E+08	-6.20492516900E+00	1.45509630894E+02	-5.92022542680E+00	-2.05377372464E+01	-5.89962290816E+00	-2.04236218419E+01	-5.98735765413E+00	1.53532389581E+02
1.60480000000E+08	-6.27488824612E+00	1.40399803312E+02	-5.89320431707E+00	-2.35029695612E+01	-5.88763832765E+00	-2.32433406603E+01	-5.97356082227E+00	1.49657144586E+02
1.80477500000E+08	-6.36600409893E+00	1.35197044534E+02	-5.86406890563E+00	-2.64511090983E+01	-5.86383972755E+00	-2.60342985241E+01	-5.95555824159E+00	1.45862131088E+02
2.00475000000E+08	-6.47725577159E+00	1.29920498861E+02	-5.82696188305E+00	-2.94217832372E+01	-5.83014496264E+00	-2.89435852597E+01	-5.93449313045E+00	1.42125912206E+02
2.20472500000E+08	-6.60521656281E+00	1.24541571022E+02	-5.79275230230E+00	-3.24313004102E+01	-5.79830566341E+00	-3.19240358288E+01	-5.92322155422E+00	1.38430539857E+02
2.40470000000E+08	-6.72347362653E+00	1.19209305076E+02	-5.74737252221E+00	-3.53869913783E+01	-5.75448998268E+00	-3.49342591170E+01	-5.91046764164E+00	1.34769951174E+02
2.60467500000E+08	-6.84170007775E+00	1.13804262147E+02	-5.70171502625E+00	-3.84044235018E+01	-5.70091686747E+00	-3.80729631596E+01	-5.91794718365E+00	1.30951381269E+02
2.80465000000E+08	-6.95783592535E+00	1.08416226371E+02	-5.63481702371E+00	-4.13607819853E+01	-5.63667048401E+00	-4.12408084987E+01	-5.93436433243E+00	1.26971212621E+02
3.00462500000E+08	-7.08304643700E+00	1.03047540458E+02	-5.55335193452E+00	-4.44337991123E+01	-5.55244975978E+00	-4.45248572137E+01	-5.94772081523E+00	1.22813715996E+02
3.20460000000E+08	-7.22958147426E+00	9.76629288871E+01	-5.46171523387E+00	-4.76640281999E+01	-5.47170889678E+00	-4.79209361018E+01	-5.95350183639E+00	1.18491680415E+02
3.40457500000E+08	-7.39899030504E+00	9.21121115641E+01	-5.38745642977E+00	-5.10935524285E+01	-5.40213168477E+00	-5.13674638775E+01	-5.93998585625E+00	1.14059199209E+02
3.60455000000E+08	-7.60278032865E+00	8.63849342586E+01	-5.33769660970E+00	-5.45693970751E+01	-5.34694255584E+00	-5.47486204632E+01	-5.90088877466E+00	1.09578922447E+02
3.80452500000E+08	-7.83281798321E+00	8.04179362258E+01	-5.29942586123E+00	-5.79602229989E+01	-5.29199855334E+00	-5.80252107220E+01	-5.84872072835E+00	1.05121615219E+02
4.00450000000E+08	-8.07541392991E+00	7.42845290621E+01	-5.24666998249E+00	-6.12528924459E+01	-5.21658852278E+00	-6.12856583266E+01	-5.79038186066E+00	1.00763663226E+02
4.20447500000E+08	-8.33149067722E+00	6.80907852743E+01	-5.16732545857E+00	-6.45799105345E+01	-5.12113804801E+00	-6.47369538215E+01	-5.73917776651E+00	9.64628991597E+01
4.40445000000E+08	-8.60539003792E+00	6.19589652019E+01	-5.06025500337E+00	-6.81639499382E+01	-5.03732267243E+00	-6.84379956314E+01	-5.70905392073E+00	9.22846496412E+01
4.60442500000E+08	-8.89417036756E+00	5.59320966176E+01	-4.96264371529E+00	-7.20659240680E+01	-4.98075550002E+00	-7.23026205681E+01	-5.68129416879E+00	8.81711284790E+01
4.80440000000E+08	-9.22705443735E+00	4.96987618158E+01	-4.91549314025E+00	-7.61903755264E+01	-4.95838244577E+00	-7.62197298342E+01	-5.66071134276E+00	8.38589335890E+01
5.00437500000E+08	-9.62066825798E+00	4.31229153018E+01	-4.91388583656E+00	-8.02723883237E+01	-4.95136487249E+00	-8.00501172807E+01	-5.64300304024E+00	7.93720673008E+01
5.20435000000E+08	-1.00861700541E+01	3.61050784055E+01	-4.92516374531E+00	-8.41451675500E+01	-4.92944553255E+00	-8.38497284167E+01	-5.61927263217E+00	7.46452993175E+01
5.40432500000E+08	-1.06056292872E+01	2.84018831633E+01	-4.92081936171E+00	-8.79772379769E+01	-4.87881240607E+00	-8.78045285414E+01	-5.56971303890E+00	6.97010542138E+01
5.60430000000E+08	-1.11623877968E+01	2.01853098585E+01	-4.89253658376E+00	-9.20404188284E+01	-4.83281811873E+00	-9.20835112317E+01	-5.49669383495E+00	6.44770077737E+01
5.80427500000E+08	-1.17427629687E+01	1.15651876347E+01	-4.88166937558E+00	-9.64756949246E+01	-4.83006333420E+00	-9.66437120335E+01	-5.40648503372E+00	5.90569446482E+01
6.00425000000E+08	-1.23434606085E+01	2.85764478589E+00	-4.93293138844E+00	-1.01144582853E+02	-4.89253900817E+00	-1.01229804996E+02	-5.30659440474E+00	5.34135748992E+01
6.20422500000E+08	-1.30057617395E+01	-5.90472298804E+00	-5.05021163212E+00	-1.05723494122E+02	-4.99732702843E+00	-1.05642758602E+02	-5.20488332165E+00	4.76513827568E+01
6.40420000000E+08	-1.37945850306E+01	-1.48266051990E+01	-5.19427832963E+00	-1.10054473381E+02	-5.12160682825E+00	-1.10014696005E+02	-5.09614603052E+00	4.17450951326E+01
6.60417500000E+08	-1.47442517985E+01	-2.45571052301E+01	-5.33098588952E+00	-1.14282906897E+02	-5.27862125994E+00	-1.14512925420E+02	-4.97887846836E+00	3.56582019662E+01
6.80415000000E+08	-1.58818744207E+01	-3.58373293746E+01	-5.45726978225E+00	-1.18768675539E+02	-5.49049296881E+00	-1.19186498705E+02	-4.83929413311E+00	2.94201192230E+01
7.00412500000E+08	-1.71448900287E+01	-4.97571680366E+01	-5.65358019958E+00	-1.23769696277E+02	-5.78851576275E+00	-1.23798861026E+02	-4.68689717119E+00	2.29945049038E+01
7.20410000000E+08	-1.84235722828E+01	-6.70471367429E+01	-6.00745551899E+00	-1.28849794589E+02	-6.16044297030E+00	-1.28141563634E+02	-4.53367756553E+00	1.62815838969E+01
7.40407500000E+08	-1.95743214083E+01	-8.77401324068E+01	-6.51103846305E+00	-1.33363378701E+02	-6.57035464010E+00	-1.32151727643E+02	-4.39479528060E+00	9.28045603148E+00
7.60405000000E+08	-2.04359760295E+01	-1.11218557946E+02	-7.10155079568E+00	-1.36870583820E+02	-7.04209935421E+00	-1.35921140553E+02	-4.29797349493E+00	1.91756472413E+00
7.80402500000E+08	-2.09334340524E+01	-1.36976710297E+02	-7.70418858576E+00	-1.39418958652E+02	-7.60491612885E+00	-1.39318041130E+02	-4.23931955040E+00	-5.95809105895E+00
8.00400000000E+08	-2.09313276195E+01	-1.64660607564E+02	-8.29495993858E+00	-1.41351838514E+02	-8.26780583744E+00	-1.41784295803E+02	-4.23438872753E+00	-1.43496656908E+01
8.20397500000E+08	-2.02348104984E+01	1.67879891457E+02	-8.93998938151E+00	-1.42650990275E+02	-8.98917461223E+00	-1.42756778747E+02	-4.28732890324E+00	-2.32016019124E+01
8.40395000000E+08	-1.89720697283E+01	1.43668661391E+02	-9.63576684820E+00	-1.42500954816E+02	-9.64428777102E+00	-1.41970945991E+02	-4.37425687086E+00	-3.22836104789E+01
8.60392500000E+08	-1.75612663227E+01	1.23918032299E+02	-1.02462861818E+01	-1.40112190815E+02	-1.01228605781E+01	-1.39548151752E+02	-4.49247747123E+00	-4.13626022032E+01
8.80390000000E+08	-1.63611476415E+01	1.07765472627E+02	-1.05133049546E+01	-1.35817029829E+02	-1.03181741454E+01	-1.36191446879E+02	-4.64673341456E+00	-5.01589889431E+01
9.00387500000E+08	-1.54895154236E+01	9.37539845665E+01	-1.02787394427E+01	-1.31297918485E+02	-1.01967847693E+01	-1.32673570069E+02	-4.84075571849E+00	-5.84295149123E+01
9.20385000000E+08	-1.49293009845E+01	8.04921647839E+01	-9.64074357359E+00	-1.28614813628E+02	-9.77351255125E+00	-1.29916096830E+02	-5.08431959659E+00	-6.62084020629E+01
9.40382500000E+08	-1.45748017000E+01	6.72865561194E+01	-8.88967979312E+00	-1.28532025557E+02	-9.14101144751E+00	-1.28450749875E+02	-5.40933842914E+00	-7.35956261481E+01
9.60380000000E+08	-1.43184408498E+01	5.40354348682E+01	-8.24607497111E+00	-1.30160709372E+02	-8.38180812474E+00	-1.28718265167E+02	-5.83137108711E+00	-8.06833627267E+01
9.80377500000E+08	-1.40636736391E+01	4.12530002993E+01	-7.73199209495E+00	-1.32350030182E+02	-7.62640915005E+00	-1.30793575191E+02	-6.32211059684E+00	-8.76649489081E+01
1.00037500000E+09	-1.38204519494E+01	2.95124040778E+01	-7.26340324808E+00	-1.34483927444E+02	-6.98889017854E+00	-1.34233070684E+02	-6.85713953131E+00	-9.47180239702E+01
1.02037250000E+09	-1.36728642586E+01	1.88450182817E+01	-6.72145635380E+00	-1.36699265019E+02	-6.50467867462E+00	-1.38235749744E+02	-7.42603220932E+00	-1.01929982395E+02
1.04037000000E+09	-1.36708686774E+01	9.12868695008E+00	-6.09491217856E+00	-1.39890378381E+02	-6.11953250905E+00	-1.42122919126E+02	-7.98538946997E+00	-1.08993039429E+02
1.06036750000E+09	-1.38039120282E+01	-1.97967473668E-01	-5.51680094453E+00	-1.44551892295E+02	-5.73990416087E+00	-1.45811942513E+02	-8.46076986309E+00	-1.15667668300E+02
1.08036500000E+09	-1.40202610658E+01	-1.00269599485E+01	-5.12880435665E+00	-1.50088910348E+02	-5.32392687816E+00	-1.49767674601E+02	-8.85424873349E+00	-1.21934636163E+02
1.10036250000E+09	-1.42444140195E+01	-2.06519851666E+01	-4.93753033355E+00	-1.55453170218E+02	-4.93864464252E+00	-1.54494661807E+02	-9.20080852835E+00	-1.27456187791E+02
1.12036000000E+09	-1.43320946437E+01	-3.15946081199E+01	-4.83962358294E+00	-1.60044310336E+02	-4.67945570798E+00	-1.59681562032E+02	-9.47294308191E+00	-1.32071798774E+02
1.14035750000E+09	-1.42387228846E+01	-4.25793890093E+01	-4.71657865817E+00	-1.63931710852E+02	-4.55529804785E+00	-1.64601636968E+02	-9.71177660593E+00	-1.36205423104E+02
1.16035500000E+09	-1.40710004089E+01	-5.27883290940E+01	-4.50012594921E+00	-1.67680977441E+02	-4.47710614313E+00	-1.68832346910E+02	-9.98734136165E+00	-1.39994513819E+02
1.18035250000E+09	-1.39175420192E+01	-6.16997110399E+01	-4.22558536510E+00	-1.72057522061E+02	-4.34227947405E+00	-1.72613147480E+02	-1.02906470692E+01	-1.43387575772E+02
1.20035000000E+09	-1.38437563827E+01	-7.00764047017E+01	-4.00745260586E+00	-1.77213435998E+02	-4.12182203987E+00	-1.76600761585E+02	-1.05857681221E+01	-1.46809508791E+02
1.22034750000E+09	-1.39247808735E+01	-7.85856660051E+01	-3.92225576746E+00	1.77395840442E+02	-3.90384551531E+00	1.78562027004E+02	-1.09272511449E+01	-1.50327318495E+02
1.24034500000E+09	-1.41097813477E+01	-8.73668982283E+01	-3.94590931386E+00	1.72442677893E+02	-3.80593022292E+00	1.73193569693E+02	-1.12715111256E+01	-1.53563703007E+02
1.26034250000E+09	-1.42064476412E+01	-9.68888751147E+01	-3.98934253798E+00	1.68151796108E+02	-3.83914760685E+00	1.68044096333E+02	-1.15148640769E+01	-1.56877071015E+02
1.28034000000E+09	-1.41528259370E+01	-1.07035797402E+02	-3.97194109600E+00	1.64362868319E+02	-3.92407375698E+00	1.63695478713E+02	-1.16935691982E+01	-1.60605045704E+02
1.30033750000E+09	-1.39581746167E+01	-1.16488896174E+02	-3.85183831670E+00	1.60447252510E+02	-3.93791940193E+00	1.59979410874E+02	-1.18287245207E+01	-1.64374035328E+02
1.32033500000E+09	-1.36219758297E+01	-1.24745871265E+02	-3.69558106270E+00	1.55816042413E+02	-3.83313374042E+00	1.56119279808E+02	-1.18415761180E+01	-1.68158141965E+02
1.34033250000E+09	-1.32923296849E+01	-1.32242706382E+02	-3.61744406440E+00	1.50541746618E+02	-3.68792374002E+00	1.51454452721E+02	-1.17861981712E+01	-1.72362890412E+02
1.36033000000E+09	-1.31530416319E+01	-1.39081481230E+02	-3.66738403720E+00	1.45233971310E+02	-3.64048595431E+00	1.46072174078E+02	-1.17659351233E+01	-1.76204241889E+02
1.38032750000E+09	-1.31451404297E+01	-1.45637396989E+02	-3.80359823464E+00	1.40548138973E+02	-3.73004468608E+00	1.40823024069E+02	-1.17051319299E+01	-1.79085380224E+02
1.40032500000E+09	-1.31861139859E+01	-1.53011514870E+02	-3.93172143401E+00	1.36587633467E+02	-3.88739473449E+00	1.36362837633E+02	-1.15648881749E+01	1.78533232181E+02
1.42032250000E+09	-1.32494179009E+01	-1.61271314369E+02	-3.97105038570E+00	1.33005203597E+02	-3.98573354217E+00	1.32599652561E+02	-1.14400877161E+01	1.76632996562E+02
1.44032000000E+09	-1.31973864532E+01	-1.69506984217E+02	-3.91215323208E+00	1.29055194751E+02	-3.97354791328E+00	1.28875351328E+02	-1.13037912973E+01	1.75281667808E+02
1.46031750000E+09	-1.29363664129E+01	-1.77479683656E+02	-3.84158535288E+00	1.24295196045E+02	-3.90706244515E+00	1.24451395696E+02	-1.11405578377E+01	1.73797921111E+02
1.48031500000E+09	-1.26066384921E+01	1.75172790124E+02	-3.86073381156E+00	1.18889193799E+02	-3.89694983117E+00	1.19383365400E+02	-1.10458146021E+01	1.71780062094E+02
1.50031250000E+09	-1.23533408118E+01	1.68828952765E+02	-4.01890445697E+00	1.13525256933E+02	-4.00313265075E+00	1.14089999472E+02	-1.10457092221E+01	1.69491666415E+02
1.52031000000E+09	-1.22062464866E+01	1.62973286565E+02	-4.24481548500E+00	1.08867009726E+02	-4.19606856342E+00	1.09263580663E+02	-1.10789250572E+01	1.66739733100E+02
1.54030750000E+09	-1.22309965891E+01	1.56774895162E+02	-4.44362657317E+00	1.04976995964E+02	-4.37871525729E+00	1.05042029622E+02	-1.11681983878E+01	1.63280408460E+02
1.56030500000E+09	-1.24105739820E+01	1.49860062826E+02	-4.53163586994E+00	1.01361555417E+02	-4.46406590442E+00	1.01077092033E+02	-1.12797024078E+01	1.59487224957E+02
1.58030250000E+09	-1.26236377243E+01	1.42014839706E+02	-4.52602461653E+00	9.72185236283E+01	-4.48033123206E+00	9.65232330818E+01	-1.12971536707E+01	1.55434415609E+02
1.60030000000E+09	-1.27589648941E+01	1.33266401996E+02	-4.54610656746E+00	9.21772248465E+01	-4.55848761288E+00	9.11528977932E+01	-1.11796703899E+01	1.50867753085E+02
1.62029750000E+09	-1.27614042374E+01	1.24822901874E+02	-4.70177947172E+00	8.66462112062E+01	-4.79029712498E+00	8.57704400370E+01	-1.09627197640E+01	1.46075790489E+02
1.64029500000E+09	-1.26327378099E+01	1.17425272111E+02	-5.00198057558E+00	8.14643777595E+01	-5.10546293686E+00	8.12089019301E+01	-1.05900937502E+01	1.41376125168E+02
1.66029250000E+09	-1.25050540552E+01	1.11049506360E+02	-5.35825894478E+00	7.71027496744E+01	-5.37385376301E+00	7.75429246173E+01	-1.01267411714E+01	1.36738400340E+02
1.68029000000E+09	-1.25234338801E+01	1.05340653984E+02	-5.64848763391E+00	7.33960922004E+01	-5.51419896996E+00	7.39123010603E+01	-9.65148040225E+00	1.32529756310E+02
1.70028750000E+09	-1.27301388504E+01	9.96496615538E+01	-5.81649314037E+00	6.94806986358E+01	-5.61674840572E+00	6.94234590070E+01	-9.16133704492E+00	1.28854942257E+02
1.72028500000E+09	-1.31569841680E+01	9.27465224440E+01	-5.95622594588E+00	6.45550095924E+01	-5.82885552318E+00	6.41029598105E+01	-8.68051263534E+00	1.25412329309E+02
1.74028250000E+09	-1.37434968323E+01	8.41044983274E+01	-6.22098919712E+00	5.87294674941E+01	-6.22683274612E+00	5.86697462037E+01	-8.25412972198E+00	1.22114779405E+02
1.76028000000E+09	-1.43086923435E+01	7.40278653490E+01	-6.70981346906E+00	5.29321223557E+01	-6.75253152285E+00	5.38925335846E+01	-7.86995155941E+00	1.18780274329E+02
1.78027750000E+09	-1.46630878365E+01	6.33261718850E+01	-7.35642960578E+00	4.82244742458E+01	-7.30635440250E+00	4.98819305259E+01	-7.53451376346E+00	1.14966683986E+02
1.80027500000E+09	-1.48549687693E+01	5.35736072881E+01	-8.01826113890E+00	4.50097408823E+01	-7.81856797806E+00	4.61694451312E+01	-7.29452321770E+00	1.10552171972E+02
1.82027250000E+09	-1.50899317916E+01	4.58378619158E+01	-8.53481421059E+00	4.26575753618E+01	-8.32410901880E+00	4.22173682566E+01	-7.11305726333E+00	1.05686271479E+02
1.84027000000E+09	-1.55670603999E+01	3.99496426844E+01	-8.91860349038E+00	3.97660144314E+01	-8.90951764670E+00	3.79320896897E+01	-6.94335914264E+00	1.00198174839E+02
1.86026750000E+09	-1.65514652507E+01	3.47902840572E+01	-9.39440202778E+00	3.55630119207E+01	-9.66213673679E+00	3.38906684924E+01	-6.76349027563E+00	9.40705205758E+01
1.88026500000E+09	-1.82040162801E+01	2.91869627819E+01	-1.01815968444E+01	3.10438021349E+01	-1.05573841983E+01	3.09145602912E+01	-6.54946639499E+00	8.75801679340E+01
1.90026250000E+09	-2.06291406005E+01	2.11339529853E+01	-1.12969404266E+01	2.80078705109E+01	-1.15002479547E+01	2.94683565892E+01	-6.25501588576E+00	8.08225952678E+01
1.92026000000E+09	-2.38726705522E+01	7.55912830706E+00	-1.25551069860E+01	2.78670268797E+01	-1.24167161848E+01	2.94410627517E+01	-5.90287340734E+00	7.38795954892E+01
1.94025750000E+09	-2.76581729649E+01	-1.52673900164E+01	-1.36593572260E+01	3.08941037907E+01	-1.32824438831E+01	3.08185591643E+01	-5.53040291952E+00	6.68653612661E+01
1.96025500000E+09	-3.14280294143E+01	-4.66854098940E+01	-1.43694737209E+01	3.58441263328E+01	-1.40719464223E+01	3.37031128701E+01	-5.17890310412E+00	5.98587202689E+01
1.98025250000E+09	-3.64804374526E+01	-9.37112563668E+01	-1.46556015009E+01	4.09575205144E+01	-1.46846973040E+01	3.85556646608E+01	-4.87955103251E+00	5.29495161735E+01
2.00025000000E+09	-3.46909929762E+01	1.69060462301E+02	-1.46752432050E+01	4.52491032810E+01	-1.49282188957E+01	4.47471955446E+01	-4.65296709535E+00	4.60337775740E+01
2.02024750000E+09	-2.64578198541E+01	1.35135364132E+02	-1.45490557435E+01	4.91010969903E+01	-1.46967547385E+01	5.07792744918E+01	-4.50462156626E+00	3.91790286589E+01
2.04024500000E+09	-2.14404087101E+01	1.23521637269E+02	-1.42630526316E+01	5.28514543139E+01	-1.41180886033E+01	5.51444801517E+01	-4.42374777043E+00	3.23934268545E+01
2.06024250000E+09	-1.82237694627E+01	1.17247695631E+02	-1.37598064898E+01	5.64284954489E+01	-1.33994007258E+01	5.72731230861E+01	-4.40672518114E+00	2.56759183749E+01
2.08024000000E+09	-1.61715560635E+01	1.12345818073E+02	-1.29870692980E+01	5.90383912060E+01	-1.26992002302E+01	5.77871718884E+01	-4.42872703514E+00	1.90430847068E+01
2.10023750000E+09	-1.49039022466E+01	1.07099593801E+02	-1.20299803129E+01	5.93900580013E+01	-1.20334078550E+01	5.73733321030E+01	-4.48047787881E+00	1.23622801516E+01
2.12023500000E+09	-1.41293031345E+01	1.00315184251E+02	-1.11299003928E+01	5.71290085697E+01	-1.13785485011E+01	5.61568029832E+01	-4.56136452989E+00	5.61257353248E+00
2.14023250000E+09	-1.36029214284E+01	9.13878845938E+01	-1.04974931390E+01	5.33966179162E+01	-1.07466421582E+01	5.41082036245E+01	-4.67786273697E+00	-1.13821595142E+00
2.16023000000E+09	-1.30382500213E+01	8.09010291211E+01	-1.01201260296E+01	4.95208406850E+01	-1.01762751875E+01	5.11721964719E+01	-4.80032057771E+00	-8.02136089313E+00
2.18022750000E+09	-1.22679115153E+01	7.01880919529E+01	-9.87087501699E+00	4.62947119509E+01	-9.71070415052E+00	4.76977897061E+01	-4.91848130548E+00	-1.49229172822E+01
2.20022500000E+09	-1.13654115833E+01	6.10256570470E+01	-9.59571948542E+00	4.36478848784E+01	-9.34968574164E+00	4.40392578572E+01	-5.02892076107E+00	-2.18137399107E+01
2.22022250000E+09	-1.05087396073E+01	5.38018978844E+01	-9.24366717216E+00	4.08441045527E+01	-9.04449149843E+00	4.03995012124E+01	-5.11093356867E+00	-2.85689227121E+01
2.24022000000E+09	-9.85874788658E+00	4.79804140538E+01	-8.87171632030E+00	3.73886145748E+01	-8.79800698242E+00	3.66943777921E+01	-5.16676394540E+00	-3.51588729808E+01
2.26021750000E+09	-9.46629005063E+00	4.26977379446E+01	-8.55419816801E+00	3.33881349585E+01	-8.59590745668E+00	3.30341609251E+01	-5.21350331555E+00	-4.14761334746E+01
2.28021500000E+09	-9.31207962471E+00	3.70145763721E+01	-8.31225573590E+00	2.92931362954E+01	-8.42643967310E+00	2.95034050196E+01	-5.27974682511E+00	-4.74754299097E+01
2.30021250000E+09	-9.29056724513E+00	3.02122106969E+01	-8.12848906464E+00	2.53256919027E+01	-8.25721202636E+00	2.61363566923E+01	-5.36200873184E+00	-5.31673285702E+01
2.32021000000E+09	-9.23866278696E+00	2.20801488421E+01	-7.97339659916E+00	2.15374402394E+01	-8.06093853754E+00	2.27437178530E+01	-5.47743560697E+00	-5.86685504979E+01
