! PocketVna 1.57  pocketvna.com
! Live measurements ((Reflection-S11) Linear 10000000-1000000000/1000 non-calibrated)
# Hz S RI R 50
! Hz          ReS11                      ImS11                      ReS21    ImS21    ReS12                      ImS12                      ReS22    ImS22    
10000000      -0.00047984719276428223    0.00011996179819107056     0                          0                          0        0        0        0        
10990990      -0.00047654658555984497    0.00016926974058151245     0                          0                          0        0        0        0        
11981981      -0.00044198334217071533    0.00021540373563766479     0                          0                          0        0        0        0        
12972972      -0.00044337660074234009    0.00026077032089233398     0                          0                          0        0        0        0        
13963963      -0.00042419135570526123    0.00031426548957824707     0                          0                          0        0        0        0        
14954954      -0.00039864331483840942    0.00034705549478530884     0                          0                          0        0        0        0        
15945945      -0.00037983804941177368    0.00040245801210403442     0                          0                          0        0        0        0        
16936936      -0.00035175681114196777    0.0004391893744468689      0                          0                          0        0        0        0        
17927927      -0.0003245621919631958     0.00046930462121963501     0                          0                          0        0        0        0        
18918918      -0.00030448287725448608    0.00050640851259231567     0                          0                          0        0        0        0        
19909909      -0.00028059631586074829    0.00054796040058135986     0                          0                          0        0        0        0        
20900900      -0.00023916363716125488    0.00057350844144821167     0                          0                          0        0        0        0        
21891891      -0.00021755695343017578    0.00060908496379852295     0                          0                          0        0        0        0        
22882882      -0.0001780390739440918     0.00062904506921768188     0                          0                          0        0        0        0        
23873873      -0.0001463964581489563     0.00066322088241577148     0                          0                          0        0        0        0        
24864864      -0.00012060254812240601    0.00070033222436904907     0                          0                          0        0        0        0        
25855855      -8.5651874542236328e-05    0.00071723759174346924     0                          0                          0        0        0        0        
26846846      -5.6549906730651855e-05    0.00074175745248794556     0                          0                          0        0        0        0        
27837837      -6.0945749282836914e-06    0.00076451152563095093     0                          0                          0        0        0        0        
28828828      1.0542571544647217e-05     0.00079030543565750122     0                          0                          0        0        0        0        
29819819      7.1547925472259521e-05     0.00080148875713348389     0                          0                          0        0        0        0        
30810810      0.00011360645294189453     0.00081597268581390381     0                          0                          0        0        0        0        
31801801      0.00014982372522354126     0.00084062665700912476     0                          0                          0        0        0        0        
32792792      0.00019188970327377319     0.00084570795297622681     0                          0                          0        0        0        0        
33783783      0.00023598223924636841     0.00086438655853271484     0                          0                          0        0        0        0        
34774774      0.00027373433113098145     0.00086592137813568115     0                          0                          0        0        0        0        
35765765      0.00032875686883926392     0.00087404996156692505     0                          0                          0        0        0        0        
36756756      0.00035746395587921143     0.00088675320148468018     0                          0                          0        0        0        0        
37747747      0.00041351467370986938     0.00088561326265335083     0                          0                          0        0        0        0        
38738738      0.00045596063137054443     0.00089056789875030518     0                          0                          0        0        0        0        
39729729      0.00048138201236724854     0.00088078528642654419     0                          0                          0        0        0        0        
40720720      0.00053232908248901367     0.00089476257562637329     0                          0                          0        0        0        0        
41711711      0.00057287514209747314     0.00089374929666519165     0                          0                          0        0        0        0        
42702702      0.00062357634305953979     0.00088345259428024292     0                          0                          0        0        0        0        
43693693      0.00066983699798583984     0.00087735801935195923     0                          0                          0        0        0        0        
44684684      0.00069829821586608887     0.00085435062646865845     0                          0                          0        0        0        0        
45675675      0.0007561221718788147      0.00085332989692687988     0                          0                          0        0        0        0        
46666666      0.00079526007175445557     0.00084304064512252808     0                          0                          0        0        0        0        
47657657      0.00082906335592269897     0.00082359462976455688     0                          0                          0        0        0        0        
48648648      0.00088586658239364624     0.0008157193660736084      0                          0                          0        0        0        0        
49639639      0.00090747326612472534     0.00079436600208282471     0                          0                          0        0        0        0        
50630630      0.00094851851463317871     0.00077988952398300171     0                          0                          0        0        0        0        
51621621      0.00099744647741317749     0.00076171010732650757     0                          0                          0        0        0        0        
52612612      0.0010313764214515686      0.00072320550680160522     0                          0                          0        0        0        0        
53603603      0.0010646656155586243      0.00069995224475860596     0                          0                          0        0        0        0        
54594594      0.0010977014899253845      0.00068012624979019165     0                          0                          0        0        0        0        
55585585      0.0011297315359115601      0.00065166503190994263     0                          0                          0        0        0        0        
56576576      0.0011800527572631836      0.00061861425638198853     0                          0                          0        0        0        0        
57567567      0.0011972114443778992      0.00059028714895248413     0                          0                          0        0        0        0        
58558558      0.0012392699718475342      0.00055545568466186523     0                          0                          0        0        0        0        
59549549      0.0012662187218666077      0.0005147978663444519      0                          0                          0        0        0        0        
60540540      0.0013033226132392883      0.00047782063484191895     0                          0                          0        0        0        0        
61531531      0.001326829195022583       0.00044426321983337402     0                          0                          0        0        0        0        
62522522      0.0013497099280357361      0.00041352212429046631     0                          0                          0        0        0        0        
63513513      0.001379057765007019       0.00036522746086120605     0                          0                          0        0        0        0        
64504504      0.0014155358076095581      0.00033358484506607056     0                          0                          0        0        0        0        
65495495      0.0014303997159004211      0.00028795748949050903     0                          0                          0        0        0        0        
66486486      0.0014466643333435059      0.00024475902318954468     0                          0                          0        0        0        0        
67477477      0.0014667436480522156      0.00020167231559753418     0                          0                          0        0        0        0        
68468468      0.0014921575784683228      0.00015579909086227417     0                          0                          0        0        0        0        
69459459      0.0015105903148651123      0.00012695044279098511     0                          0                          0        0        0        0        
70450450      0.0015262216329574585      7.5362622737884521e-05     0                          0                          0        0        0        0        
71441441      0.0015285015106201172      3.2916665077209473e-05     0                          0                          0        0        0        0        
72432432      0.0015407055616378784      -2.5667250156402588e-05    0                          0                          0        0        0        0        
73423423      0.001557476818561554       -7.0400536060333252e-05    0                          0                          0        0        0        0        
74414414      0.0015718415379524231      -0.00011005252599716187    0                          0                          0        0        0        0        
75405405      0.0015767961740493774      -0.0001660957932472229     0                          0                          0        0        0        0        
76396396      0.0015762895345687866      -0.00019938498735427856    0                          0                          0        0        0        0        
77387387      0.0015802234411239624      -0.00026126950979232788    0                          0                          0        0        0        0        
78378378      0.0015859454870223999      -0.00031197816133499146    0                          0                          0        0        0        0        
79369369      0.0015963688492774963      -0.0003620535135269165     0                          0                          0        0        0        0        
80360360      0.0015883594751358032      -0.00040105730295181274    0                          0                          0        0        0        0        
81351351      0.0015836581587791443      -0.00046206265687942505    0                          0                          0        0        0        0        
82342342      0.0015925541520118713      -0.00050704926252365112    0                          0                          0        0        0        0        
83333333      0.0015750154852867126      -0.00055648386478424072    0                          0                          0        0        0        0        
84324324      0.0015679001808166504      -0.00061582773923873901    0                          0                          0        0        0        0        
85315315      0.0015555769205093384      -0.00066055357456207275    0                          0                          0        0        0        0        
86306306      0.0015509948134422302      -0.00071405619382858276    0                          0                          0        0        0        0        
87297297      0.0015301629900932312      -0.00076425075531005859    0                          0                          0        0        0        0        
88288288      0.0015213862061500549      -0.00081940740346908569    0                          0                          0        0        0        0        
89279279      0.0015077888965606689      -0.00087302923202514648    0                          0                          0        0        0        0        
90270270      0.0014897435903549194      -0.00091026723384857178    0                          0                          0        0        0        0        
91261261      0.0014714449644088745      -0.00097126513719558716    0                          0                          0        0        0        0        
92252252      0.001444891095161438       -0.0010210797190666199     0                          0                          0        0        0        0        
93243243      0.0014234110713005066      -0.0010642856359481812     0                          0                          0        0        0        0        
94234234      0.0013999044895172119      -0.0011083781719207764     0                          0                          0        0        0        0        
95225225      0.0013808384537696838      -0.0011588335037231445     0                          0                          0        0        0        0        
96216216      0.0013527572154998779      -0.0012122094631195068     0                          0                          0        0        0        0        
97207207      0.0013249218463897705      -0.0012629106640815735     0                          0                          0        0        0        0        
98198198      0.0012964606285095215      -0.0013011619448661804     0                          0                          0        0        0        0        
99189189      0.0012723132967948914      -0.001355297863483429      0                          0                          0        0        0        0        
100180180     0.0012382566928863525      -0.0013981163501739502     0                          0                          0        0        0        0        
101171171     0.0012108087539672852      -0.0014452710747718811     0                          0                          0        0        0        0        
102162162     0.0011846274137496948      -0.0014837756752967834     0                          0                          0        0        0        0        
103153153     0.0011532381176948547      -0.0015362575650215149     0                          0                          0        0        0        0        
104144144     0.0011106729507446289      -0.0015827715396881104     0                          0                          0        0        0        0        
105135135     0.0010715276002883911      -0.0016207695007324219     0                          0                          0        0        0        0        
106126126     0.0010326504707336426      -0.0016506239771842957     0                          0                          0        0        0        0        
107117117     0.00098778307437896729     -0.0016854479908943176     0                          0                          0        0        0        0        
108108108     0.00095156580209732056     -0.0017405971884727478     0                          0                          0        0        0        0        
109099099     0.00090175122022628784     -0.0017595365643501282     0                          0                          0        0        0        0        
110090089     0.00087315589189529419     -0.0018178671598434448     0                          0                          0        0        0        0        
111081080     0.00082080066204071045     -0.0018521696329116821     0                          0                          0        0        0        0        
112072071     0.00077047944068908691     -0.0018888935446739197     0                          0                          0        0        0        0        
113063062     0.00072702020406723022     -0.0019352883100509644     0                          0                          0        0        0        0        
114054053     0.00067389756441116333     -0.0019554942846298218     0                          0                          0        0        0        0        
115045044     0.00062700361013412476     -0.0019994601607322693     0                          0                          0        0        0        0        
116036035     0.00058062374591827393     -0.002016112208366394      0                          0                          0        0        0        0        
117027026     0.00053577125072479248     -0.002069227397441864      0                          0                          0        0        0        0        
118018017     0.00046968460083007813     -0.0020832046866416931     0                          0                          0        0        0        0        
119009008     0.00041084736585617065     -0.0021172612905502319     0                          0                          0        0        0        0        
119999999     0.00036725401878356934     -0.0021430626511573792     0                          0                          0        0        0        0        
120990990     0.00031134486198425293     -0.0021729245781898499     0                          0                          0        0        0        0        
121981981     0.00025072693824768066     -0.0021857544779777527     0                          0                          0        0        0        0        
122972972     0.00018934905529022217     -0.0022233724594116211     0                          0                          0        0        0        0        
123963963     0.00013546645641326904     -0.0022350624203681946     0                          0                          0        0        0        0        
124954954     7.8536570072174072e-05     -0.0022594630718231201     0                          0                          0        0        0        0        
125945945     9.5292925834655762e-06     -0.0022771283984184265     0                          0                          0        0        0        0        
126936936     -4.2065978050231934e-05    -0.0022940337657928467     0                          0                          0        0        0        0        
127927927     -9.3273818492889404e-05    -0.0022997483611106873     0                          0                          0        0        0        0        
128918918     -0.00015008449554443359    -0.0023132190108299255     0                          0                          0        0        0        0        
129909909     -0.00021044164896011353    -0.0023279562592506409     0                          0                          0        0        0        0        
130900900     -0.00025860220193862915    -0.0023369863629341125     0                          0                          0        0        0        0        
