! PocketVna 1.54  pocketvna.com
! Live measurements ((Reflection-S11) Linear 1000000-500000000/201 calibrated)
# MHz S DB R 50
! MHz                 dBS11                    <S11                    dBS21    <S21     dBS12                    <S12                    dBS22    <S22     
1                     0.028458084684922676     -0.89307648137233131    -inf                     0                       -inf     0        -inf     0        
3.4950000000000001    -2.0412434029995912      -17.113316269726713     -inf                     0                       -inf     0        -inf     0        
5.9900000000000002    0.081292746718237954     -7.3319597032601331     -inf                     0                       -inf     0        -inf     0        
8.4849999999999994    -0.25889959336034102     -4.5003677597878058     -inf                     0                       -inf     0        -inf     0        
10.98                 -0.067507356449183875    -7.7215966989893063     -inf                     0                       -inf     0        -inf     0        
13.475                0.1061884056754549       -9.6297090588571184     -inf                     0                       -inf     0        -inf     0        
15.970000000000001    -0.067012707952575509    -10.128875834645383     -inf                     0                       -inf     0        -inf     0        
18.465                -0.17438778561434207     -11.240110514845115     -inf                     0                       -inf     0        -inf     0        
20.960000000000001    -0.07483645763594296     -12.812500180889174     -inf                     0                       -inf     0        -inf     0        
23.454999999999998    -0.093414365930458848    -14.189403545299216     -inf                     0                       -inf     0        -inf     0        
25.949999999999999    -0.081751266589224908    -15.610468133016251     -inf                     0                       -inf     0        -inf     0        
28.445                -0.074578208973652291    -16.560873788490117     -inf                     0                       -inf     0        -inf     0        
30.940000000000001    -0.18604703274561205     -18.478416161415957     -inf                     0                       -inf     0        -inf     0        
33.435000000000002    -0.19037413753402987     -20.427605973865479     -inf                     0                       -inf     0        -inf     0        
35.93                 -0.19309106140101606     -21.910252113357775     -inf                     0                       -inf     0        -inf     0        
38.424999999999997    -0.25877375451809714     -23.566419524328062     -inf                     0                       -inf     0        -inf     0        
40.920000000000002    -0.2776615799045809      -25.479962265842719     -inf                     0                       -inf     0        -inf     0        
43.414999999999999    -0.20324980279583249     -27.020571284575915     -inf                     0                       -inf     0        -inf     0        
45.909999999999997    -0.20350585875793634     -28.491242669129299     -inf                     0                       -inf     0        -inf     0        
48.405000000000001    -0.14170739921865305     -30.289303981561158     -inf                     0                       -inf     0        -inf     0        
50.899999999999999    -0.13919348140819518     -31.398416225906917     -inf                     0                       -inf     0        -inf     0        
53.395000000000003    -0.17184759880393763     -32.987129279889885     -inf                     0                       -inf     0        -inf     0        
55.890000000000001    -0.10416582421951746     -34.881662235583029     -inf                     0                       -inf     0        -inf     0        
58.384999999999998    -0.12213391133469215     -36.020583319069743     -inf                     0                       -inf     0        -inf     0        
60.880000000000003    -0.11003426081992911     -37.401825528541181     -inf                     0                       -inf     0        -inf     0        
63.375                -0.14117946329223757     -38.856891536740441     -inf                     0                       -inf     0        -inf     0        
65.870000000000005    -0.057598145192487495    -39.62960054757847      -inf                     0                       -inf     0        -inf     0        
68.364999999999995    -0.13721319264162893     -41.419455085152421     -inf                     0                       -inf     0        -inf     0        
70.859999999999999    -0.17511096823911401     -42.507020783209228     -inf                     0                       -inf     0        -inf     0        
73.355000000000004    -0.18880150378722857     -43.941271817263221     -inf                     0                       -inf     0        -inf     0        
75.849999999999994    -0.16715401723840037     -44.874790640530421     -inf                     0                       -inf     0        -inf     0        
78.344999999999999    -0.26456427836898905     -46.668527843297888     -inf                     0                       -inf     0        -inf     0        
80.840000000000003    -0.21507627651777297     -47.70073936610639      -inf                     0                       -inf     0        -inf     0        
83.334999999999994    -0.21827938584622114     -49.429058744457834     -inf                     0                       -inf     0        -inf     0        
85.829999999999998    -0.23237826596786249     -50.676156928284691     -inf                     0                       -inf     0        -inf     0        
88.325000000000003    -0.21218304717299852     -51.747876286408975     -inf                     0                       -inf     0        -inf     0        
90.819999999999993    -0.23776709779551214     -53.327272665884728     -inf                     0                       -inf     0        -inf     0        
93.314999999999998    -0.25386086597243107     -54.796017732607737     -inf                     0                       -inf     0        -inf     0        
95.810000000000002    -0.29037516971467009     -56.248961240232312     -inf                     0                       -inf     0        -inf     0        
98.305000000000007    -0.33145829718335063     -57.272571978391625     -inf                     0                       -inf     0        -inf     0        
100.8                 -0.33590548642258422     -58.624346536641035     -inf                     0                       -inf     0        -inf     0        
103.295               -0.40627120762078917     -60.328060615595589     -inf                     0                       -inf     0        -inf     0        
105.79000000000001    -0.37432687926841929     -61.783769032054678     -inf                     0                       -inf     0        -inf     0        
108.285               -0.42992930573176319     -63.096544401507906     -inf                     0                       -inf     0        -inf     0        
110.78                -0.53071591037093657     -64.488026790375471     -inf                     0                       -inf     0        -inf     0        
113.27500000000001    -0.52447816719993834     -66.217350265400725     -inf                     0                       -inf     0        -inf     0        
115.77                -0.53042754625236177     -67.491049505133489     -inf                     0                       -inf     0        -inf     0        
118.265               -0.50880597914936543     -69.511598172598639     -inf                     0                       -inf     0        -inf     0        
120.76000000000001    -0.62006504982557575     -70.817016256039821     -inf                     0                       -inf     0        -inf     0        
123.255               -0.64435929192829711     -72.564656303017671     -inf                     0                       -inf     0        -inf     0        
125.75                -0.68976491153831287     -74.406849541214285     -inf                     0                       -inf     0        -inf     0        
128.245               -0.63634941645479948     -76.045609440581998     -inf                     0                       -inf     0        -inf     0        
130.74000000000001    -0.64400818653934488     -77.720676169913972     -inf                     0                       -inf     0        -inf     0        
133.23500000000001    -0.62262964753892203     -79.389818276396085     -inf                     0                       -inf     0        -inf     0        
135.72999999999999    -0.61240172868352993     -81.040058227839893     -inf                     0                       -inf     0        -inf     0        
138.22499999999999    -0.53895044756013455     -82.306873675095716     -inf                     0                       -inf     0        -inf     0        
140.72                -0.52525469138285275     -83.43842944792415      -inf                     0                       -inf     0        -inf     0        
143.215               -0.50098654674701315     -85.023096575559222     -inf                     0                       -inf     0        -inf     0        
145.71000000000001    -0.45627486441847409     -86.292805114997989     -inf                     0                       -inf     0        -inf     0        
148.20500000000001    -0.43176079764234954     -88.008470103698826     -inf                     0                       -inf     0        -inf     0        
150.69999999999999    -0.35109057009316702     -89.290273454214486     -inf                     0                       -inf     0        -inf     0        
153.19499999999999    -0.34090859380769578     -90.722899767589624     -inf                     0                       -inf     0        -inf     0        
155.69                -0.34587965756939482     -92.261273395473523     -inf                     0                       -inf     0        -inf     0        
158.185               -0.31769733382218956     -92.955274529207969     -inf                     0                       -inf     0        -inf     0        
160.68000000000001    -0.33975694705120346     -93.829323706310888     -inf                     0                       -inf     0        -inf     0        
163.17500000000001    -0.35229922436752686     -94.997093233336344     -inf                     0                       -inf     0        -inf     0        
165.66999999999999    -0.36754967050199433     -96.261051485896772     -inf                     0                       -inf     0        -inf     0        
168.16499999999999    -0.34593907842622057     -97.486834896461758     -inf                     0                       -inf     0        -inf     0        
170.66                -0.29876094360077193     -98.466639391954899     -inf                     0                       -inf     0        -inf     0        
173.155               -0.29952921558804235     -99.94594455817365      -inf                     0                       -inf     0        -inf     0        
175.65000000000001    -0.31777773122689434     -101.44383336495993     -inf                     0                       -inf     0        -inf     0        
178.14500000000001    -0.30004376353942031     -102.63870980242396     -inf                     0                       -inf     0        -inf     0        
180.63999999999999    -0.34825011434303554     -103.82961538163418     -inf                     0                       -inf     0        -inf     0        
183.13499999999999    -0.40440706922591008     -104.68964046404341     -inf                     0                       -inf     0        -inf     0        
185.63                -0.42913116149418296     -106.32964825658739     -inf                     0                       -inf     0        -inf     0        
188.125               -0.45475727563539098     -107.55603315071603     -inf                     0                       -inf     0        -inf     0        
190.62                -0.49592357143679699     -108.79257360568606     -inf                     0                       -inf     0        -inf     0        
193.11500000000001    -0.54027020521190083     -109.95077621578294     -inf                     0                       -inf     0        -inf     0        
195.61000000000001    -0.53415565407344001     -111.33722128566718     -inf                     0                       -inf     0        -inf     0        
198.10499999999999    -0.55587090366496694     -112.48195721944853     -inf                     0                       -inf     0        -inf     0        
200.59999999999999    -0.55115069598176947     -113.99594297686151     -inf                     0                       -inf     0        -inf     0        
203.095               -0.61131708252706918     -115.27050641717969     -inf                     0                       -inf     0        -inf     0        
205.59                -0.65083980277291453     -117.05803688579273     -inf                     0                       -inf     0        -inf     0        
208.08500000000001    -0.62400043708168751     -118.77706636578172     -inf                     0                       -inf     0        -inf     0        
210.58000000000001    -0.65301727449874281     -120.09881661324464     -inf                     0                       -inf     0        -inf     0        
213.07499999999999    -0.63645021169752913     -121.72441951899795     -inf                     0                       -inf     0        -inf     0        
215.56999999999999    -0.70147619929006733     -123.28754009334084     -inf                     0                       -inf     0        -inf     0        
218.065               -0.67826496821200399     -124.74053897992286     -inf                     0                       -inf     0        -inf     0        
220.56                -0.59033674060797336     -126.09846211815911     -inf                     0                       -inf     0        -inf     0        
223.05500000000001    -0.66087834050125294     -127.31500149735312     -inf                     0                       -inf     0        -inf     0        
225.55000000000001    -0.6030766487619309      -128.60760043369191     -inf                     0                       -inf     0        -inf     0        
228.04499999999999    -0.62693465900457646     -129.82175706730916     -inf                     0                       -inf     0        -inf     0        
230.53999999999999    -0.61095560153598283     -131.32052863019948     -inf                     0                       -inf     0        -inf     0        
233.035               -0.5442253578079439      -132.86655214597789     -inf                     0                       -inf     0        -inf     0        
235.53                -0.5928420639777896      -134.4499557429514      -inf                     0                       -inf     0        -inf     0        
238.02500000000001    -0.62718842420375165     -135.86589199730494     -inf                     0                       -inf     0        -inf     0        
240.52000000000001    -0.51337909440925111     -137.20058020207117     -inf                     0                       -inf     0        -inf     0        
243.01499999999999    -0.54607869066241499     -138.50470452794235     -inf                     0                       -inf     0        -inf     0        
245.50999999999999    -0.54636872326110453     -139.96214923464447     -inf                     0                       -inf     0        -inf     0        
248.005               -0.45076153659636381     -140.75694399454531     -inf                     0                       -inf     0        -inf     0        
250.5                 -0.48982528016522719     -141.83838195039567     -inf                     0                       -inf     0        -inf     0        
252.995               -0.47585469944610376     -143.3157469873874      -inf                     0                       -inf     0        -inf     0        
255.49000000000001    -0.45169686832752082     -144.10042759093744     -inf                     0                       -inf     0        -inf     0        
257.98500000000001    -0.41533869064971063     -145.07448690923584     -inf                     0                       -inf     0        -inf     0        
260.48000000000002    -0.45350586041684493     -146.30797637436245     -inf                     0                       -inf     0        -inf     0        
262.97500000000002    -0.48777868492331794     -147.40397673559113     -inf                     0                       -inf     0        -inf     0        
265.47000000000003    -0.51994941623652058     -148.88605041297592     -inf                     0                       -inf     0        -inf     0        
267.96499999999997    -0.58721018426530924     -149.5356364052092      -inf                     0                       -inf     0        -inf     0        
270.45999999999998    -0.6380790400182933      -150.97369583470757     -inf                     0                       -inf     0        -inf     0        
272.95499999999998    -0.58094404913011566     -151.54614189076605     -inf                     0                       -inf     0        -inf     0        
275.44999999999999    -0.58701396504224401     -153.06979328749426     -inf                     0                       -inf     0        -inf     0        
277.94499999999999    -0.6808963097291385      -154.16050326905918     -inf                     0                       -inf     0        -inf     0        
280.44                -0.71203928891207102     -155.41984125583497     -inf                     0                       -inf     0        -inf     0        
282.935               -0.71624787322317029     -156.74685334514976     -inf                     0                       -inf     0        -inf     0        
285.43000000000001    -0.7348159054917287      -158.04046336401041     -inf                     0                       -inf     0        -inf     0        
287.92500000000001    -0.73562726135247791     -158.96084299473378     -inf                     0                       -inf     0        -inf     0        
290.42000000000002    -0.73084626248747431     -160.40276500655654     -inf                     0                       -inf     0        -inf     0        
292.91500000000002    -0.84165605206621408     -161.65362744850196     -inf                     0                       -inf     0        -inf     0        
295.41000000000003    -0.88493830640633897     -163.0964588130083      -inf                     0                       -inf     0        -inf     0        
297.90499999999997    -0.8773125691957564      -164.45945540121295     -inf                     0                       -inf     0        -inf     0        
300.39999999999998    -0.87423050602960894     -166.37039059881809     -inf                     0                       -inf     0        -inf     0        
302.89499999999998    -0.94027496732478211     -167.37306046298193     -inf                     0                       -inf     0        -inf     0        
305.38999999999999    -0.98008902756382232     -168.56491311978982     -inf                     0                       -inf     0        -inf     0        
307.88499999999999    -0.91839886988666564     -169.64281071122633     -inf                     0                       -inf     0        -inf     0        
310.38                -0.98174673016700376     -171.10909006251768     -inf                     0                       -inf     0        -inf     0        
