! PocketVna 1.54  pocketvna.com
! Live measurements ((Reflection-S11) Linear 1000000-4000000000/501 calibrated)
# Hz S DB R 50
! Hz          dBS11                     <S11                    dBS21    <S21     dBS12                     <S12                    dBS22    <S22     
1000000       -0.0051308504131926868    -0.59933216854909999    -inf                      0                       -inf     0        -inf     0        
8998000       0.37221553068258517       -11.508293812143515     -inf                      0                       -inf     0        -inf     0        
16996000      0.046992683766823543      -11.705277223996971     -inf                      0                       -inf     0        -inf     0        
24994000      0.058720784267077074      -15.337545445884789     -inf                      0                       -inf     0        -inf     0        
32992000      0.066871116766187372      -20.158320722881097     -inf                      0                       -inf     0        -inf     0        
40990000      0.0024100788525671692     -24.872501886945248     -inf                      0                       -inf     0        -inf     0        
48988000      0.060760014826476763      -29.912890901228405     -inf                      0                       -inf     0        -inf     0        
56986000      0.034575344774656291      -34.714026069633825     -inf                      0                       -inf     0        -inf     0        
64984000      0.072134606648822847      -38.806297873440826     -inf                      0                       -inf     0        -inf     0        
72982000      0.014518944228983456      -43.197845746681274     -inf                      0                       -inf     0        -inf     0        
80980000      -0.017049858686633331     -47.838955052228805     -inf                      0                       -inf     0        -inf     0        
88978000      -0.059143633205342515     -51.853202540748526     -inf                      0                       -inf     0        -inf     0        
96976000      -0.12656448677370197      -56.094947021235569     -inf                      0                       -inf     0        -inf     0        
104974000     -0.19206932374611616      -60.370695765132226     -inf                      0                       -inf     0        -inf     0        
112972000     -0.30702141680586476      -65.058177589104019     -inf                      0                       -inf     0        -inf     0        
120970000     -0.40500319030537224      -69.993745612086471     -inf                      0                       -inf     0        -inf     0        
128968000     -0.56246588740397319      -75.51101162070961      -inf                      0                       -inf     0        -inf     0        
136966000     -0.51692093900120462      -79.914533782812654     -inf                      0                       -inf     0        -inf     0        
144964000     -0.4104327418748519       -84.276638582445216     -inf                      0                       -inf     0        -inf     0        
152962000     -0.32644598888450649      -89.225932685654058     -inf                      0                       -inf     0        -inf     0        
160960000     -0.34546642069527189      -92.699090991708331     -inf                      0                       -inf     0        -inf     0        
168958000     -0.34367164755647628      -96.499763931684853     -inf                      0                       -inf     0        -inf     0        
176956000     -0.36210786238651366      -100.68993558652159     -inf                      0                       -inf     0        -inf     0        
184954000     -0.46611102511472446      -104.77226417630507     -inf                      0                       -inf     0        -inf     0        
192952000     -0.63685309057522321      -108.97403517848113     -inf                      0                       -inf     0        -inf     0        
200950000     -0.81318141590216886      -112.44094746156276     -inf                      0                       -inf     0        -inf     0        
208948000     -0.79930080810844273      -117.37406462377673     -inf                      0                       -inf     0        -inf     0        
216946000     -0.80647993124111172      -122.77829437257631     -inf                      0                       -inf     0        -inf     0        
224944000     -0.8237365166032431       -127.24860297526307     -inf                      0                       -inf     0        -inf     0        
232942000     -0.7957938281765311       -132.07239926967824     -inf                      0                       -inf     0        -inf     0        
240940000     -0.75180862071354282      -136.50393823470668     -inf                      0                       -inf     0        -inf     0        
248938000     -0.70252704711913494      -140.38741431813375     -inf                      0                       -inf     0        -inf     0        
256936000     -0.74764423171218097      -143.96392879272491     -inf                      0                       -inf     0        -inf     0        
264934000     -0.73387599417100691      -147.8529752916308      -inf                      0                       -inf     0        -inf     0        
272932000     -0.80491976694877676      -151.7134800583043      -inf                      0                       -inf     0        -inf     0        
280930000     -0.78731525972301164      -156.0297693199262      -inf                      0                       -inf     0        -inf     0        
288928000     -0.9591061038333073       -159.70029901368315     -inf                      0                       -inf     0        -inf     0        
296926000     -1.0063960607077576       -163.61516217176225     -inf                      0                       -inf     0        -inf     0        
304924000     -1.0977423293851445       -168.4032778684267      -inf                      0                       -inf     0        -inf     0        
312922000     -1.1856510963927445       -173.17043817355625     -inf                      0                       -inf     0        -inf     0        
320920000     -1.2103206818674774       -177.24709460322856     -inf                      0                       -inf     0        -inf     0        
328918000     -1.1298304388271432       178.73772139764597      -inf                      0                       -inf     0        -inf     0        
336916000     -1.2598672509119031       174.48618839303975      -inf                      0                       -inf     0        -inf     0        
344914000     -1.2575264224285374       170.72774272057842      -inf                      0                       -inf     0        -inf     0        
352912000     -1.3431057558962327       166.48058401791218      -inf                      0                       -inf     0        -inf     0        
360910000     -1.2484034089174409       161.75400457834581      -inf                      0                       -inf     0        -inf     0        
368908000     -1.4013866703621298       158.38767750076084      -inf                      0                       -inf     0        -inf     0        
376906000     -1.4420908746566279       154.60534617077511      -inf                      0                       -inf     0        -inf     0        
384904000     -1.4749937135891171       150.58569751798831      -inf                      0                       -inf     0        -inf     0        
392902000     -1.5505729988024179       146.26757184619692      -inf                      0                       -inf     0        -inf     0        
400900000     -1.5510220676261706       142.16732022868044      -inf                      0                       -inf     0        -inf     0        
408898000     -1.5540705542749289       138.08783010686395      -inf                      0                       -inf     0        -inf     0        
416896000     -1.5318790227749177       133.61250524459979      -inf                      0                       -inf     0        -inf     0        
424894000     -1.6359863324848374       129.98572718963626      -inf                      0                       -inf     0        -inf     0        
432892000     -1.5068887214067002       126.56722078068346      -inf                      0                       -inf     0        -inf     0        
440890000     -1.6162503147381462       122.30416317257783      -inf                      0                       -inf     0        -inf     0        
448888000     -1.7526156267303525       118.49070800876201      -inf                      0                       -inf     0        -inf     0        
456886000     -1.7247501574340649       114.66861383544435      -inf                      0                       -inf     0        -inf     0        
464884000     -1.7810514821352008       110.28927084546211      -inf                      0                       -inf     0        -inf     0        
472882000     -1.7117235003949374       106.05542391609566      -inf                      0                       -inf     0        -inf     0        
480880000     -1.8504813976028931       102.29938656581177      -inf                      0                       -inf     0        -inf     0        
488878000     -1.8181735752693013       98.172999865074488      -inf                      0                       -inf     0        -inf     0        
496876000     -1.899772503046808        95.200178987329267      -inf                      0                       -inf     0        -inf     0        
504874000     -1.9005818250268189       91.1028028749801        -inf                      0                       -inf     0        -inf     0        
512872000     -2.0245164550054415       87.541621680609254      -inf                      0                       -inf     0        -inf     0        
520870000     -2.1011069444637629       83.940400649455512      -inf                      0                       -inf     0        -inf     0        
528868000     -2.2562216151773757       79.777812953139559      -inf                      0                       -inf     0        -inf     0        
536866000     -2.4367297956689757       76.013013933793673      -inf                      0                       -inf     0        -inf     0        
544864000     -2.5315844485394812       71.603012926901641      -inf                      0                       -inf     0        -inf     0        
552862000     -2.6292414185706532       67.232634888235239      -inf                      0                       -inf     0        -inf     0        
560860000     -2.6431997930304707       62.811987342314211      -inf                      0                       -inf     0        -inf     0        
568858000     -2.6727361895530373       58.349581658720282      -inf                      0                       -inf     0        -inf     0        
576856000     -2.6878034460873761       54.60638917790407       -inf                      0                       -inf     0        -inf     0        
584854000     -2.724008176099078        50.849096977466459      -inf                      0                       -inf     0        -inf     0        
592852000     -2.8372590357657645       48.198133193307136      -inf                      0                       -inf     0        -inf     0        
600850000     -3.0224189194775217       44.699519885624227      -inf                      0                       -inf     0        -inf     0        
608848000     -3.2124022269989321       40.827437328353135      -inf                      0                       -inf     0        -inf     0        
616846000     -3.3767399089905492       36.262967905269832      -inf                      0                       -inf     0        -inf     0        
624844000     -3.5253559379881905       31.791584587931894      -inf                      0                       -inf     0        -inf     0        
632842000     -3.6974559791014681       27.830520762483296      -inf                      0                       -inf     0        -inf     0        
640840000     -3.8562946170989592       23.819756712724274      -inf                      0                       -inf     0        -inf     0        
648838000     -3.9305861594865728       19.838180076001048      -inf                      0                       -inf     0        -inf     0        
656836000     -4.0474996734206776       15.574101029496928      -inf                      0                       -inf     0        -inf     0        
664834000     -4.2465483535140951       11.415166969340635      -inf                      0                       -inf     0        -inf     0        
672832000     -4.3259679235826223       7.1921373470155148      -inf                      0                       -inf     0        -inf     0        
680830000     -4.4474646637174811       2.8127357207544157      -inf                      0                       -inf     0        -inf     0        
688828000     -4.5513846783980512       -1.521079008016059      -inf                      0                       -inf     0        -inf     0        
696826000     -4.8237447128668043       -5.454298887602409      -inf                      0                       -inf     0        -inf     0        
704824000     -4.9214602012631525       -10.172526113371427     -inf                      0                       -inf     0        -inf     0        
712822000     -5.1175329238193701       -13.94983914635681      -inf                      0                       -inf     0        -inf     0        
720820000     -5.3954704646803977       -17.611366336097507     -inf                      0                       -inf     0        -inf     0        
728818000     -5.469018903350797        -22.369656693082362     -inf                      0                       -inf     0        -inf     0        
736816000     -5.6789718574295422       -26.206927134975192     -inf                      0                       -inf     0        -inf     0        
744814000     -5.7874934449003712       -31.437910656595065     -inf                      0                       -inf     0        -inf     0        
752812000     -5.7852897901933575       -35.315961548241397     -inf                      0                       -inf     0        -inf     0        
760810000     -5.981847059922937        -39.400799997978403     -inf                      0                       -inf     0        -inf     0        
768808000     -6.0320120213874207       -43.091876763493474     -inf                      0                       -inf     0        -inf     0        
776806000     -6.1007263050947707       -48.025220366194169     -inf                      0                       -inf     0        -inf     0        
784804000     -6.4855967485199182       -51.763766965792023     -inf                      0                       -inf     0        -inf     0        
792802000     -6.6755897046473089       -55.146932285493435     -inf                      0                       -inf     0        -inf     0        
800800000     -6.9150856088207524       -60.366318606704517     -inf                      0                       -inf     0        -inf     0        
808798000     -6.9684660696568335       -65.328590420782717     -inf                      0                       -inf     0        -inf     0        
816796000     -7.2729277923855147       -70.094920490335227     -inf                      0                       -inf     0        -inf     0        
824794000     -7.3348198582393787       -73.900063174966547     -inf                      0                       -inf     0        -inf     0        
832792000     -7.5592856737905763       -80.426363724409939     -inf                      0                       -inf     0        -inf     0        
840790000     -7.6300435682546404       -84.950201172514994     -inf                      0                       -inf     0        -inf     0        
848788000     -7.5733787120331373       -89.417513803362738     -inf                      0                       -inf     0        -inf     0        
856786000     -7.5578091402363743       -94.846027055816563     -inf                      0                       -inf     0        -inf     0        
864784000     -7.5840468878693299       -97.373612636666081     -inf                      0                       -inf     0        -inf     0        
872782000     -7.6520798838049          -102.06419216311627     -inf                      0                       -inf     0        -inf     0        
880780000     -7.7564810059566263       -104.97174453088495     -inf                      0                       -inf     0        -inf     0        
888778000     -7.718580418394831        -109.1764330775366      -inf                      0                       -inf     0        -inf     0        
896776000     -8.177481685345926        -111.70234321772413     -inf                      0                       -inf     0        -inf     0        
904774000     -8.2014177577950313       -116.22266820936655     -inf                      0                       -inf     0        -inf     0        
912772000     -8.4894184417208685       -120.48412595690851     -inf                      0                       -inf     0        -inf     0        
920770000     -8.7043350091323841       -125.08998950566709     -inf                      0                       -inf     0        -inf     0        
928768000     -8.8185455719460712       -129.25231889035979     -inf                      0                       -inf     0        -inf     0        
936766000     -8.9997731057070176       -133.79120793881251     -inf                      0                       -inf     0        -inf     0        
944764000     -9.1052810235422541       -138.7971835757788      -inf                      0                       -inf     0        -inf     0        
952762000     -9.1924276500291491       -144.33548387828719     -inf                      0                       -inf     0        -inf     0        
960760000     -9.074922413126302        -149.81530543106661     -inf                      0                       -inf     0        -inf     0        
968758000     -9.0464451319731047       -153.58177343951573     -inf                      0                       -inf     0        -inf     0        
976756000     -9.0355945790414154       -157.97172799073178     -inf                      0                       -inf     0        -inf     0        
984754000     -8.9686243937274277       -162.23310647544764     -inf                      0                       -inf     0        -inf     0        
992752000     -8.9543393894262184       -166.66232790878024     -inf                      0                       -inf     0        -inf     0        
1000750000    -9.1208777112516142       -170.27625074818832     -inf                      0                       -inf     0        -inf     0        
1008748000    -9.0414579352212403       -174.4975996600125      -inf                      0                       -inf     0        -inf     0        
1016746000    -9.3138853379037645       -178.31396476880479     -inf                      0                       -inf     0        -inf     0        
1024744000    -9.4433330495690306       177.68443512654878      -inf                      0                       -inf     0        -inf     0        
1032742000    -9.4380851679255375       173.95645988080187      -inf                      0                       -inf     0        -inf     0        
