! PocketVna 1.54  pocketvna.com
! Live measurements ((Reflection-S11) Linear 1000000-500000000/201 calibrated)
# MHz S DB R 50
! MHz                 dBS11                  <S11                   dBS21    <S21     dBS12                  <S12                   dBS22    <S22     
1                     -39.162766288337764    117.85692629733404     -inf                   0                      -inf     0        -inf     0        
3.4950000000000001    -4.1203998941965239    85.55831944100656      -inf                   0                      -inf     0        -inf     0        
5.9900000000000002    -11.592555932386531    154.5661925741496      -inf                   0                      -inf     0        -inf     0        
8.4849999999999994    -23.225021494378261    -142.68378026046511    -inf                   0                      -inf     0        -inf     0        
10.98                 -25.390281427906412    133.80920466710168     -inf                   0                      -inf     0        -inf     0        
13.475                -24.063417942452922    128.10459477374778     -inf                   0                      -inf     0        -inf     0        
15.970000000000001    -28.617494235327364    134.94789595213126     -inf                   0                      -inf     0        -inf     0        
18.465                -36.167456229330163    122.28905467848956     -inf                   0                      -inf     0        -inf     0        
20.960000000000001    -33.373558288458462    131.88004874795311     -inf                   0                      -inf     0        -inf     0        
23.454999999999998    -35.626568210095563    149.96282910660688     -inf                   0                      -inf     0        -inf     0        
25.949999999999999    -33.382528835986456    134.54623659915569     -inf                   0                      -inf     0        -inf     0        
28.445                -37.875882591882828    138.48514473439118     -inf                   0                      -inf     0        -inf     0        
30.940000000000001    -35.738288237464893    128.39932645587908     -inf                   0                      -inf     0        -inf     0        
33.435000000000002    -35.963841483991899    159.34690889637147     -inf                   0                      -inf     0        -inf     0        
35.93                 -36.268675720558136    149.00182816127034     -inf                   0                      -inf     0        -inf     0        
38.424999999999997    -35.872749674818017    147.06001716631462     -inf                   0                      -inf     0        -inf     0        
40.920000000000002    -37.931573406337193    133.35503530955967     -inf                   0                      -inf     0        -inf     0        
43.414999999999999    -35.674875508889407    137.58273070215321     -inf                   0                      -inf     0        -inf     0        
45.909999999999997    -35.017018244001605    142.89443676372392     -inf                   0                      -inf     0        -inf     0        
48.405000000000001    -34.921129165483741    154.56099076145003     -inf                   0                      -inf     0        -inf     0        
50.899999999999999    -36.014590671341935    153.11545970760753     -inf                   0                      -inf     0        -inf     0        
53.395000000000003    -38.626435862932638    144.47795332724223     -inf                   0                      -inf     0        -inf     0        
55.890000000000001    -35.977011029897866    135.08479039970143     -inf                   0                      -inf     0        -inf     0        
58.384999999999998    -37.694504419526524    138.04285786969083     -inf                   0                      -inf     0        -inf     0        
60.880000000000003    -33.922050388513306    147.10909684156866     -inf                   0                      -inf     0        -inf     0        
63.375                -34.289016152201299    152.0372697313         -inf                   0                      -inf     0        -inf     0        
65.870000000000005    -36.884545985236635    128.92618506905376     -inf                   0                      -inf     0        -inf     0        
68.364999999999995    -34.088377485740303    149.37028112441138     -inf                   0                      -inf     0        -inf     0        
70.859999999999999    -36.666633218862223    157.23155380850497     -inf                   0                      -inf     0        -inf     0        
73.355000000000004    -37.573796934585729    147.95884987621989     -inf                   0                      -inf     0        -inf     0        
75.849999999999994    -36.014232414543315    135.21877783187745     -inf                   0                      -inf     0        -inf     0        
78.344999999999999    -34.637567141667972    135.07826011096293     -inf                   0                      -inf     0        -inf     0        
80.840000000000003    -36.384452068101425    157.00400657713868     -inf                   0                      -inf     0        -inf     0        
83.334999999999994    -38.663083227788881    -175.48331019850983    -inf                   0                      -inf     0        -inf     0        
85.829999999999998    -35.060033578311184    152.27962835699682     -inf                   0                      -inf     0        -inf     0        
88.325000000000003    -36.982833090000142    139.59736424632806     -inf                   0                      -inf     0        -inf     0        
90.819999999999993    -35.685741412285971    153.12673849033402     -inf                   0                      -inf     0        -inf     0        
93.314999999999998    -33.978456462155961    155.95447439998728     -inf                   0                      -inf     0        -inf     0        
95.810000000000002    -35.35415031577449     164.93369402421771     -inf                   0                      -inf     0        -inf     0        
98.305000000000007    -36.112548606082257    156.63385265195288     -inf                   0                      -inf     0        -inf     0        
100.8                 -36.663385266878656    157.50319984095208     -inf                   0                      -inf     0        -inf     0        
103.295               -35.907147781779528    147.4102248805182      -inf                   0                      -inf     0        -inf     0        
105.79000000000001    -35.418629384520855    151.59907925330327     -inf                   0                      -inf     0        -inf     0        
108.285               -34.560258328665199    171.29646027693298     -inf                   0                      -inf     0        -inf     0        
110.78                -34.063800015087907    156.01186929733205     -inf                   0                      -inf     0        -inf     0        
113.27500000000001    -33.80072707650433     151.15847595167716     -inf                   0                      -inf     0        -inf     0        
115.77                -35.999825504264052    169.69351061436484     -inf                   0                      -inf     0        -inf     0        
118.265               -36.671308561960259    170.9461096216742      -inf                   0                      -inf     0        -inf     0        
120.76000000000001    -34.402188903956699    166.81714885422841     -inf                   0                      -inf     0        -inf     0        
123.255               -37.606379443921206    159.66180690068032     -inf                   0                      -inf     0        -inf     0        
125.75                -33.639703693727363    168.29520329989447     -inf                   0                      -inf     0        -inf     0        
128.245               -32.047465762119145    173.89093325539139     -inf                   0                      -inf     0        -inf     0        
130.74000000000001    -33.19347475070505     158.67667448587738     -inf                   0                      -inf     0        -inf     0        
133.23500000000001    -34.653621828957142    -175.52595130250677    -inf                   0                      -inf     0        -inf     0        
135.72999999999999    -33.172975417465992    172.93426530512212     -inf                   0                      -inf     0        -inf     0        
138.22499999999999    -34.424421391466133    -176.10721018731263    -inf                   0                      -inf     0        -inf     0        
140.72                -34.265933806117886    -174.78533380453706    -inf                   0                      -inf     0        -inf     0        
143.215               -33.64087694574286     177.87925428611172     -inf                   0                      -inf     0        -inf     0        
145.71000000000001    -34.567268435741624    178.90144988632017     -inf                   0                      -inf     0        -inf     0        
148.20500000000001    -34.338394039201461    -157.41073837850544    -inf                   0                      -inf     0        -inf     0        
150.69999999999999    -32.418300392393967    -169.1236550691911     -inf                   0                      -inf     0        -inf     0        
153.19499999999999    -34.174706330044508    173.07135869261367     -inf                   0                      -inf     0        -inf     0        
155.69                -35.405148416588858    -163.53870717244982    -inf                   0                      -inf     0        -inf     0        
158.185               -35.033439442694558    -164.38058404907335    -inf                   0                      -inf     0        -inf     0        
160.68000000000001    -35.098458350708228    -168.9610141983579     -inf                   0                      -inf     0        -inf     0        
163.17500000000001    -39.384591800363758    -167.52828871656544    -inf                   0                      -inf     0        -inf     0        
165.66999999999999    -38.498837349735297    -162.87002562116535    -inf                   0                      -inf     0        -inf     0        
168.16499999999999    -41.732174955584981    -176.94327769556702    -inf                   0                      -inf     0        -inf     0        
170.66                -39.69518822958976     175.40682262268101     -inf                   0                      -inf     0        -inf     0        
173.155               -35.205990155733168    -167.04551046676744    -inf                   0                      -inf     0        -inf     0        
175.65000000000001    -35.371165369256715    -142.37820758642107    -inf                   0                      -inf     0        -inf     0        
178.14500000000001    -37.107440456107796    -166.68779936854619    -inf                   0                      -inf     0        -inf     0        
180.63999999999999    -33.754924022651849    -154.88538588442631    -inf                   0                      -inf     0        -inf     0        
183.13499999999999    -34.162622526885009    -157.42047979955115    -inf                   0                      -inf     0        -inf     0        
185.63                -34.485882735443482    -170.00771549709057    -inf                   0                      -inf     0        -inf     0        
188.125               -35.48315812473529     -179.83837902962955    -inf                   0                      -inf     0        -inf     0        
190.62                -33.748615210088069    -158.02594541492422    -inf                   0                      -inf     0        -inf     0        
193.11500000000001    -36.069610810087227    -160.50195281005227    -inf                   0                      -inf     0        -inf     0        
195.61000000000001    -34.009179374108996    -146.09262528704912    -inf                   0                      -inf     0        -inf     0        
198.10499999999999    -37.676065671239975    -162.01756299902547    -inf                   0                      -inf     0        -inf     0        
200.59999999999999    -39.029269598498324    -139.00010661793399    -inf                   0                      -inf     0        -inf     0        
203.095               -33.890269404520176    -124.18487595468335    -inf                   0                      -inf     0        -inf     0        
205.59                -32.135318056824126    -151.5390688775488     -inf                   0                      -inf     0        -inf     0        
208.08500000000001    -35.123001063752433    -147.23282158402753    -inf                   0                      -inf     0        -inf     0        
210.58000000000001    -37.500938289133437    -145.98093084645936    -inf                   0                      -inf     0        -inf     0        
213.07499999999999    -34.134795371855688    -158.84562485471162    -inf                   0                      -inf     0        -inf     0        
215.56999999999999    -33.531615384637021    -153.39656113940495    -inf                   0                      -inf     0        -inf     0        
218.065               -35.750346982335437    -138.35159106707926    -inf                   0                      -inf     0        -inf     0        
220.56                -34.135544527508017    -145.24991491838614    -inf                   0                      -inf     0        -inf     0        
223.05500000000001    -34.192662583260642    -147.12271045506745    -inf                   0                      -inf     0        -inf     0        
225.55000000000001    -35.380207992796088    -139.8579152226942     -inf                   0                      -inf     0        -inf     0        
228.04499999999999    -38.07792046266578     -139.15135130130099    -inf                   0                      -inf     0        -inf     0        
230.53999999999999    -36.664138465314487    -140.09308369421362    -inf                   0                      -inf     0        -inf     0        
233.035               -37.14783587914394     -145.8901646700489     -inf                   0                      -inf     0        -inf     0        
235.53                -34.460719178423545    -144.14258664127891    -inf                   0                      -inf     0        -inf     0        
238.02500000000001    -38.107749961576928    -155.71932569414992    -inf                   0                      -inf     0        -inf     0        
240.52000000000001    -38.963699037830729    -160.82542867213564    -inf                   0                      -inf     0        -inf     0        
243.01499999999999    -36.207811131765951    -131.08854656843306    -inf                   0                      -inf     0        -inf     0        
245.50999999999999    -36.830558012764271    -145.02989393014471    -inf                   0                      -inf     0        -inf     0        
248.005               -36.851671740028038    -147.78817081592152    -inf                   0                      -inf     0        -inf     0        
250.5                 -38.064440115754607    -139.83081268905039    -inf                   0                      -inf     0        -inf     0        
252.995               -36.782285757775966    -150.91689319000912    -inf                   0                      -inf     0        -inf     0        
255.49000000000001    -36.078926652157676    -134.53795243680963    -inf                   0                      -inf     0        -inf     0        
257.98500000000001    -35.606847955883552    -124.00459381891228    -inf                   0                      -inf     0        -inf     0        
260.48000000000002    -36.699001848263663    -114.2336647129049     -inf                   0                      -inf     0        -inf     0        
262.97500000000002    -36.146433220711458    -108.45966040827872    -inf                   0                      -inf     0        -inf     0        
265.47000000000003    -35.610640229317269    -111.59348634856576    -inf                   0                      -inf     0        -inf     0        
267.96499999999997    -35.558009077580799    -124.42054185318641    -inf                   0                      -inf     0        -inf     0        
270.45999999999998    -35.531585077648501    -137.06288888533243    -inf                   0                      -inf     0        -inf     0        
272.95499999999998    -31.73091709357433     -113.69275948303267    -inf                   0                      -inf     0        -inf     0        
275.44999999999999    -34.694212772075666    -120.34303083927844    -inf                   0                      -inf     0        -inf     0        
277.94499999999999    -33.493809628809409    -119.58039649512234    -inf                   0                      -inf     0        -inf     0        
280.44                -36.642506208041809    -120.78630785587238    -inf                   0                      -inf     0        -inf     0        
282.935               -33.680364441706573    -134.68452302859714    -inf                   0                      -inf     0        -inf     0        
285.43000000000001    -36.609703677164362    -111.56018283772674    -inf                   0                      -inf     0        -inf     0        
287.92500000000001    -33.309791940482235    -107.89433026732694    -inf                   0                      -inf     0        -inf     0        
290.42000000000002    -32.974875754007648    -123.46355221181645    -inf                   0                      -inf     0        -inf     0        
292.91500000000002    -36.098975308319446    -143.85858112478047    -inf                   0                      -inf     0        -inf     0        
295.41000000000003    -34.542989635294347    -146.82152980674397    -inf                   0                      -inf     0        -inf     0        
297.90499999999997    -33.235537683731621    -115.64820520965901    -inf                   0                      -inf     0        -inf     0        
300.39999999999998    -34.712325159184012    -127.32006019933577    -inf                   0                      -inf     0        -inf     0        
302.89499999999998    -33.883983767823871    -114.8061915650126     -inf                   0                      -inf     0        -inf     0        
305.38999999999999    -35.001344485045479    -139.9623425357868     -inf                   0                      -inf     0        -inf     0        
307.88499999999999    -37.577422672495139    -107.75203389895825    -inf                   0                      -inf     0        -inf     0        
310.38                -33.660918733269611    -110.68030832488182    -inf                   0                      -inf     0        -inf     0        
312.875               -34.409148443910837    -114.47557799694592    -inf                   0                      -inf     0        -inf     0        
315.37                -34.288136019591434    -134.77577267280884    -inf                   0                      -inf     0        -inf     0        
317.86500000000001    -34.261292070554752    -126.43988908561359    -inf                   0                      -inf     0        -inf     0        
320.36000000000001    -33.882028085756289    -127.36994381274683    -inf                   0                      -inf     0        -inf     0        
322.85500000000002    -33.593768508213252    -107.61461993575108    -inf                   0                      -inf     0        -inf     0        
