! PocketVna 1.54  pocketvna.com
! Live measurements ((Reflection-S11) Linear 1000000-500000000/201 calibrated)
# MHz S DB R 50
! MHz                 dBS11                     <S11                     dBS21    <S21     dBS12                     <S12                     dBS22    <S22     
1                     0.036152918550404464      -0.59929336942213218     -inf                      0                        -inf     0        -inf     0        
3.4950000000000001    -1.6207291987115802       -16.17491956435935       -inf                      0                        -inf     0        -inf     0        
5.9900000000000002    0.23611228237078921       -2.2853158505438547      -inf                      0                        -inf     0        -inf     0        
8.4849999999999994    -0.29474087956249501      -0.21352013729118671     -inf                      0                        -inf     0        -inf     0        
10.98                 0.0096104127789649989     -1.1102204712924606      -inf                      0                        -inf     0        -inf     0        
13.475                0.1354860873290509        -0.93372240435070297     -inf                      0                        -inf     0        -inf     0        
15.970000000000001    0.013884427667399245      -0.303423605105275       -inf                      0                        -inf     0        -inf     0        
18.465                -0.046940242621322001     -0.095724687230406932    -inf                      0                        -inf     0        -inf     0        
20.960000000000001    0.024037264766083789      -0.49692427800115735     -inf                      0                        -inf     0        -inf     0        
23.454999999999998    -0.040670531704591298     -0.14148871629170617     -inf                      0                        -inf     0        -inf     0        
25.949999999999999    0.065429741228167623      -0.093887294728750223    -inf                      0                        -inf     0        -inf     0        
28.445                0.029283257248572975      0.27593501430526446      -inf                      0                        -inf     0        -inf     0        
30.940000000000001    0.034952377793407131      -0.35755920420770021     -inf                      0                        -inf     0        -inf     0        
33.435000000000002    -0.04668048208612384      -0.69969869132865048     -inf                      0                        -inf     0        -inf     0        
35.93                 0.012910658594692448      -0.5071040794528261      -inf                      0                        -inf     0        -inf     0        
38.424999999999997    -0.0026743537608194452    -0.70110470667092528     -inf                      0                        -inf     0        -inf     0        
40.920000000000002    -0.031802852396268032     -0.48971207173134229     -inf                      0                        -inf     0        -inf     0        
43.414999999999999    -0.0019048964657619085    -0.50702945731515958     -inf                      0                        -inf     0        -inf     0        
45.909999999999997    -0.077852386580275657     -0.80690870380188484     -inf                      0                        -inf     0        -inf     0        
48.405000000000001    0.010410116927277099      -0.24889741455824088     -inf                      0                        -inf     0        -inf     0        
50.899999999999999    -0.018286653059337247     -0.31302537241366873     -inf                      0                        -inf     0        -inf     0        
53.395000000000003    -0.050410476158643275     -0.46404226041714508     -inf                      0                        -inf     0        -inf     0        
55.890000000000001    0.035610000653013181      -0.90467895591394765     -inf                      0                        -inf     0        -inf     0        
58.384999999999998    -0.0014935667155442358    -0.97360058581089071     -inf                      0                        -inf     0        -inf     0        
60.880000000000003    -0.051443578144610071     -0.59395736464169335     -inf                      0                        -inf     0        -inf     0        
63.375                0.028863053050199289      -0.71846111408657176     -inf                      0                        -inf     0        -inf     0        
65.870000000000005    0.021193682627445296      -0.50521398508943449     -inf                      0                        -inf     0        -inf     0        
68.364999999999995    -0.02765661750715034      -0.25312200243816457     -inf                      0                        -inf     0        -inf     0        
70.859999999999999    -0.002242841752834381     -0.45777982320310523     -inf                      0                        -inf     0        -inf     0        
73.355000000000004    0.021683439902965743      -0.5916877990834688      -inf                      0                        -inf     0        -inf     0        
75.849999999999994    0.015850507927575419      -0.5583035424219388      -inf                      0                        -inf     0        -inf     0        
78.344999999999999    0.026162657022819218      -0.58811992127330459     -inf                      0                        -inf     0        -inf     0        
80.840000000000003    -0.087426443824318648     -0.67096023222209311     -inf                      0                        -inf     0        -inf     0        
83.334999999999994    -0.013371211230310596     -0.23553559459410969     -inf                      0                        -inf     0        -inf     0        
85.829999999999998    -0.03084233385615481      -0.84491888119272551     -inf                      0                        -inf     0        -inf     0        
88.325000000000003    -0.030800825911968741     -0.24306316948730197     -inf                      0                        -inf     0        -inf     0        
90.819999999999993    -0.077486326018464891     0.13721156005352364      -inf                      0                        -inf     0        -inf     0        
93.314999999999998    -0.067974234578896786     -0.13907158566926492     -inf                      0                        -inf     0        -inf     0        
95.810000000000002    -0.097885636450681379     -0.79983380137835502     -inf                      0                        -inf     0        -inf     0        
98.305000000000007    -0.016654904823257766     -0.61775603321456662     -inf                      0                        -inf     0        -inf     0        
100.8                 -0.042650938778766821     -0.48073328955990707     -inf                      0                        -inf     0        -inf     0        
103.295               -0.083118775674170753     -0.14916484160656196     -inf                      0                        -inf     0        -inf     0        
105.79000000000001    -0.073916164940898532     -0.42792661281481803     -inf                      0                        -inf     0        -inf     0        
108.285               -0.11038464258417707      -0.42512287759383366     -inf                      0                        -inf     0        -inf     0        
110.78                -0.053969787450020554     -0.56712728374386812     -inf                      0                        -inf     0        -inf     0        
113.27500000000001    -0.083654695280675914     -0.17616554074720606     -inf                      0                        -inf     0        -inf     0        
115.77                -0.17782455911679962      0.12101277720707873      -inf                      0                        -inf     0        -inf     0        
118.265               -0.085527187948518435     -0.54386850600394021     -inf                      0                        -inf     0        -inf     0        
120.76000000000001    -0.10425814749787712      -0.28450232644694823     -inf                      0                        -inf     0        -inf     0        
123.255               -0.0059540734153092911    -0.74780009708567663     -inf                      0                        -inf     0        -inf     0        
125.75                -0.049503458699414755     -0.703763381013364       -inf                      0                        -inf     0        -inf     0        
128.245               -0.067630951848257903     -0.86908995874928308     -inf                      0                        -inf     0        -inf     0        
130.74000000000001    -0.062173809773937438     -0.74961486493059715     -inf                      0                        -inf     0        -inf     0        
133.23500000000001    -0.0068272611867128599    -0.87408912125384086     -inf                      0                        -inf     0        -inf     0        
135.72999999999999    -0.043728527073169793     0.10521258714952057      -inf                      0                        -inf     0        -inf     0        
138.22499999999999    -0.045594170658995625     0.025522455791381293     -inf                      0                        -inf     0        -inf     0        
140.72                -0.091998651746889676     -0.46834317983702511     -inf                      0                        -inf     0        -inf     0        
143.215               -0.080397215719695977     -0.46585788866009537     -inf                      0                        -inf     0        -inf     0        
145.71000000000001    -0.078687692208353963     -0.51775592619256194     -inf                      0                        -inf     0        -inf     0        
148.20500000000001    -0.11946661808457429      -0.71991456955847399     -inf                      0                        -inf     0        -inf     0        
150.69999999999999    -0.089139837130190219     -0.33818193974598459     -inf                      0                        -inf     0        -inf     0        
153.19499999999999    -0.08267207390545589      -0.47945303036758008     -inf                      0                        -inf     0        -inf     0        
155.69                -0.15225284731130867      -0.60020918709501281     -inf                      0                        -inf     0        -inf     0        
158.185               -0.063317240632463093     -0.56178425996987957     -inf                      0                        -inf     0        -inf     0        
160.68000000000001    -0.10823902414599118      -0.84037898875197325     -inf                      0                        -inf     0        -inf     0        
163.17500000000001    -0.076268618565496701     -0.76773160891417902     -inf                      0                        -inf     0        -inf     0        
165.66999999999999    -0.040411042589082256     -0.98161754368546361     -inf                      0                        -inf     0        -inf     0        
168.16499999999999    -0.066613070172529029     -0.81268069556897693     -inf                      0                        -inf     0        -inf     0        
170.66                -0.089357329911611882     -0.75470372574654876     -inf                      0                        -inf     0        -inf     0        
173.155               -0.10166236536287539      -1.0296605595224064      -inf                      0                        -inf     0        -inf     0        
175.65000000000001    -0.14528648805149572      -1.0897416177498678      -inf                      0                        -inf     0        -inf     0        
178.14500000000001    -0.12261436010844998      -0.77854817590306613     -inf                      0                        -inf     0        -inf     0        
180.63999999999999    -0.17363941699280072      -0.7916555176109582      -inf                      0                        -inf     0        -inf     0        
183.13499999999999    -0.13896735686396786      -0.81878627265633053     -inf                      0                        -inf     0        -inf     0        
185.63                -0.16232696203066108      -1.1653528125659005      -inf                      0                        -inf     0        -inf     0        
188.125               -0.095244261992684681     -0.84170827201980236     -inf                      0                        -inf     0        -inf     0        
190.62                -0.12738046039657583      -0.91685572632124435     -inf                      0                        -inf     0        -inf     0        
193.11500000000001    -0.070893074743043266     -1.1898608109962663      -inf                      0                        -inf     0        -inf     0        
195.61000000000001    -0.11106320824417973      -1.024770709423082       -inf                      0                        -inf     0        -inf     0        
198.10499999999999    -0.08417471391464687      -0.61074324004287983     -inf                      0                        -inf     0        -inf     0        
200.59999999999999    -0.048840035141722936     -0.2664136043821132      -inf                      0                        -inf     0        -inf     0        
203.095               -0.047544575735781122     -0.26030447366223819     -inf                      0                        -inf     0        -inf     0        
205.59                0.022245560985428296      -0.75748743171043442     -inf                      0                        -inf     0        -inf     0        
208.08500000000001    -0.049344672508604553     -0.60131979780748346     -inf                      0                        -inf     0        -inf     0        
210.58000000000001    -0.036876881114666346     -0.70966919049423616     -inf                      0                        -inf     0        -inf     0        
213.07499999999999    -0.053427339210411595     -0.73429338059701776     -inf                      0                        -inf     0        -inf     0        
215.56999999999999    -0.030094743521981202     -1.3925625888183764      -inf                      0                        -inf     0        -inf     0        
218.065               -0.059732805934739952     -1.2030632834083772      -inf                      0                        -inf     0        -inf     0        
220.56                -0.028194188923849076     -0.97889904953884244     -inf                      0                        -inf     0        -inf     0        
223.05500000000001    -0.025341350822933012     -0.78215547800270613     -inf                      0                        -inf     0        -inf     0        
225.55000000000001    -0.091178994126976387     -0.63709614309471851     -inf                      0                        -inf     0        -inf     0        
228.04499999999999    -0.062018416202779508     -1.008549213332379       -inf                      0                        -inf     0        -inf     0        
230.53999999999999    -0.12280942565452108      -0.70938757554499798     -inf                      0                        -inf     0        -inf     0        
233.035               -0.076934049985952283     -0.75483973881936861     -inf                      0                        -inf     0        -inf     0        
235.53                -0.092357857187043257     -0.83761906340965853     -inf                      0                        -inf     0        -inf     0        
238.02500000000001    -0.041301025838896846     -1.1517153777559992      -inf                      0                        -inf     0        -inf     0        
240.52000000000001    -0.049351287411269096     -1.260837407430633       -inf                      0                        -inf     0        -inf     0        
243.01499999999999    -0.093226855097459732     -0.81561799731506401     -inf                      0                        -inf     0        -inf     0        
245.50999999999999    -0.10317588353141705      -0.95997398138525036     -inf                      0                        -inf     0        -inf     0        
248.005               -0.049794187462589651     -0.87135702953869776     -inf                      0                        -inf     0        -inf     0        
250.5                 -0.021083479783356278     -0.91601746390085848     -inf                      0                        -inf     0        -inf     0        
252.995               -0.020359433989070256     -0.66152179677036027     -inf                      0                        -inf     0        -inf     0        
255.49000000000001    -0.0572482092684189       -0.72862011249422753     -inf                      0                        -inf     0        -inf     0        
257.98500000000001    -0.033577383528883349     -0.87732002960563216     -inf                      0                        -inf     0        -inf     0        
260.48000000000002    -0.038182192972208998     -0.72441875073459949     -inf                      0                        -inf     0        -inf     0        
262.97500000000002    -0.012229165644679161     -0.40667992965164707     -inf                      0                        -inf     0        -inf     0        
265.47000000000003    -0.047773467312762441     -0.88913322843007336     -inf                      0                        -inf     0        -inf     0        
267.96499999999997    -0.049790931521040305     -0.95798192810552996     -inf                      0                        -inf     0        -inf     0        
270.45999999999998    -0.070447414274267497     -1.0223734835319196      -inf                      0                        -inf     0        -inf     0        
272.95499999999998    -0.056003964728078573     -1.1497785354495964      -inf                      0                        -inf     0        -inf     0        
275.44999999999999    -0.036872552592719793     -0.95637641928995254     -inf                      0                        -inf     0        -inf     0        
277.94499999999999    -0.034092299069212142     -1.1762200864308592      -inf                      0                        -inf     0        -inf     0        
280.44                -0.064371401999357064     -1.1885136866827524      -inf                      0                        -inf     0        -inf     0        
282.935               -0.076933730040257262     -0.8058722754199712      -inf                      0                        -inf     0        -inf     0        
285.43000000000001    -0.068596689750232864     -0.99883402686371292     -inf                      0                        -inf     0        -inf     0        
287.92500000000001    -0.092341521620574518     -0.94613590598778741     -inf                      0                        -inf     0        -inf     0        
290.42000000000002    -0.080860853282649275     -0.86108892339040288     -inf                      0                        -inf     0        -inf     0        
292.91500000000002    -0.10799584850263061      -0.87718641143291187     -inf                      0                        -inf     0        -inf     0        
295.41000000000003    -0.066957993517183956     -0.92141515352998193     -inf                      0                        -inf     0        -inf     0        
297.90499999999997    -0.085288094300562597     -0.86513685657242079     -inf                      0                        -inf     0        -inf     0        
300.39999999999998    -0.11317912623454521      -0.67161804407560255     -inf                      0                        -inf     0        -inf     0        
302.89499999999998    -0.12128693056156764      -0.74039873682839497     -inf                      0                        -inf     0        -inf     0        
