! PocketVna 1.54  pocketvna.com
! Live measurements ((Reflection-S11) Linear 1000000-500000000/201 calibrated)
# MHz S DB R 50
! MHz                 dBS11                     <S11                   dBS21    <S21     dBS12                     <S12                   dBS22    <S22     
1                     -0.020756301025395798     179.69817760219792     -inf                      0                      -inf     0        -inf     0        
3.4950000000000001    2.9062589577327991        155.49602741286452     -inf                      0                      -inf     0        -inf     0        
5.9900000000000002    2.6762263452603827        172.76991916867462     -inf                      0                      -inf     0        -inf     0        
8.4849999999999994    1.6483405131986921        -175.67497144381301    -inf                      0                      -inf     0        -inf     0        
10.98                 0.44223803547918439       177.85664384854152     -inf                      0                      -inf     0        -inf     0        
13.475                0.2525909816242779        176.19858850608455     -inf                      0                      -inf     0        -inf     0        
15.970000000000001    0.23445867217018368       178.63049102881189     -inf                      0                      -inf     0        -inf     0        
18.465                0.14497771282385027       -179.838091873823      -inf                      0                      -inf     0        -inf     0        
20.960000000000001    0.11992739788846052       179.49973671070885     -inf                      0                      -inf     0        -inf     0        
23.454999999999998    0.12183835320223563       179.59831635599994     -inf                      0                      -inf     0        -inf     0        
25.949999999999999    0.14547570392249221       179.99703792960355     -inf                      0                      -inf     0        -inf     0        
28.445                0.10262347613824065       179.78167281759008     -inf                      0                      -inf     0        -inf     0        
30.940000000000001    0.12829016583674277       179.3880789896711      -inf                      0                      -inf     0        -inf     0        
33.435000000000002    0.13003199810022786       179.74180275911957     -inf                      0                      -inf     0        -inf     0        
35.93                 0.086225282738228243      179.87667575537662     -inf                      0                      -inf     0        -inf     0        
38.424999999999997    0.13317956490967975       179.80069841989828     -inf                      0                      -inf     0        -inf     0        
40.920000000000002    0.090339449227249194      179.77461599598027     -inf                      0                      -inf     0        -inf     0        
43.414999999999999    0.097975961021955896      179.75240810672611     -inf                      0                      -inf     0        -inf     0        
45.909999999999997    0.10115426880159298       179.69865872754357     -inf                      0                      -inf     0        -inf     0        
48.405000000000001    0.088445426486320672      179.78951044386307     -inf                      0                      -inf     0        -inf     0        
50.899999999999999    0.098374652445045646      179.67893815769378     -inf                      0                      -inf     0        -inf     0        
53.395000000000003    0.10440759393283468       179.69171880017379     -inf                      0                      -inf     0        -inf     0        
55.890000000000001    0.12864485367813883       179.88489103101151     -inf                      0                      -inf     0        -inf     0        
58.384999999999998    0.09554558558288212       179.66583126313654     -inf                      0                      -inf     0        -inf     0        
60.880000000000003    0.11581713488127114       179.50217477482053     -inf                      0                      -inf     0        -inf     0        
63.375                0.099342293721719224      179.69546849187356     -inf                      0                      -inf     0        -inf     0        
65.870000000000005    0.12215992535225484       179.64040704018936     -inf                      0                      -inf     0        -inf     0        
68.364999999999995    0.098912776444976785      179.90033998617261     -inf                      0                      -inf     0        -inf     0        
70.859999999999999    0.10137786425021927       179.523356280108       -inf                      0                      -inf     0        -inf     0        
73.355000000000004    0.099995929115405516      179.80888275345612     -inf                      0                      -inf     0        -inf     0        
75.849999999999994    0.080519953652160858      179.83763128566838     -inf                      0                      -inf     0        -inf     0        
78.344999999999999    0.11126989063248939       179.75172556761856     -inf                      0                      -inf     0        -inf     0        
80.840000000000003    0.082500230707174382      179.57802244772742     -inf                      0                      -inf     0        -inf     0        
83.334999999999994    0.10984893121063585       179.81625884538659     -inf                      0                      -inf     0        -inf     0        
85.829999999999998    0.07363071719905355       179.93359483686072     -inf                      0                      -inf     0        -inf     0        
88.325000000000003    0.090586510886393357      179.80413045371677     -inf                      0                      -inf     0        -inf     0        
90.819999999999993    0.10681503786087677       179.92756334129263     -inf                      0                      -inf     0        -inf     0        
93.314999999999998    0.11178055731134773       179.67397856585467     -inf                      0                      -inf     0        -inf     0        
95.810000000000002    0.10604731588317234       179.55707019882072     -inf                      0                      -inf     0        -inf     0        
98.305000000000007    0.14697567360642905       179.42476516101061     -inf                      0                      -inf     0        -inf     0        
100.8                 0.099199353151814024      179.96497886423214     -inf                      0                      -inf     0        -inf     0        
103.295               0.10261415163139509       -179.88523464479553    -inf                      0                      -inf     0        -inf     0        
105.79000000000001    0.067961065494726497      179.83494490222114     -inf                      0                      -inf     0        -inf     0        
108.285               0.054956446332822873      -179.9865055609018     -inf                      0                      -inf     0        -inf     0        
110.78                0.10096323839288725       179.89220926530646     -inf                      0                      -inf     0        -inf     0        
113.27500000000001    0.088083341594468567      179.84879118855687     -inf                      0                      -inf     0        -inf     0        
115.77                0.075805138480001297      179.72812065864827     -inf                      0                      -inf     0        -inf     0        
118.265               0.040536980548603753      179.65072813801359     -inf                      0                      -inf     0        -inf     0        
120.76000000000001    0.077881251212363251      -179.97631433916314    -inf                      0                      -inf     0        -inf     0        
123.255               0.068057985003046884      179.54268945744946     -inf                      0                      -inf     0        -inf     0        
125.75                0.098965064565393834      179.65769250454341     -inf                      0                      -inf     0        -inf     0        
128.245               0.1059933848495723        179.27313306050777     -inf                      0                      -inf     0        -inf     0        
130.74000000000001    0.13270685688051853       179.6020417928508      -inf                      0                      -inf     0        -inf     0        
133.23500000000001    0.11276700416912097       179.47963718696937     -inf                      0                      -inf     0        -inf     0        
135.72999999999999    0.11260123683316796       179.61133412927339     -inf                      0                      -inf     0        -inf     0        
138.22499999999999    0.056287044310891321      179.87430388488735     -inf                      0                      -inf     0        -inf     0        
140.72                0.058272006787273539      179.87647768208757     -inf                      0                      -inf     0        -inf     0        
143.215               0.051438849336203948      179.85105104626322     -inf                      0                      -inf     0        -inf     0        
145.71000000000001    0.028412760795991296      179.91713402526446     -inf                      0                      -inf     0        -inf     0        
148.20500000000001    0.057554797486170865      179.87110983168552     -inf                      0                      -inf     0        -inf     0        
150.69999999999999    0.093694804248187213      179.72780792447492     -inf                      0                      -inf     0        -inf     0        
153.19499999999999    0.070479580976814823      179.89726793559248     -inf                      0                      -inf     0        -inf     0        
155.69                0.079794243024470787      -179.89918180747765    -inf                      0                      -inf     0        -inf     0        
158.185               0.020296427314272385      179.62548703683845     -inf                      0                      -inf     0        -inf     0        
160.68000000000001    0.072599435971141366      -179.89422233701907    -inf                      0                      -inf     0        -inf     0        
163.17500000000001    0.11717114277016717       -179.92706939750104    -inf                      0                      -inf     0        -inf     0        
165.66999999999999    0.048825914576366251      179.90544972226056     -inf                      0                      -inf     0        -inf     0        
168.16499999999999    0.12311101562837475       -179.83008837724182    -inf                      0                      -inf     0        -inf     0        
170.66                0.16484267547899581       179.92013761017725     -inf                      0                      -inf     0        -inf     0        
173.155               0.16684138676961516       -179.82008507842431    -inf                      0                      -inf     0        -inf     0        
175.65000000000001    0.065865050818141202      -179.62433218058226    -inf                      0                      -inf     0        -inf     0        
178.14500000000001    0.092904922834662174      -179.99497998688108    -inf                      0                      -inf     0        -inf     0        
180.63999999999999    0.10936388879241787       179.66550226319225     -inf                      0                      -inf     0        -inf     0        
183.13499999999999    0.070934592389180193      179.89581175901361     -inf                      0                      -inf     0        -inf     0        
185.63                0.06769256332699744       179.90384336115903     -inf                      0                      -inf     0        -inf     0        
188.125               0.10886816210246238       179.79186069716835     -inf                      0                      -inf     0        -inf     0        
190.62                0.12193348875250602       179.71487973216213     -inf                      0                      -inf     0        -inf     0        
193.11500000000001    0.12256981670486104       179.75315373815499     -inf                      0                      -inf     0        -inf     0        
195.61000000000001    0.062494946392528873      179.64751979749377     -inf                      0                      -inf     0        -inf     0        
198.10499999999999    0.024135340788726287      -179.78394451942151    -inf                      0                      -inf     0        -inf     0        
200.59999999999999    0.013284928352402199      -179.79504496512854    -inf                      0                      -inf     0        -inf     0        
203.095               -0.021050638928104531     -179.84891750814586    -inf                      0                      -inf     0        -inf     0        
205.59                -0.03255730429526562      -179.64997642565774    -inf                      0                      -inf     0        -inf     0        
208.08500000000001    -0.0093878061859791959    179.86071963845316     -inf                      0                      -inf     0        -inf     0        
210.58000000000001    0.061236049122351838      179.8530464824097      -inf                      0                      -inf     0        -inf     0        
213.07499999999999    0.03096363581019472       179.8440655756207      -inf                      0                      -inf     0        -inf     0        
215.56999999999999    0.060111095405952525      -179.7847790731937     -inf                      0                      -inf     0        -inf     0        
218.065               0.063224582258278747      179.84160291716586     -inf                      0                      -inf     0        -inf     0        
220.56                0.086242738428081112      -179.94954847753405    -inf                      0                      -inf     0        -inf     0        
223.05500000000001    0.075767210645522831      179.98173528207241     -inf                      0                      -inf     0        -inf     0        
225.55000000000001    0.057916695147010526      -179.45289177784602    -inf                      0                      -inf     0        -inf     0        
228.04499999999999    0.030939044263816974      179.93808391833505     -inf                      0                      -inf     0        -inf     0        
230.53999999999999    0.063111527300003772      179.68445186539304     -inf                      0                      -inf     0        -inf     0        
233.035               0.045119786266509053      179.87078880806271     -inf                      0                      -inf     0        -inf     0        
235.53                0.021270168595575116      179.99990441996081     -inf                      0                      -inf     0        -inf     0        
238.02500000000001    0.051937373441506368      -179.72249674754366    -inf                      0                      -inf     0        -inf     0        
240.52000000000001    0.065873654192595679      179.60850555630054     -inf                      0                      -inf     0        -inf     0        
243.01499999999999    0.066432703763500869      -179.88507091832318    -inf                      0                      -inf     0        -inf     0        
245.50999999999999    -0.009576918729319598     -179.85042993837638    -inf                      0                      -inf     0        -inf     0        
248.005               0.076216700622898828      179.88964724516532     -inf                      0                      -inf     0        -inf     0        
250.5                 0.036534359512391694      179.92098631978666     -inf                      0                      -inf     0        -inf     0        
252.995               0.023271553374484454      179.84415375774398     -inf                      0                      -inf     0        -inf     0        
255.49000000000001    0.058061163770679547      -179.84517228918469    -inf                      0                      -inf     0        -inf     0        
257.98500000000001    0.023809968818776311      179.79774986268518     -inf                      0                      -inf     0        -inf     0        
260.48000000000002    0.072939855105070395      -179.89343209735904    -inf                      0                      -inf     0        -inf     0        
262.97500000000002    0.094707663491731875      -179.92244883973754    -inf                      0                      -inf     0        -inf     0        
265.47000000000003    0.094690392380088972      179.89105722428923     -inf                      0                      -inf     0        -inf     0        
267.96499999999997    0.030298315960917407      -179.67019790958648    -inf                      0                      -inf     0        -inf     0        
270.45999999999998    0.068422917977010098      -179.71170935177997    -inf                      0                      -inf     0        -inf     0        
272.95499999999998    0.032548742482460445      179.95279187054348     -inf                      0                      -inf     0        -inf     0        
275.44999999999999    0.039152384122632701      179.91184120882028     -inf                      0                      -inf     0        -inf     0        
277.94499999999999    0.044608569165957734      179.99394191344624     -inf                      0                      -inf     0        -inf     0        
280.44                0.018029884470723068      -179.83474925719503    -inf                      0                      -inf     0        -inf     0        
282.935               0.0078772096558016244     179.79699712002659     -inf                      0                      -inf     0        -inf     0        
285.43000000000001    0.079516327457960653      -179.65834422053632    -inf                      0                      -inf     0        -inf     0        
287.92500000000001    0.054583748045636232      -179.91977030744144    -inf                      0                      -inf     0        -inf     0        
290.42000000000002    0.044549850023013933      -179.79470207283694    -inf                      0                      -inf     0        -inf     0        
292.91500000000002    0.12371781823107561       -179.92605433845549    -inf                      0                      -inf     0        -inf     0        
295.41000000000003    0.10991092381446037       -179.94526699267038    -inf                      0                      -inf     0        -inf     0        
297.90499999999997    -0.012199271307708009     179.85922318955247     -inf                      0                      -inf     0        -inf     0        
300.39999999999998    0.076775125784995138      -179.90272767517132    -inf                      0                      -inf     0        -inf     0        
302.89499999999998    0.04338009397231176       -179.70598724676233    -inf                      0                      -inf     0        -inf     0        
305.38999999999999    0.10477792042407391       179.76836588315157     -inf                      0                      -inf     0        -inf     0        
307.88499999999999    0.10067437786508091       179.14359673810671     -inf                      0                      -inf     0        -inf     0        
310.38                0.027504011706458411      -179.95486941031967    -inf                      0                      -inf     0        -inf     0        
