! PocketVna 1.57  pocketvna.com
! Live measurements ((Reflection-S11) Linear 10000000-1000000000/1000 non-calibrated)
# Hz S RI R 50
! Hz          ReS11                      ImS11                      ReS21    ImS21    ReS12                      ImS12                      ReS22    ImS22    
10000000      0.0016751587390899658      0.00075218081474304199     0                          0                          0        0        0        0        
10990990      0.0017210319638252258      0.0006432756781578064      0                          0                          0        0        0        0        
11981981      0.0017516538500785828      0.00054617971181869507     0                          0                          0        0        0        0        
12972972      0.0017867237329483032      0.00047285854816436768     0                          0                          0        0        0        0        
13963963      0.0018073171377182007      0.00037526339292526245     0                          0                          0        0        0        0        
14954954      0.0018333643674850464      0.00028148293495178223     0                          0                          0        0        0        0        
15945945      0.0018235892057418823      0.00021044164896011353     0                          0                          0        0        0        0        
16936936      0.0018376857042312622      0.00014537572860717773     0                          0                          0        0        0        0        
17927927      0.0018439143896102905      6.5565109252929688e-05     0                          0                          0        0        0        0        
18918918      0.0018498897552490234      4.9620866775512695e-06     0                          0                          0        0        0        0        
19909909      0.0018545910716056824      -7.5995922088623047e-05    0                          0                          0        0        0        0        
20900900      0.001833498477935791       -0.00011984258890151978    0                          0                          0        0        0        0        
21891891      0.0018385723233222961      -0.00017841905355453491    0                          0                          0        0        0        0        
22882882      0.0018164664506912231      -0.00024805963039398193    0                          0                          0        0        0        0        
23873873      0.0018047690391540527      -0.00029787421226501465    0                          0                          0        0        0        0        
24864864      0.0017944797873497009      -0.00035709887742996216    0                          0                          0        0        0        0        
25855855      0.0017852038145065308      -0.00040118396282196045    0                          0                          0        0        0        0        
26846846      0.001767285168170929       -0.00045151263475418091    0                          0                          0        0        0        0        
27837837      0.0017530545592308044      -0.00051530450582504272    0                          0                          0        0        0        0        
28828828      0.0017294138669967651      -0.00056524574756622314    0                          0                          0        0        0        0        
29819819      0.0017084479331970215      -0.00062090903520584106    0                          0                          0        0        0        0        
30810810      0.0016776919364929199      -0.00066728889942169189    0                          0                          0        0        0        0        
31801801      0.0016461759805679321      -0.00073248893022537231    0                          0                          0        0        0        0        
32792792      0.0016282647848129272      -0.00077747553586959839    0                          0                          0        0        0        0        
33783783      0.0016032233834266663      -0.00082054734230041504    0                          0                          0        0        0        0        
34774774      0.0015784427523612976      -0.00086083263158798218    0                          0                          0        0        0        0        
35765765      0.0015478208661079407      -0.00091078132390975952    0                          0                          0        0        0        0        
36756756      0.0015253275632858276      -0.00096172839403152466    0                          0                          0        0        0        0        
37747747      0.0014859288930892944      -0.00099833309650421143    0                          0                          0        0        0        0        
38738738      0.0014456510543823242      -0.0010420456528663635     0                          0                          0        0        0        0        
39729729      0.0014146491885185242      -0.0010808035731315613     0                          0                          0        0        0        0        
40720720      0.0013873204588890076      -0.0011104121804237366     0                          0                          0        0        0        0        
41711711      0.0013434812426567078      -0.0011548995971679688     0                          0                          0        0        0        0        
42702702      0.0013128519058227539      -0.0011960640549659729     0                          0                          0        0        0        0        
43693693      0.0012794286012649536      -0.0012339353561401367     0                          0                          0        0        0        0        
44684684      0.0012390166521072388      -0.0012702867388725281     0                          0                          0        0        0        0        
45675675      0.0012071207165718079      -0.0012967139482498169     0                          0                          0        0        0        0        
46666666      0.001180306077003479       -0.0013404339551925659     0                          0                          0        0        0        0        
47657657      0.0011354535818099976      -0.0013630464673042297     0                          0                          0        0        0        0        
48648648      0.0010989755392074585      -0.0014001578092575073     0                          0                          0        0        0        0        
49639639      0.0010571703314781189      -0.0014367625117301941     0                          0                          0        0        0        0        
50630630      0.0010120570659637451      -0.0014508664608001709     0                          0                          0        0        0        0        
51621621      0.00096350908279418945     -0.0014833882451057434     0                          0                          0        0        0        0        
52612612      0.00093377381563186646     -0.0015027076005935669     0                          0                          0        0        0        0        
53603603      0.0008912011981010437      -0.0015278756618499756     0                          0                          0        0        0        0        
54594594      0.00085867196321487427     -0.0015511214733123779     0                          0                          0        0        0        0        
55585585      0.00081330537796020508     -0.0015656128525733948     0                          0                          0        0        0        0        
56576576      0.00076793879270553589     -0.0015917867422103882     0                          0                          0        0        0        0        
57567567      0.0007289201021194458      -0.0016042441129684448     0                          0                          0        0        0        0        
58558558      0.00070706754922866821     -0.0016390681266784668     0                          0                          0        0        0        0        
59549549      0.00065178424119949341     -0.0016437619924545288     0                          0                          0        0        0        0        
60540540      0.00060832500457763672     -0.001675531268119812      0                          0                          0        0        0        0        
61531531      0.00057554244995117188     -0.0016762986779212952     0                          0                          0        0        0        0        
62522522      0.00052992254495620728     -0.0016962513327598572     0                          0                          0        0        0        0        
63513513      0.00049725919961929321     -0.0017048940062522888     0                          0                          0        0        0        0        
64504504      0.00045049190521240234     -0.0017178505659103394     0                          0                          0        0        0        0        
65495495      0.00041668862104415894     -0.0017275139689445496     0                          0                          0        0        0        0        
66486486      0.00037920475006103516     -0.001745179295539856      0                          0                          0        0        0        0        
67477477      0.00033370405435562134     -0.0017511472105979919     0                          0                          0        0        0        0        
68468468      0.00029711425304412842     -0.0017661452293395996     0                          0                          0        0        0        0        
69459459      0.00025200098752975464     -0.0017608106136322021     0                          0                          0        0        0        0        
70450450      0.00021018832921981812     -0.0017578825354576111     0                          0                          0        0        0        0        
71441441      0.00018083304166793823     -0.0017784684896469116     0                          0                          0        0        0        0        
72432432      0.00014601647853851318     -0.0017784684896469116     0                          0                          0        0        0        0        
73423423      0.00010598450899124146     -0.0017930865287780762     0                          0                          0        0        0        0        
74414414      6.3538551330566406e-05     -0.0017777085304260254     0                          0                          0        0        0        0        
75405405      3.4570693969726563e-05     -0.001791052520275116      0                          0                          0        0        0        0        
76396396      -9.5292925834655762e-06    -0.001794867217540741      0                          0                          0        0        0        0        
77387387      -4.854053258895874e-05     -0.0017891451716423035     0                          0                          0        0        0        0        
78378378      -7.9549849033355713e-05    -0.0017788484692573547     0                          0                          0        0        0        0        
79369369      -0.00010877847671508789    -0.0017866045236587524     0                          0                          0        0        0        0        
80360360      -0.00014881044626235962    -0.0017726272344589233     0                          0                          0        0        0        0        
81351351      -0.00018286705017089844    -0.0017824098467826843     0                          0                          0        0        0        0        
82342342      -0.00022543221712112427    -0.0017854645848274231     0                          0                          0        0        0        0        
83333333      -0.00025250762701034546    -0.0017751678824424744     0                          0                          0        0        0        0        
84324324      -0.00028389692306518555    -0.0017769485712051392     0                          0                          0        0        0        0        
85315315      -0.0003131181001663208     -0.001766398549079895      0                          0                          0        0        0        0        
86306306      -0.00035594403743743896    -0.0017576292157173157     0                          0                          0        0        0        0        
87297297      -0.00037895143032073975    -0.00175495445728302       0                          0                          0        0        0        0        
88288288      -0.00042711198329925537    -0.0017495006322860718     0                          0                          0        0        0        0        
89279279      -0.00044439733028411865    -0.0017436519265174866     0                          0                          0        0        0        0        
90270270      -0.00047565251588821411    -0.0017211586236953735     0                          0                          0        0        0        0        
91261261      -0.0005109831690788269     -0.0017210245132446289     0                          0                          0        0        0        0        
92252252      -0.00054593384265899658    -0.001713283360004425      0                          0                          0        0        0        0        
93243243      -0.00057578831911087036    -0.0017107352614402771     0                          0                          0        0        0        0        
94234234      -0.00059460103511810303    -0.0016909167170524597     0                          0                          0        0        0        0        
95225225      -0.00063424557447433472    -0.0016817674040794373     0                          0                          0        0        0        0        
96216216      -0.00065318495035171509    -0.0016774386167526245     0                          0                          0        0        0        0        
97207207      -0.00068952888250350952    -0.0016633346676826477     0                          0                          0        0        0        0        
98198198      -0.00071672350168228149    -0.001653425395488739      0                          0                          0        0        0        0        
99189189      -0.00074976682662963867    -0.0016449093818664551     0                          0                          0        0        0        0        
100180180     -0.00077467411756515503    -0.0016278848052024841     0                          0                          0        0        0        0        
101171171     -0.00079093873500823975    -0.0016226693987846375     0                          0                          0        0        0        0        
102162162     -0.00080529600381851196    -0.0015961155295372009     0                          0                          0        0        0        0        
103153153     -0.00084862858057022095    -0.0015884861350059509     0                          0                          0        0        0        0        
104144144     -0.0008671879768371582     -0.0015816241502761841     0                          0                          0        0        0        0        
105135135     -0.00090263783931732178    -0.0015502423048019409     0                          0                          0        0        0        0        
106126126     -0.00091445446014404297    -0.0015380382537841797     0                          0                          0        0        0        0        
107117117     -0.00094165652990341187    -0.0015244409441947937     0                          0                          0        0        0        0        
108108108     -0.0009641498327255249     -0.0015052482485771179     0                          0                          0        0        0        0        
109099099     -0.00098842382431030273    -0.0014827549457550049     0                          0                          0        0        0        0        
110090089     -0.0010131970047950745     -0.0014703050255775452     0                          0                          0        0        0        0        
111081080     -0.0010387450456619263     -0.0014415830373764038     0                          0                          0        0        0        0        
112072071     -0.0010650455951690674     -0.0014424696564674377     0                          0                          0        0        0        0        
113063062     -0.001093640923500061      -0.0014282390475273132     0                          0                          0        0        0        0        
114054053     -0.0010922402143478394     -0.0014042258262634277     0                          0                          0        0        0        0        
115045044     -0.0011251568794250488     -0.0013707950711250305     0                          0                          0        0        0        0        
116036035     -0.001140788197517395      -0.0013584792613983154     0                          0                          0        0        0        0        
117027026     -0.0011644214391708374     -0.0013546571135520935     0                          0                          0        0        0        0        
118018017     -0.001184120774269104      -0.0013214945793151855     0                          0                          0        0        0        0        
119009008     -0.0012115687131881714     -0.0013026818633079529     0                          0                          0        0        0        0        
119999999     -0.0012326687574386597     -0.0012829899787902832     0                          0                          0        0        0        0        
120990990     -0.0012461394071578979     -0.0012653246521949768     0                          0                          0        0        0        0        
121981981     -0.0012490600347518921     -0.0012313947081565857     0                          0                          0        0        0        0        
122972972     -0.0012798085808753967     -0.0012238994240760803     0                          0                          0        0        0        0        
123963963     -0.0012869313359260559     -0.0011918768286705017     0                          0                          0        0        0        0        
124954954     -0.0013150125741958618     -0.0011777728796005249     0                          0                          0        0        0        0        
125945945     -0.0013301372528076172     -0.001148417592048645      0                          0                          0        0        0        0        
126936936     -0.0013354718685150146     -0.0011367276310920715     0                          0                          0        0        0        0        
127927927     -0.001356564462184906      -0.0011076256632804871     0                          0                          0        0        0        0        
128918918     -0.0013647004961967468     -0.0010902062058448792     0                          0                          0        0        0        0        
129909909     -0.0013751238584518433     -0.001074962317943573      0                          0                          0        0        0        0        
130900900     -0.0013929083943367004     -0.0010504350066184998     0                          0                          0        0        0        0        
