! PocketVna 1.57  pocketvna.com
! Live measurements ((Reflection-S11) Linear 10000000-1000000000/1000 non-calibrated)
# Hz S RI R 50
! Hz          ReS11                      ImS11                      ReS21    ImS21    ReS12                      ImS12                      ReS22    ImS22    
10000000      -0.00043181329965591431    -5.1975250244140625e-05    0                          0                          0        0        0        0        
10990990      -0.00044605135917663574    -1.9319355487823486e-05    0                          0                          0        0        0        0        
11981981      -0.00043816864490509033    1.3336539268493652e-05     0                          0                          0        0        0        0        
12972972      -0.00043296068906784058    4.1298568248748779e-05     0                          0                          0        0        0        0        
13963963      -0.00043842196464538574    5.0827860832214355e-05     0                          0                          0        0        0        0        
14954954      -0.0004297792911529541     7.9810619354248047e-05     0                          0                          0        0        0        0        
15945945      -0.00041059404611587524    0.00010623782873153687     0                          0                          0        0        0        0        
16936936      -0.00040970742702484131    0.00011996179819107056     0                          0                          0        0        0        0        
17927927      -0.00040423870086669922    0.00013813376426696777     0                          0                          0        0        0        0        
18918918      -0.00039051473140716553    0.00016012042760848999     0                          0                          0        0        0        0        
19909909      -0.00037894397974014282    0.00017193704843521118     0                          0                          0        0        0        0        
20900900      -0.0003719627857208252     0.00019417703151702881     0                          0                          0        0        0        0        
21891891      -0.0003700554370880127     0.00021794438362121582     0                          0                          0        0        0        0        
22882882      -0.00035162270069122314    0.00022441893815994263     0                          0                          0        0        0        0        
23873873      -0.00034768879413604736    0.00024399161338806152     0                          0                          0        0        0        0        
24864864      -0.00032735615968704224    0.00025809556245803833     0                          0                          0        0        0        0        
25855855      -0.00032583624124526978    0.00026915222406387329     0                          0                          0        0        0        0        
26846846      -0.00031579285860061646    0.00028834491968154907     0                          0                          0        0        0        0        
27837837      -0.0003049895167350769     0.00028745830059051514     0                          0                          0        0        0        0        
28828828      -0.00028427690267562866    0.00030562281608581543     0                          0                          0        0        0        0        
29819819      -0.00028096884489059448    0.00032608211040496826     0                          0                          0        0        0        0        
30810810      -0.00026433169841766357    0.00034133344888687134     0                          0                          0        0        0        0        
31801801      -0.00025314837694168091    0.00036446750164031982     0                          0                          0        0        0        0        
32792792      -0.00023470818996429443    0.00036027282476425171     0                          0                          0        0        0        0        
33783783      -0.0002256929874420166     0.00037412345409393311     0                          0                          0        0        0        0        
34774774      -0.00022086501121520996    0.00038720667362213135     0                          0                          0        0        0        0        
35765765      -0.00019367039203643799    0.00039114803075790405     0                          0                          0        0        0        0        
36756756      -0.00018261373043060303    0.00039838999509811401     0                          0                          0        0        0        0        
37747747      -0.00016126781702041626    0.00040728598833084106     0                          0                          0        0        0        0        
38738738      -0.00014728307723999023    0.00041630864143371582     0                          0                          0        0        0        0        
39729729      -0.00013050436973571777    0.00042736530303955078     0                          0                          0        0        0        0        
40720720      -0.00012326240539550781    0.0004374086856842041      0                          0                          0        0        0        0        
41711711      -0.00010026246309280396    0.00043956190347671509     0                          0                          0        0        0        0        
42702702      -8.0436468124389648e-05    0.00044668465852737427     0                          0                          0        0        0        0        
43693693      -6.5699219703674316e-05    0.00045786798000335693     0                          0                          0        0        0        0        
44684684      -5.566328763961792e-05     0.00045735388994216919     0                          0                          0        0        0        0        
45675675      -3.3929944038391113e-05    0.00046358257532119751     0                          0                          0        0        0        0        
46666666      -1.6011297702789307e-05    0.00046993792057037354     0                          0                          0        0        0        0        
47657657      -1.3597309589385986e-05    0.00046206265687942505     0                          0                          0        0        0        0        
48648648      -9.6634030342102051e-06    0.00048162788152694702     0                          0                          0        0        0        0        
49639639      1.2710690498352051e-05     0.00047997385263442993     0                          0                          0        0        0        0        
50630630      3.4309923648834229e-05     0.00046853721141815186     0                          0                          0        0        0        0        
51621621      6.8873167037963867e-05     0.00047641992568969727     0                          0                          0        0        0        0        
52612612      5.0581991672515869e-05     0.00048620253801345825     0                          0                          0        0        0        0        
53603603      8.983910083770752e-05      0.00048302114009857178     0                          0                          0        0        0        0        
54594594      0.00010242313146591187     0.0004811212420463562      0                          0                          0        0        0        0        
55585585      0.00011551380157470703     0.00047960132360458374     0                          0                          0        0        0        0        
56576576      0.00012822449207305908     0.00048913061618804932     0                          0                          0        0        0        0        
57567567      0.00015275180339813232     0.0004710853099822998      0                          0                          0        0        0        0        
58558558      0.0001621544361114502      0.00047450512647628784     0                          0                          0        0        0        0        
59549549      0.00017397105693817139     0.00047655403614044189     0                          0                          0        0        0        0        
60540540      0.00019176304340362549     0.00047934055328369141     0                          0                          0        0        0        0        
61531531      0.00019493699073791504     0.00047603249549865723     0                          0                          0        0        0        0        
62522522      0.00022086501121520996     0.00047603994607925415     0                          0                          0        0        0        0        
63513513      0.00023750960826873779     0.00046155601739883423     0                          0                          0        0        0        0        
64504504      0.00024449825286865234     0.0004671439528465271      0                          0                          0        0        0        0        
65495495      0.00026889890432357788     0.00045621395111083984     0                          0                          0        0        0        0        
66486486      0.00027906894683837891     0.00045189261436462402     0                          0                          0        0        0        0        
67477477      0.00029037147760391235     0.00044617056846618652     0                          0                          0        0        0        0        
68468468      0.00030142813920974731     0.00043956935405731201     0                          0                          0        0        0        0        
69459459      0.00030918419361114502     0.00042647868394851685     0                          0                          0        0        0        0        
70450450      0.00033205747604370117     0.00042431801557540894     0                          0                          0        0        0        0        
71441441      0.00035289674997329712     0.00041262805461883545     0                          0                          0        0        0        0        
72432432      0.00034718215465545654     0.00040919333696365356     0                          0                          0        0        0        0        
73423423      0.00036789476871490479     0.00040614604949951172     0                          0                          0        0        0        0        
74414414      0.000382252037525177       0.00039572268724441528     0                          0                          0        0        0        0        
75405405      0.00038060545921325684     0.00038174539804458618     0                          0                          0        0        0        0        
76396396      0.0003999173641204834      0.00038441270589828491     0                          0                          0        0        0        0        
77387387      0.00041020661592483521     0.00036344677209854126     0                          0                          0        0        0        0        
78378378      0.00041860342025756836     0.0003581121563911438      0                          0                          0        0        0        0        
79369369      0.00042431801557540894     0.00035035610198974609     0                          0                          0        0        0        0        
80360360      0.00043283402919769287     0.00034057348966598511     0                          0                          0        0        0        0        
81351351      0.00045621395111083984     0.00033574551343917847     0                          0                          0        0        0        0        
82342342      0.00045748054981231689     0.00032480806112289429     0                          0                          0        0        0        0        
83333333      0.00047121196985244751     0.00031133741140365601     0                          0                          0        0        0        0        
84324324      0.000475272536277771       0.00030740350484848022     0                          0                          0        0        0        0        
85315315      0.00048366189002990723     0.00029584020376205444     0                          0                          0        0        0        0        
86306306      0.00049535185098648071     0.0002770349383354187      0                          0                          0        0        0        0        
87297297      0.00050120055675506592     0.00026787817478179932     0                          0                          0        0        0        0        
88288288      0.00050869584083557129     0.00026165693998336792     0                          0                          0        0        0        0        
89279279      0.00051441788673400879     0.00024767965078353882     0                          0                          0        0        0        0        
90270270      0.00051949173212051392     0.00023255497217178345     0                          0                          0        0        0        0        
91261261      0.00052598118782043457     0.00022163242101669312     0                          0                          0        0        0        0        
92252252      0.00053907185792922974     0.00020624697208404541     0                          0                          0        0        0        0        
93243243      0.0005367770791053772      0.00019328296184539795     0                          0                          0        0        0        0        
94234234      0.00055101513862609863     0.00018184632062911987     0                          0                          0        0        0        0        
95225225      0.00054860115051269531     0.00017295032739639282     0                          0                          0        0        0        0        
96216216      0.00056309252977371216     0.00016266107559204102     0                          0                          0        0        0        0        
97207207      0.00056562572717666626     0.00014538317918777466     0                          0                          0        0        0        0        
98198198      0.00055228918790817261     0.00012364983558654785     0                          0                          0        0        0        0        
99189189      0.00056689977645874023     0.00011412054300308228     0                          0                          0        0        0        0        
100180180     0.0005722343921661377      0.00012784451246261597     0                          0                          0        0        0        0        
101171171     0.00057782977819442749     0.0001009032130241394      0                          0                          0        0        0        0        
102162162     0.0005698278546333313      9.1873109340667725e-05     0                          0                          0        0        0        0        
103153153     0.0005684196949005127      7.7895820140838623e-05     0                          0                          0        0        0        0        
104144144     0.0005838051438331604      5.350261926651001e-05      0                          0                          0        0        0        0        
105135135     0.00058583170175552368     5.4769217967987061e-05     0                          0                          0        0        0        0        
106126126     0.00058151781558990479     3.2149255275726318e-05     0                          0                          0        0        0        0        
107117117     0.00059155374765396118     2.1986663341522217e-05     0                          0                          0        0        0        0        
108108108     0.00059142708778381348     4.0680170059204102e-06     0                          0                          0        0        0        0        
109099099     0.00058481842279434204     -1.5497207641601563e-05    0                          0                          0        0        0        0        
110090089     0.00059231370687484741     -2.0079314708709717e-05    0                          0                          0        0        0        0        
111081080     0.00058646500110626221     -3.5583972930908203e-05    0                          0                          0        0        0        0        
112072071     0.00058227777481079102     -4.8667192459106445e-05    0                          0                          0        0        0        0        
113063062     0.00058659166097640991     -6.023794412612915e-05     0                          0                          0        0        0        0        
114054053     0.00059028714895248413     -7.5869262218475342e-05    0                          0                          0        0        0        0        
115045044     0.00058736652135848999     -7.9803168773651123e-05    0                          0                          0        0        0        0        
116036035     0.00057998299598693848     -0.00010534375905990601    0                          0                          0        0        0        0        
117027026     0.00058304518461227417     -0.00012364983558654785    0                          0                          0        0        0        0        
118018017     0.00058240443468093872     -0.00012161582708358765    0                          0                          0        0        0        0        
119009008     0.00057325512170791626     -0.00014118105173110962    0                          0                          0        0        0        0        
119999999     0.0005741417407989502      -0.00015376508235931396    0                          0                          0        0        0        0        
120990990     0.00056677311658859253     -0.00017092376947402954    0                          0                          0        0        0        0        
121981981     0.00056333839893341064     -0.00018477439880371094    0                          0                          0        0        0        0        
122972972     0.00055533647537231445     -0.00019545108079910278    0                          0                          0        0        0        0        
123963963     0.00055152177810668945     -0.00020866096019744873    0                          0                          0        0        0        0        
124954954     0.00055380910634994507     -0.00022531300783157349    0                          0                          0        0        0        0        
125945945     0.00053945183753967285     -0.0002358555793762207     0                          0                          0        0        0        0        
126936936     0.00053602457046508789     -0.00025644153356552124    0                          0                          0        0        0        0        
127927927     0.0005520358681678772      -0.00025606155395507813    0                          0                          0        0        0        0        
128918918     0.0005343705415725708      -0.00027855485677719116    0                          0                          0        0        0        0        
129909909     0.00053487718105316162     -0.00029025226831436157    0                          0                          0        0        0        0        
130900900     0.0005266144871711731      -0.00029584020376205444    0                          0                          0        0        0        0        
