! PocketVna 1.57  pocketvna.com
! Live measurements ((Reflection-S11) Linear 10000000-1000000000/1000 non-calibrated)
# Hz S RI R 50
! Hz          ReS11                      ImS11                      ReS21    ImS21    ReS12                      ImS12                      ReS22    ImS22    
10000000      0.0061445236206054688      0.0022559091448783875      0                          0                          0        0        0        0        
10990990      0.0062736272811889648      0.0018800050020217896      0                          0                          0        0        0        0        
11981981      0.006371229887008667       0.0015266016125679016      0                          0                          0        0        0        0        
12972972      0.0064524337649345398      0.001202799379825592       0                          0                          0        0        0        0        
13963963      0.0064877644181251526      0.00088752061128616333     0                          0                          0        0        0        0        
14954954      0.006526648998260498       0.00058201700448989868     0                          0                          0        0        0        0        
15945945      0.0065345317125320435      0.00028415024280548096     0                          0                          0        0        0        0        
16936936      0.0065324902534484863      1.3723969459533691e-05     0                          0                          0        0        0        0        
17927927      0.0065218210220336914      -0.0002573356032371521     0                          0                          0        0        0        0        
18918918      0.0065013617277145386      -0.00048810988664627075    0                          0                          0        0        0        0        
19909909      0.006462976336479187       -0.00071495026350021362    0                          0                          0        0        0        0        
20900900      0.0064279064536094666      -0.00094699114561080933    0                          0                          0        0        0        0        
21891891      0.006375923752784729       -0.0011564195156097412     0                          0                          0        0        0        0        
22882882      0.0063263699412345886      -0.0013697892427444458     0                          0                          0        0        0        0        
23873873      0.0062627047300338745      -0.0015870854258537292     0                          0                          0        0        0        0        
24864864      0.0062048882246017456      -0.0017871111631393433     0                          0                          0        0        0        0        
25855855      0.006143130362033844       -0.0019701048731803894     0                          0                          0        0        0        0        
26846846      0.0060741230845451355      -0.002168603241443634      0                          0                          0        0        0        0        
27837837      0.0059901252388954163      -0.0023665949702262878     0                          0                          0        0        0        0        
28828828      0.0058969706296920776      -0.0025511085987091064     0                          0                          0        0        0        0        
29819819      0.0057895854115486145      -0.0027335956692695618     0                          0                          0        0        0        0        
30810810      0.0056663230061531067      -0.0029493719339370728     0                          0                          0        0        0        0        
31801801      0.005539625883102417       -0.0031607076525688171     0                          0                          0        0        0        0        
32792792      0.0054247453808784485      -0.0033294633030891418     0                          0                          0        0        0        0        
33783783      0.0053204149007797241      -0.0034888237714767456     0                          0                          0        0        0        0        
34774774      0.005205787718296051       -0.003644503653049469      0                          0                          0        0        0        0        
35765765      0.0050815045833587646      -0.0037963613867759705     0                          0                          0        0        0        0        
36756756      0.0049562081694602966      -0.0039493590593338013     0                          0                          0        0        0        0        
37747747      0.0048190951347351074      -0.0041060447692871094     0                          0                          0        0        0        0        
38738738      0.004680439829826355       -0.0042449459433555603     0                          0                          0        0        0        0        
39729729      0.0045421868562698364      -0.0043999850749969482     0                          0                          0        0        0        0        
40720720      0.0043863803148269653      -0.0045177862048149109     0                          0                          0        0        0        0        
41711711      0.0042408853769302368      -0.0046671032905578613     0                          0                          0        0        0        0        
42702702      0.0040829181671142578      -0.0047902390360832214     0                          0                          0        0        0        0        
43693693      0.003938429057598114       -0.0049024522304534912     0                          0                          0        0        0        0        
44684684      0.0037789493799209595      -0.0050353780388832092     0                          0                          0        0        0        0        
45675675      0.0036197155714035034      -0.0051520317792892456     0                          0                          0        0        0        0        
46666666      0.0034637898206710815      -0.0052351430058479309     0                          0                          0        0        0        0        
47657657      0.0033110454678535461      -0.005345955491065979      0                          0                          0        0        0        0        
48648648      0.003150545060634613       -0.0054405033588409424     0                          0                          0        0        0        0        
49639639      0.0029923319816589355      -0.005529455840587616      0                          0                          0        0        0        0        
50630630      0.0028383061289787292      -0.0056104063987731934     0                          0                          0        0        0        0        
51621621      0.0026690363883972168      -0.0057025402784347534     0                          0                          0        0        0        0        
52612612      0.0025118440389633179      -0.0057739615440368652     0                          0                          0        0        0        0        
53603603      0.0023582056164741516      -0.005848810076713562      0                          0                          0        0        0        0        
54594594      0.0021973252296447754      -0.0059049800038337708     0                          0                          0        0        0        0        
55585585      0.0020279213786125183      -0.0059704184532165527     0                          0                          0        0        0        0        
56576576      0.0018659010529518127      -0.0060129910707473755     0                          0                          0        0        0        0        
57567567      0.0017075613141059875      -0.0060725957155227661     0                          0                          0        0        0        0        
58558558      0.0015466809272766113      -0.006125330924987793      0                          0                          0        0        0        0        
59549549      0.0013838931918144226      -0.0061643496155738831     0                          0                          0        0        0        0        
60540540      0.0012245327234268188      -0.006207682192325592      0                          0                          0        0        0        0        
61531531      0.0010642856359481812      -0.006242118775844574      0                          0                          0        0        0        0        
62522522      0.00091788917779922485     -0.0062700733542442322     0                          0                          0        0        0        0        
63513513      0.00076171010732650757     -0.0062954947352409363     0                          0                          0        0        0        0        
64504504      0.00061201304197311401     -0.0063150599598884583     0                          0                          0        0        0        0        
65495495      0.00045684725046157837     -0.0063252300024032593     0                          0                          0        0        0        0        
66486486      0.00030206888914108276     -0.0063399672508239746     0                          0                          0        0        0        0        
67477477      0.00014486908912658691     -0.0063491165637969971     0                          0                          0        0        0        0        
68468468      7.6219439506530762e-06     -0.0063609331846237183     0                          0                          0        0        0        0        
69459459      -0.00013965368270874023    -0.006357632577419281      0                          0                          0        0        0        0        
70450450      -0.00028669089078903198    -0.0063571259379386902     0                          0                          0        0        0        0        
71441441      -0.00043054670095443726    -0.0063460692763328552     0                          0                          0        0        0        0        
72432432      -0.00058697909116744995    -0.0063496306538581848     0                          0                          0        0        0        0        
73423423      -0.00073782354593276978    -0.0063332319259643555     0                          0                          0        0        0        0        
74414414      -0.00086171925067901611    -0.0063167214393615723     0                          0                          0        0        0        0        
75405405      -0.0010071024298667908     -0.0062990486621856689     0                          0                          0        0        0        0        
76396396      -0.001148030161857605      -0.006277821958065033      0                          0                          0        0        0        0        
77387387      -0.0012786686420440674     -0.0062445327639579773     0                          0                          0        0        0        0        
78378378      -0.0014260783791542053     -0.0062268674373626709     0                          0                          0        0        0        0        
79369369      -0.0015597641468048096     -0.0061843022704124451     0                          0                          0        0        0        0        
80360360      -0.0016773194074630737     -0.0061599016189575195     0                          0                          0        0        0        0        
81351351      -0.0017990618944168091     -0.0061356201767921448     0                          0                          0        0        0        0        
82342342      -0.0019305869936943054     -0.0060816183686256409     0                          0                          0        0        0        0        
83333333      -0.0020516887307167053     -0.0060541704297065735     0                          0                          0        0        0        0        
84324324      -0.0021613612771034241     -0.0060043483972549438     0                          0                          0        0        0        0        
85315315      -0.0022791624069213867     -0.0059621632099151611     0                          0                          0        0        0        0        
86306306      -0.0024176761507987976     -0.0059091746807098389     0                          0                          0        0        0        0        
87297297      -0.0025208666920661926     -0.0058570727705955505     0                          0                          0        0        0        0        
88288288      -0.0026478171348571777     -0.0058125928044319153     0                          0                          0        0        0        0        
89279279      -0.0027531608939170837     -0.00576048344373703       0                          0                          0        0        0        0        
90270270      -0.0028700754046440125     -0.0056952983140945435     0                          0                          0        0        0        0        
91261261      -0.0029788613319396973     -0.0056402683258056641     0                          0                          0        0        0        0        
92252252      -0.0030943676829338074     -0.0055683404207229614     0                          0                          0        0        0        0        
93243243      -0.0031904429197311401     -0.0055027753114700317     0                          0                          0        0        0        0        
94234234      -0.0032895654439926147     -0.005443178117275238      0                          0                          0        0        0        0        
95225225      -0.0033992379903793335     -0.0053792521357536316     0                          0                          0        0        0        0        
96216216      -0.0034989938139915466     -0.0053129121661186218     0                          0                          0        0        0        0        
97207207      -0.0035923942923545837     -0.0052277743816375732     0                          0                          0        0        0        0        
98198198      -0.0036823675036430359     -0.0051690638065338135     0                          0                          0        0        0        0        
99189189      -0.0037734806537628174     -0.0050965026021003723     0                          0                          0        0        0        0        
100180180     -0.0038545578718185425     -0.00502825528383255       0                          0                          0        0        0        0        
101171171     -0.0039355084300041199     -0.0049523934721946716     0                          0                          0        0        0        0        
102162162     -0.0040187463164329529     -0.004874497652053833      0                          0                          0        0        0        0        
103153153     -0.0040937215089797974     -0.0047943070530891418     0                          0                          0        0        0        0        
104144144     -0.0041572600603103638     -0.0047209858894348145     0                          0                          0        0        0        0        
105135135     -0.0042411312460899353     -0.0046435967087745667     0                          0                          0        0        0        0        
106126126     -0.0043100118637084961     -0.0045579373836517334     0                          0                          0        0        0        0        
107117117     -0.004382699728012085      -0.0044742003083229065     0                          0                          0        0        0        0        
108108108     -0.0044623762369155884     -0.0043851137161254883     0                          0                          0        0        0        0        
109099099     -0.0045350641012191772     -0.0043082311749458313     0                          0                          0        0        0        0        
110090089     -0.0046029314398765564     -0.0042252540588378906     0                          0                          0        0        0        0        
111081080     -0.0046754851937294006     -0.004125744104385376      0                          0                          0        0        0        0        
112072071     -0.0047460198402404785     -0.0040366649627685547     0                          0                          0        0        0        0        
113063062     -0.0047918930649757385     -0.0039433836936950684     0                          0                          0        0        0        0        
114054053     -0.0048554316163063049     -0.003848835825920105      0                          0                          0        0        0        0        
115045044     -0.0049079135060310364     -0.0037502273917198181     0                          0                          0        0        0        0        
116036035     -0.0049647241830825806     -0.0036630555987358093     0                          0                          0        0        0        0        
117027026     -0.0050238072872161865     -0.003577016294002533      0                          0                          0        0        0        0        
118018017     -0.005071587860584259      -0.0034749731421470642     0                          0                          0        0        0        0        
119009008     -0.0051160752773284912     -0.0033646672964096069     0                          0                          0        0        0        0        
119999999     -0.0051710978150367737     -0.003266945481300354      0                          0                          0        0        0        0        
120990990     -0.0052094757556915283     -0.0031635016202926636     0                          0                          0        0        0        0        
121981981     -0.0052596703171730042     -0.0030640065670013428     0                          0                          0        0        0        0        
122972972     -0.0052951201796531677     -0.0029686912894248962     0                          0                          0        0        0        0        
123963963     -0.0053424015641212463     -0.0028652474284172058     0                          0                          0        0        0        0        
124954954     -0.0053708627820014954     -0.0027628242969512939     0                          0                          0        0        0        0        
125945945     -0.0054018720984458923     -0.0026605203747749329     0                          0                          0        0        0        0        
126936936     -0.0054359287023544312     -0.0025640726089477539     0                          0                          0        0        0        0        
127927927     -0.0054543539881706238     -0.0024645701050758362     0                          0                          0        0        0        0        
128918918     -0.005482308566570282      -0.0023598521947860718     0                          0                          0        0        0        0        
129909909     -0.005507349967956543      -0.0022795423865318298     0                          0                          0        0        0        0        
130900900     -0.0055241286754608154     -0.0021823272109031677     0                          0                          0        0        0        0        
