# Hz S RI R 50
! CMT, S5085, 16077402, 21.3.2/1
! Date: 11/17/2021 5:18:16 PM
! Data: Format (Calibration Info)
! Freq	S22:Re/Im(--)
1.00000000000E+06	-1.63557781762E-03	1.51276304220E-03
9.49900000000E+06	-4.91761672323E-03	-7.96727604699E-04
1.79980000000E+07	-6.00351927892E-03	9.29491883873E-04
2.64970000000E+07	-5.69914490087E-03	3.06412444892E-03
3.49960000000E+07	-4.43583400714E-03	4.86624507506E-03
4.34950000000E+07	-2.33151502166E-03	6.15775723855E-03
5.19940000000E+07	1.92587426293E-04	6.64831170798E-03
6.04930000000E+07	2.96235929057E-03	6.36790375282E-03
6.89920000000E+07	5.60128044999E-03	5.18949204615E-03
7.74910000000E+07	7.90416775998E-03	3.25403615339E-03
8.59900000000E+07	9.61079976598E-03	7.23284278347E-04
9.44890000000E+07	1.05673674591E-02	-2.16557498944E-03
1.02988000000E+08	1.06405608131E-02	-5.23924377129E-03
1.11487000000E+08	9.89831900601E-03	-8.15596474223E-03
1.19986000000E+08	8.39752370516E-03	-1.06410916674E-02
1.28485000000E+08	6.27747967006E-03	-1.24689900709E-02
1.36984000000E+08	3.73162030573E-03	-1.35721552168E-02
1.45483000000E+08	1.05785893203E-03	-1.37831506237E-02
1.53982000000E+08	-1.50735838838E-03	-1.31134796270E-02
1.62481000000E+08	-3.73714544484E-03	-1.16584051069E-02
1.70980000000E+08	-5.39140647354E-03	-9.51159523622E-03
1.79479000000E+08	-6.29486227998E-03	-6.93596453508E-03
1.87978000000E+08	-6.34345685074E-03	-4.18573606129E-03
1.96477000000E+08	-5.49485579317E-03	-1.44712749344E-03
2.04976000000E+08	-3.90535927572E-03	9.06982073214E-04
2.13475000000E+08	-1.61755682537E-03	2.66793614859E-03
2.21974000000E+08	1.07521792814E-03	3.60812450372E-03
2.30473000000E+08	3.90058531877E-03	3.67348744677E-03
2.38972000000E+08	6.59342506635E-03	2.89676197922E-03
2.47471000000E+08	8.88135554729E-03	1.34493190001E-03
2.55970000000E+08	1.05637931915E-02	-9.11168794821E-04
2.64469000000E+08	1.14780660801E-02	-3.61566367579E-03
2.72968000000E+08	1.14350032192E-02	-6.52162122033E-03
2.81467000000E+08	1.04949810324E-02	-9.38758161539E-03
2.89966000000E+08	8.70770231929E-03	-1.19033730890E-02
2.98465000000E+08	6.10636283504E-03	-1.38754034810E-02
3.06964000000E+08	3.03377247638E-03	-1.50822962247E-02
3.15463000000E+08	-3.75138032496E-04	-1.54268021825E-02
3.23962000000E+08	-3.74915258934E-03	-1.48509119321E-02
3.32461000000E+08	-6.88974748832E-03	-1.34478702705E-02
3.40960000000E+08	-9.48333370059E-03	-1.13096222729E-02
3.49459000000E+08	-1.13611737125E-02	-8.69363438686E-03
3.57958000000E+08	-1.24029679771E-02	-5.74252871127E-03
3.66457000000E+08	-1.25383933257E-02	-2.85368371380E-03
3.74956000000E+08	-1.18353684687E-02	-2.46779499626E-04
3.83455000000E+08	-1.04121565280E-02	1.81187415906E-03
3.91954000000E+08	-8.45639957457E-03	3.14757291977E-03
4.00453000000E+08	-6.23740873198E-03	3.65273438206E-03
4.08952000000E+08	-3.92898793339E-03	3.20973759660E-03
4.17451000000E+08	-1.88086675496E-03	1.87616766818E-03
4.25950000000E+08	-2.61637019390E-04	-2.74180635349E-04
4.34449000000E+08	6.30526199265E-04	-3.04062757140E-03
4.42948000000E+08	7.74585443773E-04	-6.13800091087E-03
4.51447000000E+08	-2.84362511088E-05	-9.38156062720E-03
4.59946000000E+08	-1.63607656259E-03	-1.24201400834E-02
4.68445000000E+08	-4.05145877067E-03	-1.50931735465E-02
4.76944000000E+08	-7.00965566298E-03	-1.71118498476E-02
4.85443000000E+08	-1.03318396821E-02	-1.83846501908E-02
4.93942000000E+08	-1.37470270945E-02	-1.88540626844E-02
5.02441000000E+08	-1.70506550325E-02	-1.84762136083E-02
5.10940000000E+08	-1.99025145219E-02	-1.72876892256E-02
5.19439000000E+08	-2.20674214543E-02	-1.54290835763E-02
5.27938000000E+08	-2.33175834141E-02	-1.32183110246E-02
5.36437000000E+08	-2.36721547951E-02	-1.09736523963E-02
5.44936000000E+08	-2.31597512028E-02	-8.84860273266E-03
5.53435000000E+08	-2.17737914152E-02	-7.17570484467E-03
5.61934000000E+08	-1.97570092983E-02	-6.11249949204E-03
5.70433000000E+08	-1.73468922342E-02	-5.81608224150E-03
5.78932000000E+08	-1.47430117058E-02	-6.30653065712E-03
5.87431000000E+08	-1.22016174960E-02	-7.69790634042E-03
5.95930000000E+08	-9.96586918539E-03	-9.77059539522E-03
6.04429000000E+08	-8.29347714714E-03	-1.24431454278E-02
6.12928000000E+08	-7.31317394253E-03	-1.54850394192E-02
6.21427000000E+08	-7.05154878065E-03	-1.86740565712E-02
6.29926000000E+08	-7.56827356702E-03	-2.16824773207E-02
6.38425000000E+08	-8.78215022589E-03	-2.43961942109E-02
6.46924000000E+08	-1.05037592539E-02	-2.64849756639E-02
6.55423000000E+08	-1.25629594139E-02	-2.77632679004E-02
6.63922000000E+08	-1.46499864190E-02	-2.82825578735E-02
6.72421000000E+08	-1.66362680581E-02	-2.79261080169E-02
6.80920000000E+08	-1.82106037954E-02	-2.67700484311E-02
6.89419000000E+08	-1.91651417857E-02	-2.50150737019E-02
6.97918000000E+08	-1.93456751393E-02	-2.28393320775E-02
7.06417000000E+08	-1.87261807110E-02	-2.04475918100E-02
7.14916000000E+08	-1.72878407765E-02	-1.81548194707E-02
7.23415000000E+08	-1.50248361498E-02	-1.61145895131E-02
7.31914000000E+08	-1.21540057142E-02	-1.46155581021E-02
7.40413000000E+08	-8.90343153360E-03	-1.37585518698E-02
7.48912000000E+08	-5.45844759433E-03	-1.36571982859E-02
7.57411000000E+08	-2.11880110998E-03	-1.43424870277E-02
7.65910000000E+08	9.43871888144E-04	-1.57087092101E-02
7.74409000000E+08	3.43864188208E-03	-1.76600278195E-02
7.82908000000E+08	5.17667136357E-03	-1.98976093778E-02
7.91407000000E+08	6.11132528557E-03	-2.22720994303E-02
7.99906000000E+08	6.26360730250E-03	-2.46013843646E-02
8.08405000000E+08	5.59601171877E-03	-2.65161060549E-02
8.16904000000E+08	4.26153630001E-03	-2.78249417074E-02
8.25403000000E+08	2.46437127494E-03	-2.84211654939E-02
8.33902000000E+08	4.10693690174E-04	-2.81304364330E-02
8.42401000000E+08	-1.67207098356E-03	-2.69803001177E-02
8.50900000000E+08	-3.48239296993E-03	-2.50275396089E-02
8.59399000000E+08	-4.82700426213E-03	-2.23887923920E-02
8.67898000000E+08	-5.60077971975E-03	-1.92271739219E-02
8.76397000000E+08	-5.59787148641E-03	-1.58828871458E-02
8.84896000000E+08	-4.93423690294E-03	-1.24716308286E-02
8.93395000000E+08	-3.56219885280E-03	-9.33832909884E-03
9.01894000000E+08	-1.60056710774E-03	-6.64042803189E-03
9.10393000000E+08	7.41598114617E-04	-4.56154223481E-03
9.18892000000E+08	3.23035217672E-03	-3.24043105057E-03
9.27391000000E+08	5.65939667421E-03	-2.68278306920E-03
9.35890000000E+08	7.77082764347E-03	-2.80932569294E-03
9.44389000000E+08	9.25431680542E-03	-3.61981648305E-03
9.52888000000E+08	1.00840869219E-02	-4.85759781997E-03
9.61387000000E+08	1.00924177555E-02	-6.33897941580E-03
9.69886000000E+08	9.19881049240E-03	-7.83498280869E-03
9.78385000000E+08	7.45057621651E-03	-9.07983887813E-03
9.86884000000E+08	4.98841907248E-03	-9.92239100895E-03
9.95383000000E+08	1.92039725398E-03	-1.01237876625E-02
1.00388200000E+09	-1.45837447853E-03	-9.61026426541E-03
1.01238100000E+09	-4.95715674219E-03	-8.37034685812E-03
1.02088000000E+09	-8.27226380453E-03	-6.34493480761E-03
1.02937900000E+09	-1.12510848824E-02	-3.66797159382E-03
1.03787800000E+09	-1.36256475404E-02	-5.19340543517E-04
1.04637700000E+09	-1.53381339022E-02	2.83497557601E-03
1.05487600000E+09	-1.62911958424E-02	6.28225612327E-03
1.06337500000E+09	-1.64810698186E-02	9.43253232894E-03
1.07187400000E+09	-1.60325023276E-02	1.21244208987E-02
1.08037300000E+09	-1.50439904564E-02	1.41873427738E-02
1.08887200000E+09	-1.37536823503E-02	1.54417329881E-02
1.09737100000E+09	-1.23055386248E-02	1.58323041014E-02
1.10587000000E+09	-1.10131991075E-02	1.54346279655E-02
1.11436900000E+09	-1.00630790033E-02	1.41686445054E-02
1.12286800000E+09	-9.69524973552E-03	1.23149932229E-02
1.13136700000E+09	-1.00390004884E-02	9.92756420752E-03
1.13986600000E+09	-1.10906410795E-02	7.33705089143E-03
1.14836500000E+09	-1.29603316843E-02	4.72623701496E-03
1.15686400000E+09	-1.55318282498E-02	2.38868639203E-03
1.16536300000E+09	-1.86824192972E-02	4.22598817829E-04
1.17386200000E+09	-2.22226545389E-02	-9.49894999848E-04
1.18236100000E+09	-2.59619967288E-02	-1.60764672457E-03
1.19086000000E+09	-2.96204084312E-02	-1.63454246131E-03
1.19935900000E+09	-3.29765735645E-02	-9.10608488617E-04
1.20785800000E+09	-3.58438477439E-02	3.11064409753E-04
1.21635700000E+09	-3.80333986315E-02	1.95248956246E-03
1.22485600000E+09	-3.94294835834E-02	3.81769456401E-03
1.23335500000E+09	-3.99780718312E-02	5.64648165612E-03
1.24185400000E+09	-3.97932191580E-02	7.29773508298E-03
1.25035300000E+09	-3.88770901659E-02	8.50781294823E-03
1.25885200000E+09	-3.73925842309E-02	9.15878777963E-03
1.26735100000E+09	-3.55069269652E-02	9.06192863556E-03
1.27585000000E+09	-3.34759025239E-02	8.22921467222E-03
1.28434900000E+09	-3.14171193954E-02	6.67912401188E-03
1.29284800000E+09	-2.95967424543E-02	4.48882515196E-03
1.30134700000E+09	-2.81855875614E-02	1.73495053362E-03
1.30984600000E+09	-2.73003296620E-02	-1.32739542537E-03
1.31834500000E+09	-2.69595486832E-02	-4.52947245843E-03
1.32684400000E+09	-2.72733551467E-02	-7.71015387762E-03
1.33534300000E+09	-2.81359437881E-02	-1.05328464701E-02
1.34384200000E+09	-2.94251896415E-02	-1.29562748901E-02
1.35234100000E+09	-3.10394524857E-02	-1.47577911916E-02
1.36084000000E+09	-3.27700454400E-02	-1.59030635157E-02
1.36933900000E+09	-3.43865373689E-02	-1.62926802178E-02
1.37783800000E+09	-3.57498830340E-02	-1.60303547937E-02
1.38633700000E+09	-3.66284320553E-02	-1.51491479342E-02
1.39483600000E+09	-3.69858559742E-02	-1.37951045983E-02
1.40333500000E+09	-3.66618828136E-02	-1.21222225759E-02
1.41183400000E+09	-3.55810276932E-02	-1.03570901293E-02
1.42033300000E+09	-3.38498104845E-02	-8.59249489754E-03
1.42883200000E+09	-3.15037499875E-02	-7.09067268997E-03
1.43733100000E+09	-2.86513482310E-02	-5.91164502508E-03
1.44583000000E+09	-2.54860143643E-02	-5.23180813817E-03
1.45432900000E+09	-2.21000950708E-02	-5.09189682577E-03
1.46282800000E+09	-1.88132408945E-02	-5.40786100878E-03
1.47132700000E+09	-1.57614615763E-02	-6.21118484218E-03
1.47982600000E+09	-1.29939623736E-02	-7.37252892106E-03
1.48832500000E+09	-1.07873290301E-02	-8.71572891877E-03
1.49682400000E+09	-9.09071859528E-03	-1.01855157020E-02
1.50532300000E+09	-7.98856626247E-03	-1.15353343077E-02
1.51382200000E+09	-7.43563717926E-03	-1.26119676062E-02
1.52232100000E+09	-7.33004580090E-03	-1.33203481532E-02
1.53082000000E+09	-7.55434097998E-03	-1.34582031109E-02
1.53931900000E+09	-8.02482589358E-03	-1.30680366575E-02
1.54781800000E+09	-8.56775268466E-03	-1.20216077488E-02
1.55631700000E+09	-9.04053075173E-03	-1.04337505559E-02
1.56481600000E+09	-9.28907488889E-03	-8.30378597157E-03
1.57331500000E+09	-9.16576915726E-03	-5.75951275857E-03
1.58181400000E+09	-8.66506356783E-03	-2.97577558833E-03
1.59031300000E+09	-7.76050099006E-03	-6.91375718113E-05
1.59881200000E+09	-6.38602795295E-03	2.78406551214E-03
1.60731100000E+09	-4.68618122940E-03	5.43888132576E-03
1.61581000000E+09	-2.67212878891E-03	7.80060155146E-03
1.62430900000E+09	-5.47118724769E-04	9.75104111530E-03
1.63280800000E+09	1.58681184220E-03	1.12063777240E-02
1.64130700000E+09	3.54271000564E-03	1.21649505199E-02
1.64980600000E+09	5.16805232338E-03	1.26603540959E-02
1.65830500000E+09	6.35347779517E-03	1.27640721536E-02
1.66680400000E+09	7.00247225622E-03	1.25969518898E-02
1.67530300000E+09	7.08548336035E-03	1.22744645582E-02
1.68380200000E+09	6.51421848602E-03	1.19652353607E-02
1.69230100000E+09	5.32268461693E-03	1.17660566671E-02
1.70080000000E+09	3.65074014460E-03	1.18266431580E-02
1.70929900000E+09	1.53867093437E-03	1.22325912627E-02
1.71779800000E+09	-9.01807339043E-04	1.30981016546E-02
1.72629700000E+09	-3.49395974417E-03	1.43838494047E-02
1.73479600000E+09	-6.06114851346E-03	1.61008477844E-02
1.74329500000E+09	-8.48643614059E-03	1.82169229637E-02
1.75179400000E+09	-1.06925018868E-02	2.06019865411E-02
1.76029300000E+09	-1.24558576894E-02	2.31600079983E-02
1.76879200000E+09	-1.38462185588E-02	2.57269828411E-02
1.77729100000E+09	-1.47474389495E-02	2.81940112642E-02
1.78579000000E+09	-1.52352617588E-02	3.03335580278E-02
1.79428900000E+09	-1.53935822720E-02	3.20501910319E-02
1.80278800000E+09	-1.52543440115E-02	3.32186457526E-02
1.81128700000E+09	-1.50335159915E-02	3.37719562115E-02
1.81978600000E+09	-1.48336122220E-02	3.37326075914E-02
1.82828500000E+09	-1.47433732749E-02	3.30936421530E-02
1.83678400000E+09	-1.49857587821E-02	3.18809148105E-02
1.84528300000E+09	-1.55880763816E-02	3.03205077691E-02
1.85378200000E+09	-1.67174208867E-02	2.84235805573E-02
1.86228100000E+09	-1.83269110500E-02	2.63684661064E-02
1.87078000000E+09	-2.04503878693E-02	2.43455606919E-02
1.87927900000E+09	-2.30174628025E-02	2.24258604808E-02
1.88777800000E+09	-2.59057578318E-02	2.08335226410E-02
1.89627700000E+09	-2.89297219397E-02	1.96113218470E-02
1.90477600000E+09	-3.19883842977E-02	1.88233483404E-02
1.91327500000E+09	-3.49098792824E-02	1.85294126401E-02
1.92177400000E+09	-3.74556745019E-02	1.86098450831E-02
1.93027300000E+09	-3.95855429011E-02	1.90790986832E-02
1.93877200000E+09	-4.10641806639E-02	1.96384379227E-02
1.94727100000E+09	-4.18637997237E-02	2.03577313968E-02
1.95577000000E+09	-4.19348010417E-02	2.09320493111E-02
1.96426900000E+09	-4.13390074001E-02	2.12384082422E-02
1.97276800000E+09	-4.01000286561E-02	2.10852082233E-02
1.98126700000E+09	-3.84111478135E-02	2.03610710546E-02
1.98976600000E+09	-3.64125766308E-02	1.89995832928E-02
1.99826500000E+09	-3.42677199201E-02	1.69199625517E-02
2.00676400000E+09	-3.21548034143E-02	1.42284481172E-02
2.01526300000E+09	-3.02808402759E-02	1.09518301837E-02
2.02376200000E+09	-2.88163308539E-02	7.19379790731E-03
2.03226100000E+09	-2.78236747090E-02	3.09976834257E-03
2.04076000000E+09	-2.73599485804E-02	-9.96447823097E-04
2.04925900000E+09	-2.74527396953E-02	-4.92800510775E-03
2.05775800000E+09	-2.79888121014E-02	-8.55295314750E-03
2.06625700000E+09	-2.89251146310E-02	-1.16354728673E-02
2.07475600000E+09	-3.00024167409E-02	-1.40401248613E-02
2.08325500000E+09	-3.11409136133E-02	-1.57084128041E-02
2.09175400000E+09	-3.20457779805E-02	-1.66144377843E-02
2.10025300000E+09	-3.25632839742E-02	-1.68031293258E-02
2.10875200000E+09	-3.24780591373E-02	-1.63195699682E-02
2.11725100000E+09	-3.16672958039E-02	-1.54126617460E-02
2.12575000000E+09	-3.00694804500E-02	-1.42273181068E-02
2.13424900000E+09	-2.75751902478E-02	-1.29637463550E-02
2.14274800000E+09	-2.43362528635E-02	-1.18733126701E-02
2.15124700000E+09	-2.04009249401E-02	-1.11143250630E-02
2.15974600000E+09	-1.59635345422E-02	-1.08856124487E-02
2.16824500000E+09	-1.12597693917E-02	-1.12137797861E-02
2.17674400000E+09	-6.52481048309E-03	-1.22148699728E-02
2.18524300000E+09	-1.99953011787E-03	-1.37850624855E-02
2.19374200000E+09	2.05395544111E-03	-1.58797472531E-02
2.20224100000E+09	5.45526203976E-03	-1.82870335218E-02
2.21074000000E+09	8.06147893752E-03	-2.09128211353E-02
2.21923900000E+09	9.85795684078E-03	-2.33522847616E-02
2.22773800000E+09	1.08074888406E-02	-2.54293544922E-02
2.23623700000E+09	1.10216523518E-02	-2.68696904570E-02
2.24473600000E+09	1.05519227770E-02	-2.75173194897E-02
2.25323500000E+09	9.73165954700E-03	-2.72078254293E-02
2.26173400000E+09	8.73510555017E-03	-2.58186320250E-02
2.27023300000E+09	7.79649027316E-03	-2.34574168912E-02
2.27873200000E+09	7.29849871069E-03	-2.01094790095E-02
2.28723100000E+09	7.41466803948E-03	-1.59901689182E-02
2.29573000000E+09	8.25634498821E-03	-1.13559452773E-02
2.30422900000E+09	1.00441162931E-02	-6.43019435615E-03
2.31272800000E+09	1.26599655688E-02	-1.54249834624E-03
2.32122700000E+09	1.60771262664E-02	3.02194244024E-03
2.32972600000E+09	2.01089661112E-02	6.97282410779E-03
2.33822500000E+09	2.45455800940E-02	1.01015105285E-02
2.34672400000E+09	2.90621314967E-02	1.22772944675E-02
2.35522300000E+09	3.33986300264E-02	1.34813538601E-02
2.36372200000E+09	3.71856930306E-02	1.36947947141E-02
2.37222100000E+09	4.01641250663E-02	1.31270436110E-02
2.38072000000E+09	4.21031087170E-02	1.19576584368E-02
2.38921900000E+09	4.28483505366E-02	1.04296735080E-02
2.39771800000E+09	4.22695623835E-02	8.82867728465E-03
2.40621700000E+09	4.05060473261E-02	7.52693006657E-03
2.41471600000E+09	3.76474889424E-02	6.80808049402E-03
2.42321500000E+09	3.38372483054E-02	6.82062959843E-03
2.43171400000E+09	2.94968620060E-02	7.82031064446E-03
2.44021300000E+09	2.48984222074E-02	9.79158371342E-03
2.44871200000E+09	2.04160430768E-02	1.27878606476E-02
2.45721100000E+09	1.63326318737E-02	1.66154354912E-02
2.46571000000E+09	1.29515036319E-02	2.10782849150E-02
2.47420900000E+09	1.05019684494E-02	2.58810740431E-02
2.48270800000E+09	8.99827845952E-03	3.07345912086E-02
2.49120700000E+09	8.57913337418E-03	3.52210964249E-02
2.49970600000E+09	8.99909970847E-03	3.90023199347E-02
2.50820500000E+09	1.01424091327E-02	4.18437459105E-02
2.51670400000E+09	1.16116682633E-02	4.35066609123E-02
2.52520300000E+09	1.32386020885E-02	4.38955591991E-02
2.53370200000E+09	1.45819189045E-02	4.29467947791E-02
2.54220100000E+09	1.53099112182E-02	4.08174522320E-02
2.55070000000E+09	1.51411347360E-02	3.76988109424E-02
2.55919900000E+09	1.39009885216E-02	3.38992480436E-02
2.56769800000E+09	1.14604974293E-02	2.97069809236E-02
2.57619700000E+09	7.84872813995E-03	2.55669851945E-02
2.58469600000E+09	3.09817068480E-03	2.18340411865E-02
2.59319500000E+09	-2.42160473416E-03	1.87603731386E-02
2.60169400000E+09	-8.52958813078E-03	1.66470699402E-02
2.61019300000E+09	-1.47749402794E-02	1.56205001837E-02
2.61869200000E+09	-2.08535882760E-02	1.57055832422E-02
2.62719100000E+09	-2.62451955345E-02	1.67804669181E-02
2.63569000000E+09	-3.07196767702E-02	1.86540975629E-02
2.64418900000E+09	-3.39653418658E-02	2.10211730717E-02
2.65268800000E+09	-3.58006834451E-02	2.35958852210E-02
2.66118700000E+09	-3.61872389237E-02	2.59232134669E-02
2.66968600000E+09	-3.52311642218E-02	2.76074392875E-02
2.67818500000E+09	-3.31201336236E-02	2.83392513345E-02
2.68668400000E+09	-3.01597771957E-02	2.77627540875E-02
2.69518300000E+09	-2.68202121895E-02	2.57215609246E-02
2.70368200000E+09	-2.33081429248E-02	2.22880789182E-02
2.71218100000E+09	-2.01889996917E-02	1.74380183309E-02
2.72068000000E+09	-1.77167123213E-02	1.14655351751E-02
2.72917900000E+09	-1.61940468754E-02	4.65849038038E-03
2.73767800000E+09	-1.58645694477E-02	-2.52185107053E-03
2.74617700000E+09	-1.66601560470E-02	-9.69457840740E-03
2.75467600000E+09	-1.85811486993E-02	-1.63253688383E-02
2.76317500000E+09	-2.14058035725E-02	-2.21419997821E-02
2.77167400000E+09	-2.48315882820E-02	-2.67429524248E-02
2.78017300000E+09	-2.85060143761E-02	-2.99655717755E-02
2.78867200000E+09	-3.19160568226E-02	-3.17788031005E-02
2.79717100000E+09	-3.47508265493E-02	-3.21255879973E-02
2.80567000000E+09	-3.65467700476E-02	-3.12495233596E-02
2.81416900000E+09	-3.69352219979E-02	-2.94751545003E-02
2.82266800000E+09	-3.57952185205E-02	-2.71932135281E-02
2.83116700000E+09	-3.30563598097E-02	-2.48478239396E-02
2.83966600000E+09	-2.88382946000E-02	-2.28347961406E-02
2.84816500000E+09	-2.33125045214E-02	-2.16157462777E-02
2.85666400000E+09	-1.68029393899E-02	-2.14685821658E-02
2.86516300000E+09	-9.77259201717E-03	-2.25879276859E-02
2.87366200000E+09	-2.67925639761E-03	-2.50108427133E-02
2.88216100000E+09	4.02474199620E-03	-2.87121747158E-02
2.89066000000E+09	9.88341611442E-03	-3.34529598131E-02
2.89915900000E+09	1.45340620644E-02	-3.88831188345E-02
2.90765800000E+09	1.77216668704E-02	-4.45429039031E-02
2.91615700000E+09	1.94091008500E-02	-4.99867946595E-02
2.92465600000E+09	1.95670935263E-02	-5.47523145988E-02
2.93315500000E+09	1.84657272807E-02	-5.83537666944E-02
2.94165400000E+09	1.64543980739E-02	-6.04831542516E-02
2.95015300000E+09	1.39841833460E-02	-6.08857394465E-02
2.95865200000E+09	1.14318424204E-02	-5.94150617448E-02
2.96715100000E+09	9.41428622817E-03	-5.62042099270E-02
2.97565000000E+09	8.29146055398E-03	-5.14544169486E-02
2.98414900000E+09	8.48439354023E-03	-4.55846694581E-02
2.99264800000E+09	1.01763288922E-02	-3.90272062932E-02
