# Hz S RI R 50
! CMT, S5085, 16077402, 21.3.2/1
! Date: 11/17/2021 5:17:33 PM
! Data: Format (Calibration Info)
! Freq	S22:Re/Im(--)
1.00000000000E+06	9.64132326652E-01	-9.75444223409E-02
9.49900000000E+06	8.68610300538E-01	-3.64704258198E-01
1.79980000000E+07	7.27118248242E-01	-6.17514123705E-01
2.64970000000E+07	5.00791329495E-01	-8.25829756882E-01
3.49960000000E+07	2.15245313948E-01	-9.56921703167E-01
4.34950000000E+07	-1.05738485163E-01	-9.90454370345E-01
5.19940000000E+07	-4.28693686736E-01	-9.14140148370E-01
6.04930000000E+07	-7.13157153514E-01	-7.27727722387E-01
6.89920000000E+07	-9.17392731040E-01	-4.50092122205E-01
7.74910000000E+07	-1.01099322649E+00	-1.18595541866E-01
8.59900000000E+07	-9.83129282878E-01	2.20056759875E-01
9.44890000000E+07	-8.44956314807E-01	5.21236439070E-01
1.02988000000E+08	-6.21923529099E-01	7.51583659055E-01
1.11487000000E+08	-3.47589800237E-01	8.95979725972E-01
1.19986000000E+08	-5.11099354262E-02	9.47594538140E-01
1.28485000000E+08	2.40971735528E-01	9.10524213868E-01
1.36984000000E+08	5.06373116906E-01	7.92040246539E-01
1.45483000000E+08	7.25787562647E-01	6.00844352879E-01
1.53982000000E+08	8.82328629286E-01	3.51979410132E-01
1.62481000000E+08	9.59130615612E-01	6.24626142839E-02
1.70980000000E+08	9.43671151093E-01	-2.45103405651E-01
1.79479000000E+08	8.27249137623E-01	-5.38242014718E-01
1.87978000000E+08	6.16864241543E-01	-7.83621085992E-01
1.96477000000E+08	3.31475680886E-01	-9.47099565731E-01
2.04976000000E+08	4.87481687073E-03	-1.00415975493E+00
2.13475000000E+08	-3.20718084165E-01	-9.46414726883E-01
2.21974000000E+08	-6.04041841471E-01	-7.84704375738E-01
2.30473000000E+08	-8.13412823485E-01	-5.43225364257E-01
2.38972000000E+08	-9.31601505401E-01	-2.54211988995E-01
2.47471000000E+08	-9.52818629322E-01	5.06239934964E-02
2.55970000000E+08	-8.81129471733E-01	3.41233081642E-01
2.64469000000E+08	-7.28397773866E-01	5.93915743098E-01
2.72968000000E+08	-5.08772770167E-01	7.89273012833E-01
2.81467000000E+08	-2.40071326387E-01	9.11042655296E-01
2.89966000000E+08	5.64564909687E-02	9.47368646705E-01
2.98465000000E+08	3.55006951554E-01	8.90251175826E-01
3.06964000000E+08	6.26625915996E-01	7.39026192857E-01
3.15463000000E+08	8.39438125108E-01	5.03070007083E-01
3.23962000000E+08	9.64649312211E-01	2.04711559232E-01
3.32461000000E+08	9.82524213830E-01	-1.22164495289E-01
3.40960000000E+08	8.88712787007E-01	-4.36729855397E-01
3.49459000000E+08	6.94980363157E-01	-6.99176504372E-01
3.57958000000E+08	4.28888758704E-01	-8.78596973363E-01
3.66457000000E+08	1.25842123959E-01	-9.59455885654E-01
3.74956000000E+08	-1.78962011607E-01	-9.40836213953E-01
3.83455000000E+08	-4.56201021293E-01	-8.31366953197E-01
3.91954000000E+08	-6.83231356118E-01	-6.47186573241E-01
4.00453000000E+08	-8.44323112568E-01	-4.07891145926E-01
4.08952000000E+08	-9.28081489936E-01	-1.33010905290E-01
4.17451000000E+08	-9.27724987271E-01	1.55290027178E-01
4.25950000000E+08	-8.41370679910E-01	4.34759994722E-01
4.34449000000E+08	-6.71125087879E-01	6.80464911434E-01
4.42948000000E+08	-4.26503176192E-01	8.65646560133E-01
4.51447000000E+08	-1.26599748246E-01	9.65670559901E-01
4.59946000000E+08	1.97901286487E-01	9.60650180535E-01
4.68445000000E+08	5.08369969640E-01	8.43308140306E-01
4.76944000000E+08	7.61911856387E-01	6.23215326354E-01
4.85443000000E+08	9.21986333661E-01	3.28996669551E-01
4.93942000000E+08	9.70428989180E-01	3.11223041417E-03
5.02441000000E+08	9.07519726481E-01	-3.11375689996E-01
5.10940000000E+08	7.50934999759E-01	-5.79149568810E-01
5.19439000000E+08	5.25980748058E-01	-7.77634644147E-01
5.27938000000E+08	2.60232670597E-01	-8.94956078941E-01
5.36437000000E+08	-2.10549250289E-02	-9.28562255058E-01
5.44936000000E+08	-2.95745393532E-01	-8.80961415415E-01
5.53435000000E+08	-5.44505199088E-01	-7.58099165360E-01
5.61934000000E+08	-7.49131236833E-01	-5.67769174063E-01
5.70433000000E+08	-8.93117974727E-01	-3.21608394154E-01
5.78932000000E+08	-9.59254927257E-01	-3.59231096998E-02
5.87431000000E+08	-9.33329235588E-01	2.66624978426E-01
5.95930000000E+08	-8.06989782741E-01	5.55300429947E-01
6.04429000000E+08	-5.83551751343E-01	7.93309617989E-01
6.12928000000E+08	-2.85248352181E-01	9.43080731124E-01
6.21427000000E+08	5.09118713962E-02	9.79255149676E-01
6.29926000000E+08	3.77879015644E-01	8.94906345058E-01
6.38425000000E+08	6.50231652687E-01	7.05118671282E-01
6.46924000000E+08	8.36837895957E-01	4.41325907116E-01
6.55423000000E+08	9.23172501559E-01	1.41903198384E-01
6.63922000000E+08	9.11043067206E-01	-1.56876646058E-01
6.72421000000E+08	8.12674883860E-01	-4.28711454343E-01
6.80920000000E+08	6.44017271213E-01	-6.53566757079E-01
6.89419000000E+08	4.21914739220E-01	-8.18193381975E-01
6.97918000000E+08	1.63418912877E-01	-9.13187132265E-01
7.06417000000E+08	-1.13917457206E-01	-9.30927522663E-01
7.14916000000E+08	-3.90746996325E-01	-8.65941870599E-01
7.23415000000E+08	-6.42869676899E-01	-7.16615886204E-01
7.31914000000E+08	-8.43015162180E-01	-4.87984809331E-01
7.40413000000E+08	-9.62791592923E-01	-1.96722292540E-01
7.48912000000E+08	-9.78123127714E-01	1.27850968970E-01
7.57411000000E+08	-8.78413605212E-01	4.44552788132E-01
7.65910000000E+08	-6.72128832963E-01	7.08367054688E-01
7.74409000000E+08	-3.88696991960E-01	8.82389852146E-01
7.82908000000E+08	-6.90407819539E-02	9.46936913845E-01
7.91407000000E+08	2.44410910536E-01	9.02542331081E-01
7.99906000000E+08	5.16965324976E-01	7.64484062751E-01
8.08405000000E+08	7.26297064026E-01	5.55943507140E-01
8.16904000000E+08	8.59601712095E-01	3.01912633857E-01
8.25403000000E+08	9.12120640762E-01	2.52668311494E-02
8.33902000000E+08	8.82897373145E-01	-2.52305038635E-01
8.42401000000E+08	7.74575185320E-01	-5.11108546222E-01
8.50900000000E+08	5.92195147317E-01	-7.30080145051E-01
8.59399000000E+08	3.46260219134E-01	-8.88159810130E-01
8.67898000000E+08	5.46787573773E-02	-9.63946136151E-01
8.76397000000E+08	-2.55451063220E-01	-9.41044515920E-01
8.84896000000E+08	-5.47684496794E-01	-8.13776074674E-01
8.93395000000E+08	-7.83124742398E-01	-5.90262038472E-01
9.01894000000E+08	-9.27963828770E-01	-2.97864776540E-01
9.10393000000E+08	-9.63533672411E-01	2.41222385872E-02
9.18892000000E+08	-8.89917752412E-01	3.33270153427E-01
9.27391000000E+08	-7.23611112772E-01	5.94188424266E-01
9.35890000000E+08	-4.90351744902E-01	7.83316363546E-01
9.44389000000E+08	-2.18122946330E-01	8.88905147573E-01
9.52888000000E+08	6.68832802015E-02	9.08213928591E-01
9.61387000000E+08	3.42060485413E-01	8.44024045808E-01
9.69886000000E+08	5.86868700027E-01	7.02875064294E-01
9.78385000000E+08	7.81733165302E-01	4.93432759526E-01
9.86884000000E+08	9.07520182817E-01	2.28877077161E-01
9.95383000000E+08	9.45788696102E-01	-7.00753390783E-02
1.00388200000E+09	8.84019504954E-01	-3.75110685902E-01
1.01238100000E+09	7.19637017008E-01	-6.49704493974E-01
1.02088000000E+09	4.65825381530E-01	-8.55081519711E-01
1.02937900000E+09	1.54364680462E-01	-9.59556832354E-01
1.03787800000E+09	-1.71470778002E-01	-9.49286338938E-01
1.04637700000E+09	-4.68218905167E-01	-8.31065116946E-01
1.05487600000E+09	-7.01398116992E-01	-6.27671875008E-01
1.06337500000E+09	-8.52054871264E-01	-3.70296501779E-01
1.07187400000E+09	-9.14679628399E-01	-8.94202108679E-02
1.08037300000E+09	-8.93177540564E-01	1.88973536305E-01
1.08887200000E+09	-7.95009314646E-01	4.44623354161E-01
1.09737100000E+09	-6.29604751686E-01	6.61275577148E-01
1.10587000000E+09	-4.07724732895E-01	8.23791880904E-01
1.11436900000E+09	-1.42417725403E-01	9.18137667091E-01
1.12286800000E+09	1.49379747388E-01	9.28864291736E-01
1.13136700000E+09	4.42399012763E-01	8.44484663524E-01
1.13986600000E+09	7.02307884984E-01	6.60349846438E-01
1.14836500000E+09	8.89874640681E-01	3.88307671050E-01
1.15686400000E+09	9.70383249430E-01	5.90232808647E-02
1.16536300000E+09	9.25854811422E-01	-2.79852681268E-01
1.17386200000E+09	7.63700364047E-01	-5.75904372791E-01
1.18236100000E+09	5.15437912461E-01	-7.89397924370E-01
1.19086000000E+09	2.22534269965E-01	-9.01487695021E-01
1.19935900000E+09	-7.61514439657E-02	-9.13744588407E-01
1.20785800000E+09	-3.51042716687E-01	-8.37967441154E-01
1.21635700000E+09	-5.83391164498E-01	-6.92183688155E-01
1.22485600000E+09	-7.60844385250E-01	-4.92620177141E-01
1.23335500000E+09	-8.75640684142E-01	-2.54848360312E-01
1.24185400000E+09	-9.21556614177E-01	7.40594856747E-03
1.25035300000E+09	-8.91938594880E-01	2.78403107810E-01
1.25885200000E+09	-7.80344082550E-01	5.38844562849E-01
1.26735100000E+09	-5.85699892374E-01	7.62886822088E-01
1.27585000000E+09	-3.16589914604E-01	9.19442072337E-01
1.28434900000E+09	3.57882291549E-03	9.77948518241E-01
1.29284800000E+09	3.34470003067E-01	9.17650311660E-01
1.30134700000E+09	6.25640256350E-01	7.38691709472E-01
1.30984600000E+09	8.31237520060E-01	4.67846035417E-01
1.31834500000E+09	9.24529904927E-01	1.48736825038E-01
1.32684400000E+09	9.03875616807E-01	-1.70897587274E-01
1.33534300000E+09	7.85187004126E-01	-4.53205622632E-01
1.34384200000E+09	5.93392729374E-01	-6.74397073650E-01
1.35234100000E+09	3.54079961581E-01	-8.22999815389E-01
1.36084000000E+09	8.94574974316E-02	-8.95113972153E-01
1.36933900000E+09	-1.81391281507E-01	-8.89577822187E-01
1.37783800000E+09	-4.40587822880E-01	-8.07449859380E-01
1.38633700000E+09	-6.69542031458E-01	-6.52312951860E-01
1.39483600000E+09	-8.47770522329E-01	-4.30421668824E-01
1.40333500000E+09	-9.52862719509E-01	-1.54410213703E-01
1.41183400000E+09	-9.64102448986E-01	1.52137164521E-01
1.42033300000E+09	-8.69112143478E-01	4.54433314471E-01
1.42883200000E+09	-6.71624411783E-01	7.12096890564E-01
1.43733100000E+09	-3.93761337133E-01	8.85796623035E-01
1.44583000000E+09	-7.42871661014E-02	9.51232753559E-01
1.45432900000E+09	2.42325891797E-01	9.04374163516E-01
1.46282800000E+09	5.17897564701E-01	7.60081494634E-01
1.47132700000E+09	7.26300480247E-01	5.42406687154E-01
1.47982600000E+09	8.53528860802E-01	2.79097928491E-01
1.48832500000E+09	8.95033390209E-01	-3.32617579162E-03
1.49682400000E+09	8.52624388642E-01	-2.81569904758E-01
1.50532300000E+09	7.31207032693E-01	-5.35053413859E-01
1.51382200000E+09	5.37811010670E-01	-7.44083946768E-01
1.52232100000E+09	2.85153853622E-01	-8.87384792445E-01
1.53082000000E+09	-7.67032873718E-03	-9.47081278336E-01
1.53931900000E+09	-3.12773732817E-01	-9.07544639753E-01
1.54781800000E+09	-5.94664596481E-01	-7.64660271796E-01
1.55631700000E+09	-8.13996237283E-01	-5.29541189813E-01
1.56481600000E+09	-9.38798038080E-01	-2.31471713582E-01
1.57331500000E+09	-9.52875199434E-01	8.90621468210E-02
1.58181400000E+09	-8.59371550875E-01	3.89086416858E-01
1.59031300000E+09	-6.78301103018E-01	6.35194571328E-01
1.59881200000E+09	-4.36791684128E-01	8.05689623835E-01
1.60731100000E+09	-1.63242097992E-01	8.91685485858E-01
1.61581000000E+09	1.16517386769E-01	8.92900713378E-01
1.62430900000E+09	3.80817166537E-01	8.15408388084E-01
1.63280800000E+09	6.11618394679E-01	6.65342350602E-01
1.64130700000E+09	7.91355928081E-01	4.52405561691E-01
1.64980600000E+09	9.02559629436E-01	1.89648232194E-01
1.65830500000E+09	9.28667513498E-01	-1.04005852950E-01
1.66680400000E+09	8.57186545690E-01	-4.01273057689E-01
1.67530300000E+09	6.84508208117E-01	-6.66815482024E-01
1.68380200000E+09	4.23783007722E-01	-8.61411316967E-01
1.69230100000E+09	1.07014505048E-01	-9.52778876351E-01
1.70080000000E+09	-2.20874743820E-01	-9.26110495086E-01
1.70929900000E+09	-5.13536026684E-01	-7.89086681482E-01
1.71779800000E+09	-7.35898012858E-01	-5.67935045061E-01
1.72629700000E+09	-8.69203509004E-01	-2.96941823354E-01
1.73479600000E+09	-9.09803921452E-01	-9.45819559899E-03
1.74329500000E+09	-8.64955236444E-01	2.66658500236E-01
1.75179400000E+09	-7.46107334070E-01	5.11625099826E-01
1.76029300000E+09	-5.65728167922E-01	7.10389119432E-01
1.76879200000E+09	-3.37076122246E-01	8.50339743822E-01
1.77729100000E+09	-7.41242739244E-02	9.20844124172E-01
1.78579000000E+09	2.05360718785E-01	9.11251255223E-01
1.79428900000E+09	4.78792166364E-01	8.13903319283E-01
1.80278800000E+09	7.17159935009E-01	6.27370341393E-01
1.81128700000E+09	8.86948909171E-01	3.61448480567E-01
1.81978600000E+09	9.56621703836E-01	4.34119243468E-02
1.82828500000E+09	9.08458587844E-01	-2.85193875100E-01
1.83678400000E+09	7.45337003090E-01	-5.75519254015E-01
1.84528300000E+09	4.93752431609E-01	-7.86929387339E-01
1.85378200000E+09	1.93374232975E-01	-8.96016499035E-01
1.86228100000E+09	-1.14714651652E-01	-8.99584187823E-01
1.87078000000E+09	-3.96730155613E-01	-8.09322223573E-01
1.87927900000E+09	-6.28932337049E-01	-6.44167946466E-01
1.88777800000E+09	-7.97476287600E-01	-4.24860835965E-01
1.89627700000E+09	-8.94140465438E-01	-1.71540723096E-01
1.90477600000E+09	-9.14920409581E-01	9.72545574109E-02
1.91327500000E+09	-8.57566524751E-01	3.62776801147E-01
1.92177400000E+09	-7.22828890711E-01	6.04689751527E-01
1.93027300000E+09	-5.15245616833E-01	8.00557561590E-01
1.93877200000E+09	-2.48182633723E-01	9.26176319640E-01
1.94727100000E+09	5.61069165564E-02	9.59281764213E-01
1.95577000000E+09	3.62796431497E-01	8.86551559054E-01
1.96426900000E+09	6.31591475287E-01	7.09173984684E-01
1.97276800000E+09	8.23515964898E-01	4.47130065663E-01
1.98126700000E+09	9.12718189278E-01	1.36214447553E-01
1.98976600000E+09	8.91154485344E-01	-1.81267717354E-01
1.99826500000E+09	7.69049576978E-01	-4.66507417308E-01
2.00676400000E+09	5.68194943492E-01	-6.91080241724E-01
2.01526300000E+09	3.15256718726E-01	-8.37929438131E-01
2.02376200000E+09	3.67979913158E-02	-8.99673631521E-01
2.03226100000E+09	-2.42932829868E-01	-8.76140608670E-01
2.04076000000E+09	-5.01273053058E-01	-7.71725779015E-01
2.04925900000E+09	-7.17625113980E-01	-5.94747203589E-01
2.05775800000E+09	-8.72936739753E-01	-3.57698363605E-01
2.06625700000E+09	-9.49233007411E-01	-7.87868057146E-02
2.07475600000E+09	-9.33368031975E-01	2.16660458198E-01
2.08325500000E+09	-8.20115274876E-01	4.97271674734E-01
2.09175400000E+09	-6.16693687557E-01	7.28878456848E-01
2.10025300000E+09	-3.44255481873E-01	8.80404836406E-01
2.10875200000E+09	-3.57215825153E-02	9.31627742878E-01
2.11725100000E+09	2.70371266898E-01	8.77373652791E-01
2.12575000000E+09	5.38394235020E-01	7.27838751432E-01
2.13424900000E+09	7.40330557344E-01	5.05050236936E-01
2.14274800000E+09	8.60149109700E-01	2.36606246792E-01
2.15124700000E+09	8.91792540751E-01	-4.97376736445E-02
2.15974600000E+09	8.36650661388E-01	-3.27906198995E-01
2.16824500000E+09	7.02272465221E-01	-5.74985688557E-01
2.17674400000E+09	4.99781846344E-01	-7.70519135440E-01
2.18524300000E+09	2.45336476335E-01	-8.96751888391E-01
2.19374200000E+09	-4.03920228225E-02	-9.38716732538E-01
2.20224100000E+09	-3.30637119647E-01	-8.87183056545E-01
2.21074000000E+09	-5.93577845016E-01	-7.42004793374E-01
2.21923900000E+09	-7.97381753352E-01	-5.14858453576E-01
2.22773800000E+09	-9.14808935715E-01	-2.28994782403E-01
2.23623700000E+09	-9.28994486320E-01	8.09718065864E-02
2.24473600000E+09	-8.39146662896E-01	3.76154624401E-01
2.25323500000E+09	-6.59185275902E-01	6.22651200843E-01
2.26173400000E+09	-4.14346448901E-01	7.94677793585E-01
2.27023300000E+09	-1.34182073619E-01	8.79713669565E-01
2.27873200000E+09	1.52109498130E-01	8.75093839714E-01
2.28723100000E+09	4.18781380302E-01	7.86919062413E-01
2.29573000000E+09	6.44736707482E-01	6.25928378414E-01
2.30422900000E+09	8.12415342585E-01	4.06775582886E-01
2.31272800000E+09	9.08074364019E-01	1.46244247503E-01
2.32122700000E+09	9.20835877514E-01	-1.35061337286E-01
2.32972600000E+09	8.44549103838E-01	-4.12187283443E-01
2.33822500000E+09	6.80494660468E-01	-6.56968075073E-01
2.34672400000E+09	4.40068468480E-01	-8.39463892062E-01
2.35522300000E+09	1.46399586362E-01	-9.33206366896E-01
2.36372200000E+09	-1.65866454895E-01	-9.21828989453E-01
2.37222100000E+09	-4.56819334597E-01	-8.03978551802E-01
2.38072000000E+09	-6.89594111137E-01	-5.95321830507E-01
2.38921900000E+09	-8.37421916981E-01	-3.24599193154E-01
2.39771800000E+09	-8.88250632363E-01	-2.73431684390E-02
2.40621700000E+09	-8.44666718370E-01	2.64390041655E-01
2.41471600000E+09	-7.16324685444E-01	5.21731473330E-01
2.42321500000E+09	-5.21281265210E-01	7.24327184679E-01
2.43171400000E+09	-2.78679977418E-01	8.58275824829E-01
2.44021300000E+09	-8.51555984619E-03	9.14015360923E-01
2.44871200000E+09	2.67053182233E-01	8.86699306020E-01
2.45721100000E+09	5.24437842100E-01	7.76225217651E-01
2.46571000000E+09	7.39722100384E-01	5.88804575467E-01
2.47420900000E+09	8.87787887729E-01	3.37489900755E-01
2.48270800000E+09	9.48616551543E-01	4.52654238721E-02
2.49120700000E+09	9.08592503559E-01	-2.55729078101E-01
2.49970600000E+09	7.68266552710E-01	-5.28958168999E-01
2.50820500000E+09	5.43507561046E-01	-7.40053797087E-01
2.51670400000E+09	2.63043358325E-01	-8.63670200734E-01
2.52520300000E+09	-3.88200201141E-02	-8.88515314774E-01
2.53370200000E+09	-3.27281627794E-01	-8.17437797471E-01
2.54220100000E+09	-5.74595737037E-01	-6.63305899350E-01
2.55070000000E+09	-7.59693332041E-01	-4.45876673231E-01
2.55919900000E+09	-8.69549688054E-01	-1.86758905604E-01
2.56769800000E+09	-8.96997087184E-01	9.09050537976E-02
2.57619700000E+09	-8.40012098680E-01	3.64202991953E-01
2.58469600000E+09	-7.01920972362E-01	6.09435453155E-01
2.59319500000E+09	-4.92016287063E-01	8.02935906463E-01
2.60169400000E+09	-2.26904671786E-01	9.22531726553E-01
2.61019300000E+09	6.79546635261E-02	9.50967076813E-01
2.61869200000E+09	3.60275544433E-01	8.79011917515E-01
2.62719100000E+09	6.14060367264E-01	7.12153484872E-01
2.63569000000E+09	7.97863508101E-01	4.69294829659E-01
2.64418900000E+09	8.90501276228E-01	1.80832960487E-01
2.65268800000E+09	8.83755751828E-01	-1.18927216911E-01
2.66118700000E+09	7.83773116196E-01	-3.96459660972E-01
2.66968600000E+09	6.06351598414E-01	-6.24521871225E-01
2.67818500000E+09	3.72321757983E-01	-7.85916396863E-01
2.68668400000E+09	1.04408904016E-01	-8.69197317463E-01
2.69518300000E+09	-1.73688377095E-01	-8.69612287733E-01
2.70368200000E+09	-4.39864191098E-01	-7.87530757009E-01
2.71218100000E+09	-6.70988950453E-01	-6.27787835812E-01
2.72068000000E+09	-8.44603072359E-01	-4.01378139828E-01
2.72917900000E+09	-9.39703732708E-01	-1.26314222351E-01
2.73767800000E+09	-9.40389726892E-01	1.70869081313E-01
2.74617700000E+09	-8.40715060884E-01	4.56036905143E-01
2.75467600000E+09	-6.47936333916E-01	6.92742303783E-01
2.76317500000E+09	-3.85555503274E-01	8.50789262825E-01
2.77167400000E+09	-8.68054608468E-02	9.10892265607E-01
2.78017300000E+09	2.11197597062E-01	8.68972635478E-01
2.78867200000E+09	4.75323310590E-01	7.35781977386E-01
2.79717100000E+09	6.79827996164E-01	5.31313526482E-01
2.80567000000E+09	8.10511963781E-01	2.79688494177E-01
2.81416900000E+09	8.59674023745E-01	5.60669863187E-03
2.82266800000E+09	8.27140808011E-01	-2.67740662166E-01
2.83116700000E+09	7.16425503548E-01	-5.18573243653E-01
2.83966600000E+09	5.35965440140E-01	-7.26694050306E-01
2.84816500000E+09	2.98409644298E-01	-8.73025608967E-01
2.85666400000E+09	2.22424778732E-02	-9.40089798869E-01
2.86516300000E+09	-2.67512132738E-01	-9.15022907350E-01
2.87366200000E+09	-5.38132832864E-01	-7.94134573095E-01
2.88216100000E+09	-7.56538742307E-01	-5.86246969705E-01
2.89066000000E+09	-8.92534266713E-01	-3.13925575103E-01
2.89915900000E+09	-9.27793038035E-01	-1.11350252934E-02
2.90765800000E+09	-8.59269266550E-01	2.83959498251E-01
2.91615700000E+09	-6.99316442648E-01	5.36954863492E-01
2.92465600000E+09	-4.70948192387E-01	7.22250146188E-01
2.93315500000E+09	-2.01151441703E-01	8.25092122789E-01
2.94165400000E+09	8.17525337223E-02	8.41588505233E-01
2.95015300000E+09	3.53071067043E-01	7.74057944178E-01
2.95865200000E+09	5.90994436081E-01	6.31152478244E-01
2.96715100000E+09	7.75842556904E-01	4.23801496902E-01
2.97565000000E+09	8.90969852431E-01	1.68519888953E-01
2.98414900000E+09	9.22746574281E-01	-1.13485543680E-01
2.99264800000E+09	8.62417663483E-01	-3.96220433067E-01
3.00114700000E+09	7.12830801254E-01	-6.46847640808E-01
