# Hz S RI R 50
! CMT, S5085, 16077402, 21.3.2/1
! Date: 11/17/2021 5:12:10 PM
! Data: Format (Calibration Info)
! Freq	S11:Re/Im(--)
1.00000000000E+06	9.70205672776E-01	5.31398985232E-02
9.49900000000E+06	9.45941264655E-01	3.97567659240E-02
1.79980000000E+07	9.53897980577E-01	4.83430436249E-02
2.64970000000E+07	9.56299169555E-01	5.49960503208E-02
3.49960000000E+07	9.56350744374E-01	6.05852962446E-02
4.34950000000E+07	9.57082764245E-01	6.50880415972E-02
5.19940000000E+07	9.58664908196E-01	6.84573827311E-02
6.04930000000E+07	9.60100272260E-01	7.09672896727E-02
6.89920000000E+07	9.61918896917E-01	7.30043917233E-02
7.74910000000E+07	9.63687725632E-01	7.46556545270E-02
8.59900000000E+07	9.66314418592E-01	7.61441151777E-02
9.44890000000E+07	9.68692501634E-01	7.72584273197E-02
1.02988000000E+08	9.71838011504E-01	7.79041089716E-02
1.11487000000E+08	9.74511760477E-01	7.87195077861E-02
1.19986000000E+08	9.77320115118E-01	7.91077030762E-02
1.28485000000E+08	9.80180161376E-01	7.94141654685E-02
1.36984000000E+08	9.83444561342E-01	7.89413750710E-02
1.45483000000E+08	9.87009740326E-01	7.88463578357E-02
1.53982000000E+08	9.90229857629E-01	7.84494200043E-02
1.62481000000E+08	9.93366832552E-01	7.76524115149E-02
1.70980000000E+08	9.95337241355E-01	7.68464996402E-02
1.79479000000E+08	9.99063413105E-01	7.57934488151E-02
1.87978000000E+08	1.00229255410E+00	7.42836396258E-02
1.96477000000E+08	1.00517200081E+00	7.28370416111E-02
2.04976000000E+08	1.00799941490E+00	7.10112034409E-02
2.13475000000E+08	1.01103608414E+00	6.90177374240E-02
2.21974000000E+08	1.01370236068E+00	6.64599043209E-02
2.30473000000E+08	1.01637093695E+00	6.35551588686E-02
2.38972000000E+08	1.01877728660E+00	6.09725462816E-02
2.47471000000E+08	1.02086902542E+00	5.81419157202E-02
2.55970000000E+08	1.02290133371E+00	5.49522161865E-02
2.64469000000E+08	1.02468307652E+00	5.19634354527E-02
2.72968000000E+08	1.02591349823E+00	4.87075676853E-02
2.81467000000E+08	1.02727664202E+00	4.54507089410E-02
2.89966000000E+08	1.02828278914E+00	4.21763487918E-02
2.98465000000E+08	1.02871235370E+00	3.88417090902E-02
3.06964000000E+08	1.02910929864E+00	3.52120155817E-02
3.15463000000E+08	1.02942522624E+00	3.17439553894E-02
3.23962000000E+08	1.02967373222E+00	2.80736422006E-02
3.32461000000E+08	1.02951771174E+00	2.45025571467E-02
3.40960000000E+08	1.02880376965E+00	2.09814098604E-02
3.49459000000E+08	1.02804566545E+00	1.73163663262E-02
3.57958000000E+08	1.02750684313E+00	1.39047444713E-02
3.66457000000E+08	1.02681889216E+00	1.02498177563E-02
3.74956000000E+08	1.02524137192E+00	5.70218730402E-03
3.83455000000E+08	1.02416025676E+00	1.79469509510E-03
3.91954000000E+08	1.02330169907E+00	-1.91064761394E-03
4.00453000000E+08	1.02155903289E+00	-5.27308402653E-03
4.08952000000E+08	1.01991344220E+00	-8.48805210715E-03
4.17451000000E+08	1.01815045241E+00	-1.19639764533E-02
4.25950000000E+08	1.01618187007E+00	-1.50888841344E-02
4.34449000000E+08	1.01419311633E+00	-1.86073757887E-02
4.42948000000E+08	1.01215194876E+00	-2.20290973573E-02
4.51447000000E+08	1.01019394456E+00	-2.55124737769E-02
4.59946000000E+08	1.00806749288E+00	-2.84736344411E-02
4.68445000000E+08	1.00583096282E+00	-3.11725325902E-02
4.76944000000E+08	1.00325974067E+00	-3.30028823277E-02
4.85443000000E+08	1.00086668654E+00	-3.46315058826E-02
4.93942000000E+08	9.98259961321E-01	-3.62322777689E-02
5.02441000000E+08	9.96456337951E-01	-3.82138309258E-02
5.10940000000E+08	9.94042229592E-01	-4.04079197668E-02
5.19439000000E+08	9.91865810087E-01	-4.23708285253E-02
5.27938000000E+08	9.89853618639E-01	-4.39913155854E-02
5.36437000000E+08	9.87523980986E-01	-4.56769926887E-02
5.44936000000E+08	9.85446258280E-01	-4.71684177059E-02
5.53435000000E+08	9.83034661523E-01	-4.89259533777E-02
5.61934000000E+08	9.81469083831E-01	-4.99365201864E-02
5.70433000000E+08	9.79869699013E-01	-5.07211182395E-02
5.78932000000E+08	9.78083453155E-01	-5.10500199584E-02
5.87431000000E+08	9.76458486763E-01	-5.13629796913E-02
5.95930000000E+08	9.74957205313E-01	-5.15974324610E-02
6.04429000000E+08	9.73634422792E-01	-5.10351196999E-02
6.12928000000E+08	9.72628235054E-01	-5.08323643672E-02
6.21427000000E+08	9.71630531616E-01	-5.03860350032E-02
6.29926000000E+08	9.70454489855E-01	-4.92261213557E-02
6.38425000000E+08	9.69350755698E-01	-4.70402016785E-02
6.46924000000E+08	9.68384222289E-01	-4.47737725542E-02
6.55423000000E+08	9.67461874814E-01	-4.33348492940E-02
6.63922000000E+08	9.67235757374E-01	-4.17373576374E-02
6.72421000000E+08	9.67144537797E-01	-4.08233156928E-02
6.80920000000E+08	9.67122275966E-01	-3.96626165254E-02
6.89419000000E+08	9.67456655411E-01	-3.76427876002E-02
6.97918000000E+08	9.67340360934E-01	-3.56759021392E-02
7.06417000000E+08	9.67392731793E-01	-3.34502613557E-02
7.14916000000E+08	9.67930688250E-01	-3.11216047312E-02
7.23415000000E+08	9.68397924628E-01	-2.85910475142E-02
7.31914000000E+08	9.69086818448E-01	-2.59396164254E-02
7.40413000000E+08	9.70049333100E-01	-2.31675028210E-02
7.48912000000E+08	9.70749935890E-01	-2.04029273713E-02
7.57411000000E+08	9.72032993118E-01	-1.74011559181E-02
7.65910000000E+08	9.73356551908E-01	-1.44056300105E-02
7.74409000000E+08	9.74752724114E-01	-1.09415716757E-02
7.82908000000E+08	9.76244168951E-01	-7.42676307671E-03
7.91407000000E+08	9.78078924215E-01	-3.74850385371E-03
7.99906000000E+08	9.79815515213E-01	-2.10509366884E-04
8.08405000000E+08	9.81865454040E-01	3.22440652092E-03
8.16904000000E+08	9.83976421912E-01	6.57526831252E-03
8.25403000000E+08	9.85933407637E-01	9.83138293166E-03
8.33902000000E+08	9.88223930681E-01	1.25256045859E-02
8.42401000000E+08	9.90478401820E-01	1.53109068564E-02
8.50900000000E+08	9.92986143887E-01	1.77363412533E-02
8.59399000000E+08	9.95816252398E-01	2.00471975778E-02
8.67898000000E+08	9.98806531591E-01	2.22456711110E-02
8.76397000000E+08	1.00169537743E+00	2.43325948450E-02
8.84896000000E+08	1.00433870165E+00	2.62897665982E-02
8.93395000000E+08	1.00687837200E+00	2.76789519659E-02
9.01894000000E+08	1.00961842803E+00	2.90165193084E-02
9.10393000000E+08	1.01249769413E+00	2.97525092212E-02
9.18892000000E+08	1.01518579429E+00	3.04171102406E-02
9.27391000000E+08	1.01784117134E+00	3.06400289187E-02
9.35890000000E+08	1.02080691141E+00	3.04304356403E-02
9.44389000000E+08	1.02350426662E+00	2.98942781844E-02
9.52888000000E+08	1.02614892649E+00	2.88627148729E-02
9.61387000000E+08	1.02880301661E+00	2.73818606670E-02
9.69886000000E+08	1.03134701951E+00	2.54669238304E-02
9.78385000000E+08	1.03357446535E+00	2.33144632201E-02
9.86884000000E+08	1.03598687439E+00	2.07394914557E-02
9.95383000000E+08	1.03799036702E+00	1.79787991023E-02
1.00388200000E+09	1.03989710642E+00	1.46384575591E-02
1.01238100000E+09	1.04119100724E+00	1.11659197603E-02
1.02088000000E+09	1.04238470419E+00	7.14634322970E-03
1.02937900000E+09	1.04366287558E+00	2.88642527315E-03
1.03787800000E+09	1.04459440518E+00	-1.58635653185E-03
1.04637700000E+09	1.04495420737E+00	-6.32327317642E-03
1.05487600000E+09	1.04486709049E+00	-1.09293072872E-02
1.06337500000E+09	1.04464719391E+00	-1.58898842671E-02
1.07187400000E+09	1.04409061649E+00	-2.06502086693E-02
1.08037300000E+09	1.04286512231E+00	-2.53509016366E-02
1.08887200000E+09	1.04123441208E+00	-3.00761041221E-02
1.09737100000E+09	1.03970327738E+00	-3.49239200045E-02
1.10587000000E+09	1.03766746242E+00	-3.94885298742E-02
1.11436900000E+09	1.03540233349E+00	-4.38702697059E-02
1.12286800000E+09	1.03282131799E+00	-4.83475138067E-02
1.13136700000E+09	1.03011904664E+00	-5.25863805717E-02
1.13986600000E+09	1.02711514997E+00	-5.66131408038E-02
1.14836500000E+09	1.02387730491E+00	-6.04458396340E-02
1.15686400000E+09	1.02022824231E+00	-6.38080689703E-02
1.16536300000E+09	1.01643397180E+00	-6.67329233961E-02
1.17386200000E+09	1.01268394330E+00	-6.95646070066E-02
1.18236100000E+09	1.00863270381E+00	-7.16903490245E-02
1.19086000000E+09	1.00518651901E+00	-7.36485774789E-02
1.19935900000E+09	1.00133757876E+00	-7.51049796702E-02
1.20785800000E+09	9.97973076813E-01	-7.60297704161E-02
1.21635700000E+09	9.94055519481E-01	-7.66122098692E-02
1.22485600000E+09	9.90597341735E-01	-7.67738005437E-02
1.23335500000E+09	9.87367447593E-01	-7.66188761698E-02
1.24185400000E+09	9.83873249097E-01	-7.57926616391E-02
1.25035300000E+09	9.80242555365E-01	-7.44513557553E-02
1.25885200000E+09	9.77125965973E-01	-7.25588395757E-02
1.26735100000E+09	9.74361957206E-01	-7.01655805053E-02
1.27585000000E+09	9.71522345535E-01	-6.77072068211E-02
1.28434900000E+09	9.69100364851E-01	-6.50372849904E-02
1.29284800000E+09	9.66700669571E-01	-6.17052196489E-02
1.30134700000E+09	9.64596534879E-01	-5.81174808475E-02
1.30984600000E+09	9.62682777005E-01	-5.39990399470E-02
1.31834500000E+09	9.61353665247E-01	-4.97983417846E-02
1.32684400000E+09	9.60278371211E-01	-4.53275756222E-02
1.33534300000E+09	9.59307401702E-01	-4.04780820974E-02
1.34384200000E+09	9.58784164131E-01	-3.53118233552E-02
1.35234100000E+09	9.58143558706E-01	-2.99098860333E-02
1.36084000000E+09	9.57485013935E-01	-2.42562204672E-02
1.36933900000E+09	9.57621204354E-01	-1.86356182787E-02
1.37783800000E+09	9.58501224284E-01	-1.27739215586E-02
1.38633700000E+09	9.58856710493E-01	-6.65693387156E-03
1.39483600000E+09	9.59392745178E-01	-6.81746859682E-04
1.40333500000E+09	9.60478806771E-01	5.28575476073E-03
1.41183400000E+09	9.61583620434E-01	1.14220152888E-02
1.42033300000E+09	9.63274002043E-01	1.72966636115E-02
1.42883200000E+09	9.64663469745E-01	2.33598263171E-02
1.43733100000E+09	9.66560425206E-01	2.92458860623E-02
1.44583000000E+09	9.69216444174E-01	3.49580030669E-02
1.45432900000E+09	9.72115973385E-01	4.06105515839E-02
1.46282800000E+09	9.74397058028E-01	4.64189995525E-02
1.47132700000E+09	9.76681073936E-01	5.19125538109E-02
1.47982600000E+09	9.79713106712E-01	5.74221474934E-02
1.48832500000E+09	9.83043907499E-01	6.24575610334E-02
1.49682400000E+09	9.86075980352E-01	6.72637667311E-02
1.50532300000E+09	9.89296390143E-01	7.17644292119E-02
1.51382200000E+09	9.92931081199E-01	7.61081770912E-02
1.52232100000E+09	9.97024877994E-01	8.00029143150E-02
1.53082000000E+09	1.00092952870E+00	8.34062602886E-02
1.53931900000E+09	1.00461990013E+00	8.61796960453E-02
1.54781800000E+09	1.00879130044E+00	8.83258619945E-02
1.55631700000E+09	1.01312104520E+00	9.04499221203E-02
1.56481600000E+09	1.01730359290E+00	9.18620949943E-02
1.57331500000E+09	1.02133615966E+00	9.27867338848E-02
1.58181400000E+09	1.02550777887E+00	9.32016222177E-02
1.59031300000E+09	1.02904200160E+00	9.30027689460E-02
1.59881200000E+09	1.03237854495E+00	9.22014413803E-02
1.60731100000E+09	1.03627880012E+00	9.04750854009E-02
1.61581000000E+09	1.03990568520E+00	8.84368850881E-02
1.62430900000E+09	1.04312978231E+00	8.59131465748E-02
1.63280800000E+09	1.04544424167E+00	8.26890295523E-02
1.64130700000E+09	1.04783727589E+00	7.89842317476E-02
1.64980600000E+09	1.05015601237E+00	7.46706585862E-02
1.65830500000E+09	1.05153245509E+00	6.99107143213E-02
1.66680400000E+09	1.05251934734E+00	6.47928698128E-02
1.67530300000E+09	1.05338430592E+00	5.95596546604E-02
1.68380200000E+09	1.05408805356E+00	5.38712836498E-02
1.69230100000E+09	1.05405337961E+00	4.79430464938E-02
1.70080000000E+09	1.05366196902E+00	4.18682575094E-02
1.70929900000E+09	1.05277996841E+00	3.55500174256E-02
1.71779800000E+09	1.05125397541E+00	2.92635197336E-02
1.72629700000E+09	1.04885948249E+00	2.32371047847E-02
1.73479600000E+09	1.04707834461E+00	1.71548843253E-02
1.74329500000E+09	1.04454029370E+00	1.16552923271E-02
1.75179400000E+09	1.04152067209E+00	6.59793138192E-03
1.76029300000E+09	1.03793015128E+00	2.06162856430E-03
1.76879200000E+09	1.03450864703E+00	-2.03412132399E-03
1.77729100000E+09	1.03061293724E+00	-6.01073410226E-03
1.78579000000E+09	1.02678929065E+00	-9.42411606527E-03
1.79428900000E+09	1.02290552793E+00	-1.23965330086E-02
1.80278800000E+09	1.01883925755E+00	-1.47715460285E-02
1.81128700000E+09	1.01488408403E+00	-1.67672895107E-02
1.81978600000E+09	1.01076567232E+00	-1.80457108193E-02
1.82828500000E+09	1.00658374199E+00	-1.88116882233E-02
1.83678400000E+09	1.00268511524E+00	-1.92102030001E-02
1.84528300000E+09	9.98273432902E-01	-1.90562076167E-02
1.85378200000E+09	9.94502470174E-01	-1.82454410740E-02
1.86228100000E+09	9.90718563414E-01	-1.68230922961E-02
1.87078000000E+09	9.86977980815E-01	-1.49870635293E-02
1.87927900000E+09	9.83864191230E-01	-1.22665180810E-02
1.88777800000E+09	9.81065451202E-01	-9.43390669388E-03
1.89627700000E+09	9.78394058121E-01	-5.83318337883E-03
1.90477600000E+09	9.76171748884E-01	-1.67797291306E-03
1.91327500000E+09	9.73769852064E-01	2.92031794484E-03
1.92177400000E+09	9.71720991867E-01	7.34267228994E-03
1.93027300000E+09	9.69807129250E-01	1.27396120000E-02
1.93877200000E+09	9.68473058425E-01	1.79141735856E-02
1.94727100000E+09	9.67360276286E-01	2.38896091638E-02
1.95577000000E+09	9.66510520856E-01	2.98165661131E-02
1.96426900000E+09	9.65932139745E-01	3.61994438464E-02
1.97276800000E+09	9.65771174552E-01	4.27812300994E-02
1.98126700000E+09	9.65472850638E-01	4.93073072461E-02
1.98976600000E+09	9.65765148189E-01	5.59996584334E-02
1.99826500000E+09	9.66108991995E-01	6.26187140859E-02
2.00676400000E+09	9.66849733461E-01	6.92184257546E-02
2.01526300000E+09	9.67645434845E-01	7.57822743231E-02
2.02376200000E+09	9.68591436660E-01	8.20443039045E-02
2.03226100000E+09	9.69838168904E-01	8.80542377269E-02
2.04076000000E+09	9.71377686148E-01	9.40530093509E-02
2.04925900000E+09	9.73379749540E-01	9.95250565506E-02
2.05775800000E+09	9.75349981418E-01	1.05094625156E-01
2.06625700000E+09	9.77572546919E-01	1.10386646108E-01
2.07475600000E+09	9.80138185813E-01	1.15006350006E-01
2.08325500000E+09	9.82684471101E-01	1.19342016685E-01
2.09175400000E+09	9.85245151830E-01	1.23255902990E-01
2.10025300000E+09	9.88515308635E-01	1.26770214045E-01
2.10875200000E+09	9.91738672457E-01	1.30116637810E-01
2.11725100000E+09	9.95234718883E-01	1.32457801488E-01
2.12575000000E+09	9.98825494812E-01	1.34386009493E-01
2.13424900000E+09	1.00263535584E+00	1.35769976962E-01
2.14274800000E+09	1.00637256227E+00	1.36248280779E-01
2.15124700000E+09	1.01052344982E+00	1.35991359372E-01
2.15974600000E+09	1.01406177019E+00	1.35048383857E-01
2.16824500000E+09	1.01760649696E+00	1.33494820524E-01
2.17674400000E+09	1.02130596963E+00	1.31195676520E-01
2.18524300000E+09	1.02490882685E+00	1.28642177130E-01
2.19374200000E+09	1.02827580193E+00	1.25326663936E-01
2.20224100000E+09	1.03151605829E+00	1.21080063432E-01
2.21074000000E+09	1.03481179948E+00	1.16436521121E-01
2.21923900000E+09	1.03746677363E+00	1.10712102691E-01
2.22773800000E+09	1.04023475734E+00	1.04638548573E-01
2.23623700000E+09	1.04228385798E+00	9.78909741491E-02
2.24473600000E+09	1.04403663200E+00	9.06615182579E-02
2.25323500000E+09	1.04505792387E+00	8.28125718472E-02
2.26173400000E+09	1.04576760380E+00	7.48592193522E-02
2.27023300000E+09	1.04604709779E+00	6.63117512755E-02
2.27873200000E+09	1.04586344218E+00	5.77902397154E-02
2.28723100000E+09	1.04523806685E+00	4.90856389364E-02
2.29573000000E+09	1.04413556464E+00	4.01883576413E-02
2.30422900000E+09	1.04244722897E+00	3.12935979745E-02
2.31272800000E+09	1.04038082606E+00	2.23918636617E-02
2.32122700000E+09	1.03805503922E+00	1.38408552623E-02
2.32972600000E+09	1.03509972013E+00	5.71376938862E-03
2.33822500000E+09	1.03191235424E+00	-2.02988537393E-03
2.34672400000E+09	1.02835890556E+00	-9.60124303198E-03
2.35522300000E+09	1.02460136611E+00	-1.61833583902E-02
2.36372200000E+09	1.02063061809E+00	-2.24858927836E-02
2.37222100000E+09	1.01679662686E+00	-2.84117658391E-02
2.38072000000E+09	1.01272317737E+00	-3.35193171385E-02
2.38921900000E+09	1.00900154926E+00	-3.85808605362E-02
2.39771800000E+09	1.00558578798E+00	-4.29526593053E-02
2.40621700000E+09	1.00148331110E+00	-4.61050397292E-02
2.41471600000E+09	9.97981969021E-01	-4.94659322863E-02
2.42321500000E+09	9.94626823484E-01	-5.20393093977E-02
2.43171400000E+09	9.91140629725E-01	-5.40144176251E-02
2.44021300000E+09	9.87966015807E-01	-5.55494707183E-02
2.44871200000E+09	9.85333105122E-01	-5.62823862808E-02
2.45721100000E+09	9.82835817329E-01	-5.66072152275E-02
2.46571000000E+09	9.80485402977E-01	-5.62857936142E-02
2.47420900000E+09	9.78658417330E-01	-5.56777255896E-02
2.48270800000E+09	9.76799719909E-01	-5.39974224037E-02
2.49120700000E+09	9.75566470052E-01	-5.21462683357E-02
2.49970600000E+09	9.74855803780E-01	-4.97914294680E-02
2.50820500000E+09	9.74610799955E-01	-4.69810508062E-02
2.51670400000E+09	9.74216831193E-01	-4.38800686299E-02
2.52520300000E+09	9.74598314535E-01	-4.04517002439E-02
2.53370200000E+09	9.75056655241E-01	-3.71744484861E-02
2.54220100000E+09	9.76034292114E-01	-3.37907783586E-02
2.55070000000E+09	9.77045791724E-01	-2.99068649467E-02
2.55919900000E+09	9.78273718437E-01	-2.59765902979E-02
2.56769800000E+09	9.79973550220E-01	-2.17352955688E-02
2.57619700000E+09	9.82074968915E-01	-1.73197982582E-02
2.58469600000E+09	9.84727704614E-01	-1.29616823780E-02
2.59319500000E+09	9.87166740160E-01	-8.03316815389E-03
2.60169400000E+09	9.90102198970E-01	-3.35100312431E-03
2.61019300000E+09	9.93523174863E-01	1.76492890004E-03
2.61869200000E+09	9.96725680965E-01	6.30922923508E-03
2.62719100000E+09	1.00062323601E+00	1.12821838231E-02
2.63569000000E+09	1.00470372715E+00	1.59938177592E-02
2.64418900000E+09	1.00839604873E+00	2.03957355011E-02
2.65268800000E+09	1.01188565483E+00	2.45687814519E-02
2.66118700000E+09	1.01601948642E+00	2.86622182430E-02
2.66968600000E+09	1.01971388787E+00	3.22518753355E-02
2.67818500000E+09	1.02385452546E+00	3.54646052114E-02
2.68668400000E+09	1.02740743937E+00	3.81382732677E-02
2.69518300000E+09	1.03096664257E+00	4.05461795401E-02
2.70368200000E+09	1.03464518546E+00	4.23025415068E-02
2.71218100000E+09	1.03786626185E+00	4.37514474219E-02
2.72068000000E+09	1.04085582349E+00	4.45548807392E-02
2.72917900000E+09	1.04378811876E+00	4.48509262219E-02
2.73767800000E+09	1.04613669882E+00	4.46214005409E-02
2.74617700000E+09	1.04825844460E+00	4.39250153121E-02
2.75467600000E+09	1.05077381224E+00	4.26299498656E-02
2.76317500000E+09	1.05321592086E+00	4.07931403739E-02
2.77167400000E+09	1.05430788481E+00	3.86155090657E-02
2.78017300000E+09	1.05539205734E+00	3.57337387460E-02
2.78867200000E+09	1.05565579138E+00	3.23119712902E-02
2.79717100000E+09	1.05570879719E+00	2.84702164231E-02
2.80567000000E+09	1.05521509422E+00	2.45394493093E-02
2.81416900000E+09	1.05384023195E+00	1.99355953466E-02
2.82266800000E+09	1.05218751875E+00	1.46801039437E-02
2.83116700000E+09	1.05057704134E+00	9.22797154465E-03
2.83966600000E+09	1.04769886091E+00	3.57440944103E-03
2.84816500000E+09	1.04443969145E+00	-2.59034720793E-03
2.85666400000E+09	1.04043526652E+00	-9.05095276309E-03
2.86516300000E+09	1.03663621302E+00	-1.57670882971E-02
2.87366200000E+09	1.03222619239E+00	-2.20140455686E-02
2.88216100000E+09	1.02717461496E+00	-2.85596145423E-02
2.89066000000E+09	1.02188639035E+00	-3.47208857806E-02
2.89915900000E+09	1.01610596106E+00	-4.05914423298E-02
2.90765800000E+09	1.01022900590E+00	-4.66034887997E-02
2.91615700000E+09	1.00433242451E+00	-5.17483328991E-02
2.92465600000E+09	9.98289586681E-01	-5.60023355777E-02
2.93315500000E+09	9.92596707033E-01	-6.01949683350E-02
2.94165400000E+09	9.86976540642E-01	-6.44904698645E-02
2.95015300000E+09	9.81408671159E-01	-6.86441101306E-02
2.95865200000E+09	9.76034630529E-01	-7.23574847419E-02
2.96715100000E+09	9.70780343169E-01	-7.59003202471E-02
2.97565000000E+09	9.65904191018E-01	-7.87135062345E-02
2.98414900000E+09	9.61210240287E-01	-8.19352655550E-02
2.99264800000E+09	9.56782765056E-01	-8.38805692637E-02
3.00114700000E+09	9.52488211514E-01	-8.71723997607E-02
3.00964600000E+09	9.49336094769E-01	-8.85561859971E-02
3.01814500000E+09	9.46329748938E-01	-8.97760747290E-02
3.02664400000E+09	9.44576382722E-01	-9.08223746795E-02
3.03514300000E+09	9.42835539021E-01	-9.14595301542E-02
