# Hz S RI R 50
! CMT, S5085, 16077402, 21.3.2/1
! Date: 11/17/2021 5:19:03 PM
! Data: Format (Calibration Info)
! Freq	S11:Re/Im(--)	S21:Re/Im(--)	S12:Re/Im(--)	S22:Re/Im(--)
1.00000000000E+06	-3.43175502315E-02	2.23716432868E-03	1.00081170398E+00	-2.09264959004E-02	1.00028910673E+00	-2.74439864465E-02	-3.50108011482E-02	5.37735254353E-03
9.49900000000E+06	-4.12709646872E-02	1.08979137745E-02	9.68611444810E-01	-1.69502738195E-01	9.69371616293E-01	-1.75850834383E-01	-3.95350029004E-02	1.48421032539E-02
1.79980000000E+07	-3.52239607730E-02	2.68543557954E-02	9.38079849750E-01	-3.17796431130E-01	9.37213704348E-01	-3.23950222839E-01	-3.18275100581E-02	3.00322436921E-02
2.64970000000E+07	-2.29590649408E-02	3.80202717295E-02	8.76752097721E-01	-4.62739611963E-01	8.75117342097E-01	-4.67701441135E-01	-1.79617495078E-02	4.00571168777E-02
3.49960000000E+07	-7.18155841084E-03	4.36992829637E-02	7.92774916386E-01	-5.94200560739E-01	7.90410807180E-01	-5.98576334410E-01	-1.42630197464E-03	4.39623182555E-02
4.34950000000E+07	9.77628502653E-03	4.32377525135E-02	6.89867199172E-01	-7.09988725563E-01	6.86700909860E-01	-7.13448821880E-01	1.52217280459E-02	4.12894925495E-02
5.19940000000E+07	2.57277573431E-02	3.67666351656E-02	5.70401432886E-01	-8.07929255437E-01	5.67144528834E-01	-8.10778150320E-01	3.03072508360E-02	3.34918593151E-02
6.04930000000E+07	3.87092398221E-02	2.43980069927E-02	4.37915440671E-01	-8.85896892543E-01	4.34197625787E-01	-8.88430455759E-01	4.22980542327E-02	1.90248043277E-02
6.89920000000E+07	4.59887450059E-02	8.09618267362E-03	2.95419267280E-01	-9.42846642580E-01	2.91262797719E-01	-9.44720731155E-01	4.68543602318E-02	1.21858168758E-03
7.74910000000E+07	4.68850729648E-02	-9.58725436416E-03	1.45649670080E-01	-9.77506325258E-01	1.41343573243E-01	-9.78622191744E-01	4.44616260031E-02	-1.65069405556E-02
8.59900000000E+07	4.10250365889E-02	-2.65129385150E-02	-7.72309524399E-03	-9.88592998303E-01	-1.21630067189E-02	-9.89089839774E-01	3.57344708857E-02	-3.18301218520E-02
9.44890000000E+07	2.92224827324E-02	-3.94852027941E-02	-1.61652971261E-01	-9.75833104373E-01	-1.66023244381E-01	-9.75766927262E-01	2.19969426389E-02	-4.25423695010E-02
1.02988000000E+08	1.36776598427E-02	-4.68466923200E-02	-3.11869414912E-01	-9.39008460796E-01	-3.16464676387E-01	-9.38025053505E-01	5.39187171825E-03	-4.69612201250E-02
1.11487000000E+08	-3.07819427173E-03	-4.76220285710E-02	-4.54772359521E-01	-8.79144346617E-01	-4.59050174403E-01	-8.77568366840E-01	-1.13820384025E-02	-4.46871347432E-02
1.19986000000E+08	-1.85832504069E-02	-4.18579000271E-02	-5.86423675611E-01	-7.97296465555E-01	-5.90564918241E-01	-7.94956703727E-01	-2.56780653396E-02	-3.58897648674E-02
1.28485000000E+08	-3.03427513804E-02	-3.05578924495E-02	-7.03513794943E-01	-6.95598439682E-01	-7.07090246398E-01	-6.92737341004E-01	-3.50693213056E-02	-2.22302037020E-02
1.36984000000E+08	-3.66347189334E-02	-1.57511980508E-02	-8.02913143318E-01	-5.77402265114E-01	-8.06297879534E-01	-5.73303064679E-01	-3.79186682990E-02	-6.13725908180E-03
1.45483000000E+08	-3.65502629861E-02	8.33147809768E-05	-8.82094191981E-01	-4.44386478373E-01	-8.84639517425E-01	-4.40729991785E-01	-3.40963595504E-02	9.39176818656E-03
1.53982000000E+08	-3.02990661890E-02	1.44318583864E-02	-9.39606363260E-01	-3.01720265409E-01	-9.41576429803E-01	-2.97652541268E-01	-2.45073883706E-02	2.19110207751E-02
1.62481000000E+08	-1.90728238640E-02	2.50792272750E-02	-9.74406129167E-01	-1.52247180650E-01	-9.75705740070E-01	-1.47883515779E-01	-1.08981977680E-02	2.94113416065E-02
1.70980000000E+08	-4.81737742124E-03	3.04036650439E-02	-9.85815675000E-01	9.47455537312E-04	-9.85780917182E-01	4.99982453424E-03	4.24894648308E-03	3.07001637145E-02
1.79479000000E+08	1.01141163718E-02	2.97433022274E-02	-9.73666870724E-01	1.53094663874E-01	-9.73353930375E-01	1.57840431394E-01	1.82848993897E-02	2.59963583231E-02
1.87978000000E+08	2.33709171931E-02	2.34246038260E-02	-9.38132327489E-01	3.02227895953E-01	-9.37355138200E-01	3.06878612022E-01	2.90055452910E-02	1.63461070104E-02
1.96477000000E+08	3.28297183710E-02	1.25508322982E-02	-8.80097344447E-01	4.44325614087E-01	-8.78625434899E-01	4.48470229830E-01	3.49249147444E-02	3.50312547159E-03
2.04976000000E+08	3.70405134550E-02	-8.90786147301E-04	-8.00629487962E-01	5.75771704162E-01	-7.98498012190E-01	5.79782989806E-01	3.51464035234E-02	-1.04634202272E-02
2.13475000000E+08	3.56287428021E-02	-1.45423486441E-02	-7.01441525821E-01	6.93787870749E-01	-6.98679345201E-01	6.97320431585E-01	2.97575646190E-02	-2.31350232927E-02
2.21974000000E+08	2.90506692612E-02	-2.62690564655E-02	-5.85073727127E-01	7.94413705631E-01	-5.81533601439E-01	7.97690347541E-01	1.98098328221E-02	-3.23472181455E-02
2.30473000000E+08	1.84638915022E-02	-3.43672182936E-02	-4.53828107478E-01	8.75841030537E-01	-4.50263272775E-01	8.78319751501E-01	7.06288331344E-03	-3.66496935743E-02
2.38972000000E+08	5.62422250832E-03	-3.75429781656E-02	-3.11959384893E-01	9.35565603056E-01	-3.07808617860E-01	9.37269747373E-01	-6.23125080584E-03	-3.53844637170E-02
2.47471000000E+08	-7.32363544996E-03	-3.53197301656E-02	-1.62508534009E-01	9.72107188158E-01	-1.58112247203E-01	9.73301113804E-01	-1.77957465946E-02	-2.88674666712E-02
2.55970000000E+08	-1.81957599888E-02	-2.81960691286E-02	-9.36068377750E-03	9.84901687051E-01	-4.94033068019E-03	9.85334325395E-01	-2.55818796389E-02	-1.83385933701E-02
2.64469000000E+08	-2.53399642225E-02	-1.75009698229E-02	1.43627946267E-01	9.74000976576E-01	1.48235812112E-01	9.73785571391E-01	-2.84208726642E-02	-5.70477828525E-03
2.72968000000E+08	-2.75971369563E-02	-4.94733054235E-03	2.92798592151E-01	9.39339154802E-01	2.97199203009E-01	9.38513149131E-01	-2.59984313489E-02	6.81966063515E-03
2.81467000000E+08	-2.48475012493E-02	7.33212303640E-03	4.34586598198E-01	8.82435953314E-01	4.39076431015E-01	8.80843782837E-01	-1.87743804972E-02	1.71494361661E-02
2.89966000000E+08	-1.74561795555E-02	1.74868273484E-02	5.66425292200E-01	8.04460472191E-01	5.70301870347E-01	8.02049325872E-01	-8.07684720682E-03	2.36212298445E-02
2.98465000000E+08	-6.65468363305E-03	2.37906835227E-02	6.84314416547E-01	7.06873270816E-01	6.87666564400E-01	7.04202994333E-01	4.24095689362E-03	2.51215416353E-02
3.06964000000E+08	5.84626634367E-03	2.52784973939E-02	7.85898483772E-01	5.92037170224E-01	7.88846319033E-01	5.88835242762E-01	1.60816260911E-02	2.13819662669E-02
3.15463000000E+08	1.80249479472E-02	2.16279719814E-02	8.68660531003E-01	4.62881134542E-01	8.71130298052E-01	4.59102775783E-01	2.55087653421E-02	1.30799490983E-02
3.23962000000E+08	2.78823673869E-02	1.33013863147E-02	9.30116311065E-01	3.21959040353E-01	9.31984646205E-01	3.17905968894E-01	3.08189058110E-02	1.53232915962E-03
3.32461000000E+08	3.38448352756E-02	1.50370726149E-03	9.68870557912E-01	1.73153269737E-01	9.70020967210E-01	1.68969035770E-01	3.11342698535E-02	-1.15242683184E-02
3.40960000000E+08	3.48427302886E-02	-1.19156197380E-02	9.83723956910E-01	2.00991469617E-02	9.84238069149E-01	1.59136745495E-02	2.61862951728E-02	-2.39864131483E-02
3.49459000000E+08	3.05765599095E-02	-2.49874169148E-02	9.74331794701E-01	-1.33286900847E-01	9.74233121663E-01	-1.37467957281E-01	1.66593770805E-02	-3.38712933835E-02
3.57958000000E+08	2.16650961848E-02	-3.56942558132E-02	9.41112939060E-01	-2.82938706992E-01	9.40237218709E-01	-2.87258920852E-01	3.76881149219E-03	-3.95791737904E-02
3.66457000000E+08	9.31171127485E-03	-4.24994745123E-02	8.85309825830E-01	-4.25162780884E-01	8.83485932771E-01	-4.29921379390E-01	-1.04816616446E-02	-4.01400549760E-02
3.74956000000E+08	-4.71848921684E-03	-4.43664430349E-02	8.07956994253E-01	-5.56980698983E-01	8.05570435962E-01	-5.61134452179E-01	-2.40149673125E-02	-3.54487360968E-02
3.83455000000E+08	-1.84063172788E-02	-4.10285090078E-02	7.11387477152E-01	-6.75541761292E-01	7.08919541168E-01	-6.78513949272E-01	-3.49237141602E-02	-2.61039022714E-02
3.91954000000E+08	-2.98283486699E-02	-3.30146668519E-02	5.98280001754E-01	-7.76994506249E-01	5.95026942249E-01	-7.79875004685E-01	-4.16369685380E-02	-1.34072629389E-02
4.00453000000E+08	-3.74791750065E-02	-2.14519316686E-02	4.70794699368E-01	-8.60233760269E-01	4.66989301772E-01	-8.62540413195E-01	-4.31230301087E-02	7.16926260066E-04
4.08952000000E+08	-4.01792625633E-02	-7.94405999322E-03	3.31722807277E-01	-9.23014381766E-01	3.27941923607E-01	-9.24650287098E-01	-3.91780741170E-02	1.43772990925E-02
4.17451000000E+08	-3.76207998387E-02	5.54528998660E-03	1.84779488370E-01	-9.63527049240E-01	1.80378635660E-01	-9.64626176012E-01	-3.03681457693E-02	2.53875845333E-02
4.25950000000E+08	-3.01286017451E-02	1.71117635818E-02	3.26856009348E-02	-9.81124579740E-01	2.83920185476E-02	-9.81492356437E-01	-1.79147040043E-02	3.21872580887E-02
4.34449000000E+08	-1.86343614598E-02	2.50739124579E-02	-1.20315813262E-01	-9.74584317030E-01	-1.24730571371E-01	-9.74155619526E-01	-3.65848002723E-03	3.36996732203E-02
4.42948000000E+08	-4.69130225912E-03	2.82236425014E-02	-2.70969898452E-01	-9.44242880447E-01	-2.75020657592E-01	-9.43156147961E-01	1.03031474582E-02	2.95722910508E-02
4.51447000000E+08	9.77272827629E-03	2.59768961630E-02	-4.14669175160E-01	-8.90390104394E-01	-4.18786844349E-01	-8.88851692976E-01	2.19915803935E-02	2.02459281302E-02
4.59946000000E+08	2.27846987840E-02	1.84687689268E-02	-5.48390497086E-01	-8.14501409449E-01	-5.51939368918E-01	-8.12389338130E-01	2.96615105055E-02	6.98241058126E-03
4.68445000000E+08	3.25413244916E-02	6.62325257850E-03	-6.68207936134E-01	-7.18759115700E-01	-6.71756899595E-01	-7.16112915251E-01	3.21041037266E-02	-8.49398184553E-03
4.76944000000E+08	3.75716049098E-02	-8.03627687249E-03	-7.71463088768E-01	-6.05393367152E-01	-7.74486314931E-01	-6.02422264568E-01	2.88976748061E-02	-2.42048902058E-02
4.85443000000E+08	3.73194092904E-02	-2.35207966540E-02	-8.55498121328E-01	-4.77773053968E-01	-8.57765110724E-01	-4.74127496831E-01	2.03425017262E-02	-3.80324864145E-02
4.93942000000E+08	3.20909479260E-02	-3.78997905920E-02	-9.18368695987E-01	-3.39166835566E-01	-9.20059901324E-01	-3.35017208657E-01	7.56924995605E-03	-4.81084330947E-02
5.02441000000E+08	2.24897946224E-02	-4.96256145251E-02	-9.59228460995E-01	-1.92652763726E-01	-9.60101904552E-01	-1.88494113329E-01	-7.83154253944E-03	-5.31975141620E-02
5.10940000000E+08	9.73586961193E-03	-5.73653073736E-02	-9.76951634790E-01	-4.20426775756E-02	-9.77237905444E-01	-3.77290897104E-02	-2.38267014401E-02	-5.27631449999E-02
5.19439000000E+08	-4.59584589956E-03	-6.01473655888E-02	-9.71435322621E-01	1.09363235853E-01	-9.70994543221E-01	1.13518370335E-01	-3.84261596961E-02	-4.68866390195E-02
5.27938000000E+08	-1.86599178315E-02	-5.79136899766E-02	-9.43071747275E-01	2.58142989783E-01	-9.41947802859E-01	2.62281051066E-01	-4.97687088135E-02	-3.64694268260E-02
5.36437000000E+08	-3.07639803077E-02	-5.08774244743E-02	-8.92011836923E-01	4.01003195022E-01	-8.90357931089E-01	4.05046315733E-01	-5.64993957420E-02	-2.30272791236E-02
5.44936000000E+08	-3.93638389352E-02	-4.01473923790E-02	-8.19849329010E-01	5.34735153660E-01	-8.17521652131E-01	5.38103736346E-01	-5.79685843031E-02	-8.24823161299E-03
5.53435000000E+08	-4.34536096280E-02	-2.70746064479E-02	-7.27294632365E-01	6.56023526779E-01	-7.24661022520E-01	6.58947080137E-01	-5.38915158113E-02	5.90566223698E-03
5.61934000000E+08	-4.25524510256E-02	-1.34137177044E-02	-6.16854249615E-01	7.61490537776E-01	-6.13770853521E-01	7.64150594158E-01	-4.48740898030E-02	1.75718204950E-02
5.70433000000E+08	-3.67587003182E-02	-8.90317803618E-04	-4.90832512512E-01	8.48565054473E-01	-4.87415565891E-01	8.50806511961E-01	-3.21305838090E-02	2.52171655983E-02
5.78932000000E+08	-2.68997449313E-02	8.94969596762E-03	-3.52645303849E-01	9.15045237034E-01	-3.48704609919E-01	9.16665076374E-01	-1.73887124883E-02	2.78089920023E-02
5.87431000000E+08	-1.41446562233E-02	1.49357501609E-02	-2.05515852659E-01	9.58737127499E-01	-2.01427487699E-01	9.59869905765E-01	-2.46088973586E-03	2.49974299939E-02
5.95930000000E+08	-4.64119150178E-05	1.63351170593E-02	-5.35758631100E-02	9.78475055470E-01	-4.93345533714E-02	9.79072652575E-01	1.06819913373E-02	1.71670621904E-02
6.04429000000E+08	1.37132012810E-02	1.31621428487E-02	9.97140094202E-02	9.74290702693E-01	1.03818129964E-01	9.74120220665E-01	2.04760626296E-02	5.22198683524E-03
6.12928000000E+08	2.56194944217E-02	5.83988633361E-03	2.49763755391E-01	9.46015577897E-01	2.53877101551E-01	9.45167653994E-01	2.56729872596E-02	-9.24343008706E-03
6.21427000000E+08	3.43830756872E-02	-4.66866627772E-03	3.93412848388E-01	8.94978728837E-01	3.97219992156E-01	8.93316529562E-01	2.57847406620E-02	-2.44940781468E-02
6.29926000000E+08	3.92181604881E-02	-1.70006174408E-02	5.26965400678E-01	8.22307380932E-01	5.30498407087E-01	8.20201930196E-01	2.08968668885E-02	-3.87191176498E-02
6.38425000000E+08	3.97406339239E-02	-2.96743812291E-02	6.47091641032E-01	7.30753932379E-01	6.50240433595E-01	7.27879181059E-01	1.17066988139E-02	-5.01732749501E-02
6.46924000000E+08	3.61425287850E-02	-4.12220640012E-02	7.51993808185E-01	6.21947295338E-01	7.54320106341E-01	6.18553322612E-01	-5.86330451330E-04	-5.76572920785E-02
6.55423000000E+08	2.90832757414E-02	-5.03667282548E-02	8.39126096976E-01	4.97868693968E-01	8.40834119724E-01	4.94463753336E-01	-1.43295147855E-02	-6.03319614477E-02
6.63922000000E+08	1.95427019545E-02	-5.61735251633E-02	9.06062407323E-01	3.62462993506E-01	9.07360942287E-01	3.58805694706E-01	-2.77826906572E-02	-5.79285058107E-02
6.72421000000E+08	8.82427510944E-03	-5.80669779730E-02	9.51678579882E-01	2.17791090986E-01	9.52370186115E-01	2.14013550677E-01	-3.92837014688E-02	-5.08421333497E-02
6.80920000000E+08	-1.67635148203E-03	-5.58712579339E-02	9.74435257497E-01	6.73865835738E-02	9.74580866424E-01	6.35788575688E-02	-4.73895545590E-02	-4.01051432091E-02
6.89419000000E+08	-1.06976067547E-02	-4.99267851396E-02	9.73591312431E-01	-8.47757278045E-02	9.73233451713E-01	-8.84374301853E-02	-5.10720569077E-02	-2.70602688399E-02
6.97918000000E+08	-1.70403511709E-02	-4.10263275012E-02	9.49073654032E-01	-2.35279780539E-01	9.48292793662E-01	-2.38832238129E-01	-4.97826299089E-02	-1.33870541826E-02
7.06417000000E+08	-1.98911716035E-02	-3.03444467911E-02	9.01210078792E-01	-3.80401367107E-01	8.99732732249E-01	-3.83913268743E-01	-4.37629453655E-02	-8.26022842582E-04
7.14916000000E+08	-1.90317647786E-02	-1.91798749173E-02	8.30745992927E-01	-5.16292780018E-01	8.28864220904E-01	-5.19575333382E-01	-3.36319077847E-02	9.01999802171E-03
7.23415000000E+08	-1.45158538913E-02	-8.76630242438E-03	7.40043728457E-01	-6.39215296803E-01	7.37381285882E-01	-6.42368530578E-01	-2.05928185548E-02	1.50168050654E-02
7.31914000000E+08	-6.97984765450E-03	-2.46260829873E-04	6.31013486633E-01	-7.46457817898E-01	6.28168993452E-01	-7.49098950563E-01	-6.32044971924E-03	1.63377418373E-02
7.40413000000E+08	2.78976837134E-03	5.45386645325E-03	5.06815196556E-01	-8.35193801462E-01	5.03492129270E-01	-8.37111437108E-01	7.53470939224E-03	1.29373033297E-02
7.48912000000E+08	1.34963112831E-02	7.74349521633E-03	3.70625302741E-01	-9.03392646171E-01	3.67040610007E-01	-9.04493942956E-01	1.92448450124E-02	5.29574725615E-03
7.57411000000E+08	2.39710024310E-02	6.51830994426E-03	2.25765983357E-01	-9.49359464435E-01	2.22078291400E-01	-9.49866288778E-01	2.76552483327E-02	-5.58945846818E-03
7.65910000000E+08	3.30133816926E-02	2.17147329150E-03	7.58429534143E-02	-9.72199058115E-01	7.21806283761E-02	-9.72116627620E-01	3.16380705117E-02	-1.82271082556E-02
7.74409000000E+08	3.96234977250E-02	-4.59155580819E-03	-7.56841273297E-02	-9.71869696508E-01	-7.91983490357E-02	-9.71150263353E-01	3.09548794933E-02	-3.10146541221E-02
7.82908000000E+08	4.31968135227E-02	-1.28360565086E-02	-2.25037058106E-01	-9.48368082285E-01	-2.28296821042E-01	-9.47161010369E-01	2.59137305968E-02	-4.22530222225E-02
7.91407000000E+08	4.33883998259E-02	-2.14165559958E-02	-3.69195279912E-01	-9.02238846336E-01	-3.71980217133E-01	-9.00634483474E-01	1.72752491404E-02	-5.04944881572E-02
7.99906000000E+08	4.02899128566E-02	-2.91251075057E-02	-5.04468772128E-01	-8.34402632206E-01	-5.07086298769E-01	-8.32380399532E-01	6.26237261972E-03	-5.47458941411E-02
8.08405000000E+08	3.44727308525E-02	-3.50554060031E-02	-6.28001188658E-01	-7.46408649239E-01	-6.30334485323E-01	-7.44221387557E-01	-5.46780186554E-03	-5.44659614180E-02
8.16904000000E+08	2.66645257726E-02	-3.83066980530E-02	-7.36539000807E-01	-6.40061958123E-01	-7.38620912904E-01	-6.37680759787E-01	-1.62899823935E-02	-4.97192621621E-02
8.25403000000E+08	1.80323573323E-02	-3.86151217097E-02	-8.27562302333E-01	-5.17812095784E-01	-8.29206933769E-01	-5.15387127387E-01	-2.47078151023E-02	-4.10912595119E-02
8.33902000000E+08	9.53940738385E-03	-3.57181340306E-02	-8.98264524730E-01	-3.82835218998E-01	-8.99525060894E-01	-3.79969185344E-01	-2.94853045689E-02	-2.98315810866E-02
8.42401000000E+08	2.42045023216E-03	-2.99985569172E-02	-9.46781133597E-01	-2.38431987457E-01	-9.47767487445E-01	-2.35093941315E-01	-3.00387151505E-02	-1.75245758092E-02
8.50900000000E+08	-2.50187618322E-03	-2.22780651820E-02	-9.72293460101E-01	-8.79985408675E-02	-9.72743117731E-01	-8.45316750353E-02	-2.63078645891E-02	-5.73705371953E-03
8.59399000000E+08	-4.65545744428E-03	-1.35538527574E-02	-9.73911785984E-01	6.43063285734E-02	-9.73555068863E-01	6.77842302399E-02	-1.87645356349E-02	3.95964793410E-03
8.67898000000E+08	-3.88417953631E-03	-4.87991765633E-03	-9.51572552537E-01	2.14960579233E-01	-9.50656556364E-01	2.18135189866E-01	-8.64608416424E-03	1.03078612995E-02
8.76397000000E+08	-5.32499454126E-04	2.67352623676E-03	-9.06377945033E-01	3.59672984187E-01	-9.04766594006E-01	3.62627164182E-01	2.63239211209E-03	1.25443060518E-02
8.84896000000E+08	4.83687425987E-03	8.13025151405E-03	-8.39252797554E-01	4.95639615788E-01	-8.37284002304E-01	4.98222650550E-01	1.33745269778E-02	1.06310754061E-02
8.93395000000E+08	1.13154415596E-02	1.09747878574E-02	-7.51836005897E-01	6.19583266016E-01	-7.49659793148E-01	6.21638261256E-01	2.20547987348E-02	5.09986711623E-03
9.01894000000E+08	1.77846843888E-02	1.09778407039E-02	-6.46697326300E-01	7.28413435102E-01	-6.44426541316E-01	7.29965977433E-01	2.75069101965E-02	-3.02218789172E-03
9.10393000000E+08	2.32754996140E-02	8.35819702794E-03	-5.25966264693E-01	8.19766273340E-01	-5.23575208880E-01	8.21128161393E-01	2.89962742534E-02	-1.23630873447E-02
9.18892000000E+08	2.68279503006E-02	3.71819523651E-03	-3.92574531905E-01	8.91507635352E-01	-3.89966641692E-01	8.92388063993E-01	2.63184924945E-02	-2.12810221730E-02
9.27391000000E+08	2.79216158276E-02	-2.12443689011E-03	-2.49508369842E-01	9.41539894154E-01	-2.46992657169E-01	9.42242910281E-01	2.00330423583E-02	-2.82344594830E-02
9.35890000000E+08	2.62654023142E-02	-8.20062125673E-03	-1.00158012421E-01	9.69057814329E-01	-9.72042175409E-02	9.69392378013E-01	1.11172987511E-02	-3.20295425642E-02
9.44389000000E+08	2.20700094749E-02	-1.33525160709E-02	5.17413598300E-02	9.72960509543E-01	5.45825133306E-02	9.72850459115E-01	1.04921087104E-03	-3.19715354830E-02
9.52888000000E+08	1.58906939926E-02	-1.67061686962E-02	2.02323686564E-01	9.53041040028E-01	2.05526938081E-01	9.52293753769E-01	-8.58123719491E-03	-2.79166472728E-02
9.61387000000E+08	8.66957872476E-03	-1.76160444918E-02	3.47924281133E-01	9.09801766524E-01	3.50905943040E-01	9.08642785893E-01	-1.62402280088E-02	-2.04467101986E-02
9.69886000000E+08	1.48911520107E-03	-1.58875191207E-02	4.85196948204E-01	8.44209278551E-01	4.87766573628E-01	8.42518886021E-01	-2.06629777539E-02	-1.05513363682E-02
9.78385000000E+08	-4.55374444363E-03	-1.17594626618E-02	6.10197543362E-01	7.58183911948E-01	6.12523213193E-01	7.56298541933E-01	-2.12456367675E-02	1.44703539640E-04
9.86884000000E+08	-8.49394932043E-03	-5.93273485881E-03	7.20296307847E-01	6.54198961273E-01	7.21905757571E-01	6.51654537785E-01	-1.80003191563E-02	9.95125129679E-03
9.95383000000E+08	-9.72934333388E-03	7.19954261320E-04	8.12760689411E-01	5.34340952587E-01	8.13800107462E-01	5.31576326385E-01	-1.15096059646E-02	1.73493025287E-02
