# Hz S DB R 50
! CMT, S5180, 51801906, 22.3.3/1
! Date: 27/01/2023 17:18:47
! Data: Format (Calibration Info)
! Freq	S11:dB/Ang(F2)	S21:dB/Ang(F2)	S12:dB/Ang(F2)	S22:dB/Ang(F2)
5.00000000000E+05	-5.46472310400E+00	-1.12840352069E+01	-5.68003984699E+01	-3.43348310780E+01	-2.80115712335E+01	5.87737142713E+01	-4.30678376066E-01	5.81271124075E+00
2.04975000000E+07	-6.07672578335E+00	1.74616288785E+02	-5.93667012538E+00	-3.15810742300E+00	-6.03585752332E+00	-2.29985146428E+00	-6.11545302023E+00	1.78117946309E+02
4.04950000000E+07	-6.05045373539E+00	1.70594573397E+02	-5.97377540376E+00	-5.66915134561E+00	-6.04791236529E+00	-5.08883405262E+00	-6.21689684465E+00	1.73707075218E+02
6.04925000000E+07	-6.08524329555E+00	1.65315567437E+02	-6.01253089860E+00	-8.36364771216E+00	-6.08090301602E+00	-7.87166098103E+00	-6.19939671643E+00	1.69386401637E+02
8.04900000000E+07	-6.06696266884E+00	1.59814682214E+02	-6.02076871916E+00	-1.08979775144E+01	-6.08227565102E+00	-1.04970606275E+01	-6.12744525724E+00	1.65153395028E+02
1.00487500000E+08	-6.03951148761E+00	1.54532083958E+02	-5.98992641490E+00	-1.34810465573E+01	-6.03831674460E+00	-1.31146891806E+01	-6.05164235519E+00	1.61261843687E+02
1.20485000000E+08	-6.04477936627E+00	1.49376997546E+02	-5.93472119838E+00	-1.60425507774E+01	-5.96763708080E+00	-1.56882443846E+01	-6.00941656144E+00	1.57441765182E+02
1.40482500000E+08	-6.08687026473E+00	1.44013678385E+02	-5.85458129349E+00	-1.85748696217E+01	-5.86192350653E+00	-1.82878703035E+01	-6.00612615261E+00	1.53281758548E+02
1.60480000000E+08	-6.14833152627E+00	1.38495895787E+02	-5.75904552233E+00	-2.13075236069E+01	-5.73909502161E+00	-2.11815190204E+01	-6.01614605830E+00	1.48777931785E+02
1.80477500000E+08	-6.20791418791E+00	1.33033928273E+02	-5.66867050800E+00	-2.41575513776E+01	-5.63665505888E+00	-2.42859843544E+01	-5.98787282023E+00	1.44223972900E+02
2.00475000000E+08	-6.29038742583E+00	1.27738965673E+02	-5.55648408458E+00	-2.71088858128E+01	-5.53207351278E+00	-2.74820744229E+01	-5.95594031243E+00	1.39966992007E+02
2.20472500000E+08	-6.44146816046E+00	1.22403454248E+02	-5.42265340858E+00	-3.04116369918E+01	-5.42217978776E+00	-3.09129955426E+01	-5.96742410165E+00	1.35808318327E+02
2.40470000000E+08	-6.58955701358E+00	1.16593038393E+02	-5.32753613374E+00	-3.39986043583E+01	-5.34278244456E+00	-3.44673029808E+01	-5.98748601622E+00	1.31308201888E+02
2.60467500000E+08	-6.71770322532E+00	1.10467639582E+02	-5.25314871776E+00	-3.76314983079E+01	-5.27871320198E+00	-3.80474528453E+01	-5.99355769280E+00	1.26357153018E+02
2.80465000000E+08	-6.81239334291E+00	1.04571612109E+02	-5.18218768493E+00	-4.12078872826E+01	-5.23120125808E+00	-4.16230388078E+01	-5.92150407368E+00	1.21344028697E+02
3.00462500000E+08	-6.94693211655E+00	9.89444746250E+01	-5.14787181344E+00	-4.49438723773E+01	-5.21649338594E+00	-4.52177471660E+01	-5.84202436868E+00	1.16680501627E+02
3.20460000000E+08	-7.16276624387E+00	9.29931624858E+01	-5.16211511079E+00	-4.87522432152E+01	-5.24363600040E+00	-4.86648193550E+01	-5.80258374829E+00	1.11954231415E+02
3.40457500000E+08	-7.39528948917E+00	8.65866975318E+01	-5.19955806998E+00	-5.23380802767E+01	-5.25965479883E+00	-5.18342480733E+01	-5.77360942108E+00	1.07082597819E+02
3.60455000000E+08	-7.58841743864E+00	8.00634418648E+01	-5.20382129575E+00	-5.57758346497E+01	-5.23499794307E+00	-5.50157712682E+01	-5.71295664925E+00	1.02124910976E+02
3.80452500000E+08	-7.77433266456E+00	7.38544842385E+01	-5.19498994686E+00	-5.93479238869E+01	-5.21187603207E+00	-5.83758903620E+01	-5.59490600700E+00	9.74448158650E+01
4.00450000000E+08	-8.03581727357E+00	6.78036802684E+01	-5.23506988914E+00	-6.30476542345E+01	-5.23915132358E+00	-6.15373886086E+01	-5.49056906412E+00	9.30245924560E+01
4.20447500000E+08	-8.37353264391E+00	6.14677683547E+01	-5.33484211081E+00	-6.63471948363E+01	-5.25096336164E+00	-6.41254043644E+01	-5.42200876119E+00	8.86788568963E+01
4.40445000000E+08	-8.68038326544E+00	5.46923315453E+01	-5.39376633281E+00	-6.91147663667E+01	-5.15285307029E+00	-6.65835113715E+01	-5.32058805378E+00	8.44502951064E+01
4.60442500000E+08	-8.89197034524E+00	4.77087080108E+01	-5.36229539234E+00	-7.20582518521E+01	-4.98643476193E+00	-6.97768385957E+01	-5.16946206870E+00	8.01897654866E+01
4.80440000000E+08	-9.12131977636E+00	4.09908623575E+01	-5.32971506007E+00	-7.54228608114E+01	-4.88145760039E+00	-7.33144526974E+01	-5.02434390952E+00	7.60294062870E+01
5.00437500000E+08	-9.44298168188E+00	3.45560231415E+01	-5.36231113444E+00	-7.85649199182E+01	-4.79385153992E+00	-7.63713807929E+01	-4.90777479894E+00	7.20505612874E+01
5.20435000000E+08	-9.82854112432E+00	2.75721525128E+01	-5.33504811870E+00	-8.09608957841E+01	-4.56818675946E+00	-7.92386094328E+01	-4.80261621130E+00	6.80823700532E+01
5.40432500000E+08	-1.02949313007E+01	1.91143665400E+01	-5.14211535037E+00	-8.34132035590E+01	-4.23134312887E+00	-8.33023571922E+01	-4.72517974444E+00	6.30345631535E+01
5.60430000000E+08	-1.08917295234E+01	9.91941642462E+00	-4.89224649364E+00	-8.70472631491E+01	-4.00529985988E+00	-8.85836015102E+01	-4.74304771449E+00	5.72043181503E+01
5.80427500000E+08	-1.15536557919E+01	6.64856999116E-01	-4.73992526231E+00	-9.10480163963E+01	-3.92474993421E+00	-9.38252430170E+01	-4.77264039845E+00	5.09031051531E+01
6.00425000000E+08	-1.23665982722E+01	-9.71177327169E+00	-4.51570267994E+00	-9.47874928906E+01	-3.82529244029E+00	-9.91223391069E+01	-4.77879484151E+00	4.41431614225E+01
6.20422500000E+08	-1.35561014665E+01	-2.11726169663E+01	-4.13118972269E+00	-1.00168269919E+02	-3.76454612712E+00	-1.05515606899E+02	-4.88713289540E+00	3.73176254561E+01
6.40420000000E+08	-1.48850681852E+01	-3.24508004965E+01	-4.00216170998E+00	-1.07879225359E+02	-3.93180631159E+00	-1.12451177396E+02	-5.05784776404E+00	3.06185739380E+01
6.60417500000E+08	-1.57919001804E+01	-4.48643672718E+01	-4.27431221589E+00	-1.15285970783E+02	-4.25660673954E+00	-1.18681267943E+02	-5.16290050395E+00	2.25547720212E+01
6.80415000000E+08	-1.63923862228E+01	-5.87233278196E+01	-4.66019801778E+00	-1.21217721506E+02	-4.61721781275E+00	-1.24385487013E+02	-5.14231171232E+00	1.29067210882E+01
7.00412500000E+08	-1.69819836106E+01	-7.25142362110E+01	-5.02412025473E+00	-1.26949646672E+02	-5.05964382578E+00	-1.30109217552E+02	-4.96200432031E+00	3.13691815569E+00
7.20410000000E+08	-1.76416857373E+01	-8.67950349345E+01	-5.56113917389E+00	-1.33150139643E+02	-5.66804991212E+00	-1.35457411985E+02	-4.73461839803E+00	-5.69413436291E+00
7.40407500000E+08	-1.81562605565E+01	-1.04110747053E+02	-6.42641928278E+00	-1.38336455392E+02	-6.41327878272E+00	-1.39587446554E+02	-4.64812698831E+00	-1.44243502291E+01
7.60405000000E+08	-1.83676139034E+01	-1.23036236530E+02	-7.40661756594E+00	-1.41271458701E+02	-7.15416925721E+00	-1.42721061080E+02	-4.65275783584E+00	-2.37194129517E+01
7.80402500000E+08	-1.85177840181E+01	-1.40397680367E+02	-8.31618307132E+00	-1.42666993272E+02	-7.90270667493E+00	-1.45532747462E+02	-4.55277859392E+00	-3.33997155572E+01
8.00400000000E+08	-1.89852389090E+01	-1.57383998643E+02	-9.24982640601E+00	-1.43225034877E+02	-8.74030982678E+00	-1.47687829727E+02	-4.33898894695E+00	-4.23243510977E+01
8.20397500000E+08	-1.97580097659E+01	-1.77509076104E+02	-1.02615657760E+01	-1.41195832372E+02	-9.63618698027E+00	-1.48213656748E+02	-4.15897477649E+00	-4.95930797118E+01
8.40395000000E+08	-2.02579818938E+01	1.57976993264E+02	-1.09414266648E+01	-1.35479634444E+02	-1.04861703938E+01	-1.46657139629E+02	-4.13752576021E+00	-5.55996198704E+01
8.60392500000E+08	-2.03525216535E+01	1.32475796658E+02	-1.08927956868E+01	-1.29315686372E+02	-1.11298731925E+01	-1.42867726775E+02	-4.26484817311E+00	-6.13239126170E+01
8.80390000000E+08	-2.02516156348E+01	1.05177923137E+02	-1.05404519549E+01	-1.25717427869E+02	-1.14016678430E+01	-1.37833843307E+02	-4.48747641402E+00	-6.73282669903E+01
9.00387500000E+08	-1.94211734339E+01	7.54495471348E+01	-1.02098124401E+01	-1.22473719549E+02	-1.13188559509E+01	-1.33298715517E+02	-4.76033631361E+00	-7.33666758431E+01
9.20385000000E+08	-1.76391105644E+01	5.09986506426E+01	-9.50894733416E+00	-1.18371369241E+02	-1.10432326597E+01	-1.29811369825E+02	-5.07081587467E+00	-7.88069242966E+01
9.40382500000E+08	-1.57499616187E+01	3.44764295692E+01	-8.22183199723E+00	-1.17363897848E+02	-1.05729648276E+01	-1.26703978153E+02	-5.44596801152E+00	-8.32441637232E+01
9.60380000000E+08	-1.43246913141E+01	2.13037406081E+01	-7.07985124112E+00	-1.21986964282E+02	-9.74113156250E+00	-1.24571999299E+02	-5.94288670855E+00	-8.74221405446E+01
9.80377500000E+08	-1.34338912216E+01	8.99641887559E+00	-6.56599350974E+00	-1.27939465564E+02	-8.70488891399E+00	-1.25203641953E+02	-6.68539507989E+00	-9.23885261511E+01
1.00037500000E+09	-1.27920012648E+01	-1.61585802251E+00	-6.26732016227E+00	-1.32021501312E+02	-7.89560349755E+00	-1.28127950693E+02	-7.56811704525E+00	-9.83134096565E+01
1.02037250000E+09	-1.22371920199E+01	-1.04351381681E+01	-5.77405554697E+00	-1.35632555806E+02	-7.30244719409E+00	-1.30732384899E+02	-8.31771183239E+00	-1.05145767574E+02
1.04037000000E+09	-1.18740630130E+01	-1.85089366097E+01	-5.24106093062E+00	-1.41011833873E+02	-6.55103604944E+00	-1.33104292387E+02	-8.93441744177E+00	-1.12623570279E+02
1.06036750000E+09	-1.19885156965E+01	-2.67683721240E+01	-5.03944073258E+00	-1.47458614368E+02	-5.65110286813E+00	-1.38109517771E+02	-9.74321555173E+00	-1.20204579914E+02
1.08036500000E+09	-1.23738956653E+01	-3.40433760068E+01	-5.08676466681E+00	-1.52385246141E+02	-5.12400444100E+00	-1.45403771520E+02	-1.07417933279E+01	-1.27118574621E+02
1.10036250000E+09	-1.26542794555E+01	-4.12220099197E+01	-5.03853060451E+00	-1.55952964975E+02	-4.97883283153E+00	-1.51436606854E+02	-1.14932321676E+01	-1.35753354008E+02
1.12036000000E+09	-1.29964812583E+01	-4.80561713694E+01	-4.82587969436E+00	-1.59896712097E+02	-4.78737458529E+00	-1.55692270188E+02	-1.18910756459E+01	-1.45838800224E+02
1.14035750000E+09	-1.35556055588E+01	-5.41827856288E+01	-4.68042157737E+00	-1.64666510944E+02	-4.44312397215E+00	-1.60539188097E+02	-1.20793347895E+01	-1.54717498298E+02
1.16035500000E+09	-1.42964147893E+01	-6.04241914438E+01	-4.67592836196E+00	-1.68979101117E+02	-4.26001075013E+00	-1.66709951337E+02	-1.21057225411E+01	-1.61274355104E+02
1.18035250000E+09	-1.50650702317E+01	-6.93360449279E+01	-4.62809344067E+00	-1.72238142995E+02	-4.36590523284E+00	-1.72186311468E+02	-1.20128192211E+01	-1.67030321813E+02
1.20035000000E+09	-1.58008390822E+01	-8.02953901198E+01	-4.42479192570E+00	-1.75665820219E+02	-4.48859917658E+00	-1.75751353013E+02	-1.19115568280E+01	-1.72313189896E+02
1.22034750000E+09	-1.62480300335E+01	-9.09640293312E+01	-4.23406833063E+00	1.79831661736E+02	-4.38650781620E+00	-1.78881977280E+02	-1.18632391544E+01	-1.75951775226E+02
1.24034500000E+09	-1.64355939140E+01	-1.01332708263E+02	-4.16131971126E+00	1.75184219221E+02	-4.23577566636E+00	1.76828845056E+02	-1.19016471825E+01	-1.78015325199E+02
1.26034250000E+09	-1.64869682531E+01	-1.12496105206E+02	-4.10809817989E+00	1.71098551832E+02	-4.23540060753E+00	1.72312019080E+02	-1.19139566911E+01	-1.79296210972E+02
1.28034000000E+09	-1.62486264382E+01	-1.23358549826E+02	-3.99811507755E+00	1.66876664744E+02	-4.27118141715E+00	1.68725515150E+02	-1.19574593883E+01	1.79814008107E+02
1.30033750000E+09	-1.55596152296E+01	-1.32889280838E+02	-3.95850436415E+00	1.61907930731E+02	-4.18666312510E+00	1.65413051299E+02	-1.20162203228E+01	1.79192820871E+02
1.32033500000E+09	-1.47601839711E+01	-1.41114751283E+02	-4.05794020584E+00	1.57168559191E+02	-4.03552555320E+00	1.61280275257E+02	-1.22438082844E+01	1.79175891988E+02
1.34033250000E+09	-1.42008643811E+01	-1.47805619654E+02	-4.13397806100E+00	1.53118094883E+02	-3.97093898432E+00	1.56573023926E+02	-1.24393760290E+01	-1.79977703056E+02
1.36033000000E+09	-1.38225702647E+01	-1.53943535850E+02	-4.13848030552E+00	1.48991721020E+02	-3.98654906025E+00	1.52088517150E+02	-1.25730838597E+01	-1.79040658229E+02
1.38032750000E+09	-1.35233838082E+01	-1.60253806968E+02	-4.16854176434E+00	1.44670185275E+02	-4.00968931512E+00	1.47730545280E+02	-1.28519337476E+01	-1.77918391927E+02
1.40032500000E+09	-1.32262797568E+01	-1.66292633322E+02	-4.25716537031E+00	1.40800444063E+02	-4.03250659877E+00	1.43223279643E+02	-1.33509291772E+01	-1.76215077791E+02
1.42032250000E+09	-1.29819086669E+01	-1.70914351939E+02	-4.28883060349E+00	1.37438960553E+02	-4.02768862858E+00	1.38929845749E+02	-1.40227068861E+01	-1.76639698563E+02
1.44032000000E+09	-1.29099980925E+01	-1.74479553303E+02	-4.22338243962E+00	1.33714732720E+02	-3.96064853830E+00	1.34669187614E+02	-1.48281517399E+01	1.79120186207E+02
1.46031750000E+09	-1.30972426029E+01	-1.77914977250E+02	-4.17493630272E+00	1.29261334423E+02	-3.93432668382E+00	1.30413185158E+02	-1.53142503989E+01	1.72722372433E+02
1.48031500000E+09	-1.35403516449E+01	1.77380145655E+02	-4.18479851683E+00	1.24727466475E+02	-3.98888160949E+00	1.26473141324E+02	-1.54667466253E+01	1.67549115106E+02
1.50031250000E+09	-1.41703660555E+01	1.71330022040E+02	-4.18857689194E+00	1.20745666523E+02	-4.03193649747E+00	1.22882666048E+02	-1.58174703146E+01	1.63135166571E+02
1.52031000000E+09	-1.50480908867E+01	1.65536231258E+02	-4.10808634852E+00	1.16926477433E+02	-3.94869431046E+00	1.18918851613E+02	-1.66820850297E+01	1.56098795953E+02
1.54030750000E+09	-1.61398989265E+01	1.61241941875E+02	-3.99080077904E+00	1.12519888178E+02	-3.82804758827E+00	1.13977143400E+02	-1.76237095951E+01	1.43381275697E+02
1.56030500000E+09	-1.74757176272E+01	1.54420425842E+02	-3.98680838772E+00	1.07333350506E+02	-3.82847376831E+00	1.08871491773E+02	-1.72178919059E+01	1.27947197665E+02
1.58030250000E+09	-1.92172265975E+01	1.39847136993E+02	-4.09393123358E+00	1.02283297557E+02	-3.87331200608E+00	1.04677904392E+02	-1.57107017728E+01	1.16736335931E+02
1.60030000000E+09	-2.04841148440E+01	1.16221810506E+02	-4.17981325833E+00	9.77406523241E+01	-3.81122220170E+00	1.00723092370E+02	-1.41457099714E+01	1.11331433657E+02
1.62029750000E+09	-2.03715449579E+01	9.49936324213E+01	-4.16458311775E+00	9.29322370286E+01	-3.69690756524E+00	9.51936904919E+01	-1.30282908169E+01	1.08788768804E+02
1.64029500000E+09	-1.93205141809E+01	8.01511209041E+01	-4.14620386061E+00	8.73233931798E+01	-3.84831020914E+00	8.85135850646E+01	-1.22630520361E+01	1.06905223241E+02
1.66029250000E+09	-1.80661295329E+01	6.56662298300E+01	-4.27399484828E+00	8.13749926552E+01	-4.23489734955E+00	8.28683453157E+01	-1.17249563733E+01	1.03738864123E+02
1.68029000000E+09	-1.65884778616E+01	5.27077923406E+01	-4.47199613061E+00	7.57907922047E+01	-4.51826410195E+00	7.85234864407E+01	-1.11149446359E+01	9.92062224297E+01
1.70028750000E+09	-1.51299128532E+01	4.33243991995E+01	-4.61821485063E+00	7.03281695574E+01	-4.61833374664E+00	7.36583118588E+01	-1.01493842609E+01	9.46921458378E+01
1.72028500000E+09	-1.40137786230E+01	3.66268233157E+01	-4.79281339625E+00	6.38506585513E+01	-4.90150179214E+00	6.74163039697E+01	-9.12184514268E+00	9.18946179514E+01
1.74028250000E+09	-1.34230575906E+01	3.12827493302E+01	-5.20829840102E+00	5.68880281481E+01	-5.58279466691E+00	6.22525317668E+01	-8.41790848890E+00	9.13501655623E+01
1.76028000000E+09	-1.29867795802E+01	2.55444005084E+01	-5.86898283073E+00	5.11120454751E+01	-6.28607269602E+00	5.97435232839E+01	-7.99359265347E+00	9.10595485161E+01
1.78027750000E+09	-1.25475059429E+01	1.91139086929E+01	-6.47178125150E+00	4.66050548615E+01	-6.65496462109E+00	5.74064049172E+01	-7.75954457820E+00	8.81298481397E+01
1.80027500000E+09	-1.23174201770E+01	1.38729831806E+01	-6.99096734387E+00	4.15792631622E+01	-6.97651078539E+00	5.32237901256E+01	-7.54227443627E+00	8.28898323554E+01
1.82027250000E+09	-1.24430405436E+01	1.04825928488E+01	-7.76198120779E+00	3.52941917819E+01	-7.59594119896E+00	4.91799511705E+01	-7.15945109475E+00	7.74985475443E+01
1.84027000000E+09	-1.30692458539E+01	7.22157634795E+00	-9.05860577341E+00	3.06840816967E+01	-8.29607416100E+00	4.81605323323E+01	-6.62000152110E+00	7.23600231463E+01
1.86026750000E+09	-1.42727952556E+01	2.53760172771E+00	-1.04494420802E+01	3.07572095308E+01	-8.54222903310E+00	4.80508744308E+01	-6.11177548123E+00	6.58792912804E+01
1.88026500000E+09	-1.59904586442E+01	-2.20651375184E+00	-1.12871107653E+01	3.29807186046E+01	-8.62602204399E+00	4.51130468453E+01	-5.78963241697E+00	5.82636551161E+01
1.90026250000E+09	-1.80288028606E+01	-5.27893004462E+00	-1.18532877987E+01	3.31416615783E+01	-9.09820736666E+00	4.08559141773E+01	-5.51557129592E+00	5.05437800392E+01
1.92026000000E+09	-2.07875329298E+01	-5.85746251066E+00	-1.27862262265E+01	3.29852929922E+01	-9.91172007707E+00	3.84390784430E+01	-5.31004917953E+00	4.21776844666E+01
1.94025750000E+09	-2.54147790815E+01	-1.23383328814E+00	-1.38820106524E+01	3.71570792163E+01	-1.06639658994E+01	3.82310466051E+01	-5.11797185228E+00	3.20125340633E+01
1.96025500000E+09	-3.43123024504E+01	3.29516830721E+01	-1.43164235079E+01	4.49090492102E+01	-1.12121506444E+01	3.85532010108E+01	-4.80367925124E+00	2.03156763695E+01
1.98025250000E+09	-3.09457291662E+01	1.24087085875E+02	-1.40518616425E+01	5.09401237313E+01	-1.16739901371E+01	3.94379026965E+01	-4.20176882087E+00	9.23931182501E+00
2.00025000000E+09	-2.53732573664E+01	1.35040007244E+02	-1.36750572333E+01	5.43619446653E+01	-1.19483665401E+01	4.22072629305E+01	-3.54621785056E+00	3.35849928760E-01
2.02024750000E+09	-2.23797667983E+01	1.31242442625E+02	-1.32883978669E+01	5.82167064838E+01	-1.18662198292E+01	4.63173810435E+01	-3.15430198976E+00	-7.01096634726E+00
2.04024500000E+09	-2.02286486197E+01	1.24128691315E+02	-1.24540668574E+01	6.23170105995E+01	-1.14149971591E+01	4.97561247093E+01	-3.05128402620E+00	-1.43808151339E+01
2.06024250000E+09	-1.85460309449E+01	1.16919934956E+02	-1.11322139202E+01	6.26455628871E+01	-1.07346188361E+01	5.09208005141E+01	-3.11826901751E+00	-2.23455882089E+01
2.08024000000E+09	-1.74601376052E+01	1.10057230071E+02	-1.00473995443E+01	5.79393430148E+01	-9.98709984338E+00	4.96207911720E+01	-3.16873432049E+00	-3.00694855579E+01
2.10023750000E+09	-1.71591939833E+01	1.01661579288E+02	-9.62564378500E+00	5.21663792099E+01	-9.34314136907E+00	4.62764156340E+01	-3.18431554279E+00	-3.69650439484E+01
2.12023500000E+09	-1.72609434545E+01	8.90469320599E+01	-9.50481422812E+00	4.87922021014E+01	-8.95896869620E+00	4.20165088704E+01	-3.39082345879E+00	-4.30247183640E+01
2.14023250000E+09	-1.72381545790E+01	7.27982785357E+01	-9.24295092869E+00	4.66623137038E+01	-8.71522041773E+00	3.80058421862E+01	-3.70062585583E+00	-4.84266684700E+01
2.16023000000E+09	-1.66354059718E+01	5.51118812303E+01	-8.91616495516E+00	4.35943225839E+01	-8.56510521075E+00	3.38168209427E+01	-4.16349839851E+00	-5.40558417467E+01
2.18022750000E+09	-1.58778396692E+01	3.78485204761E+01	-8.85930378950E+00	4.00758089588E+01	-8.61001772020E+00	2.91932744055E+01	-4.73315141057E+00	-6.04258811127E+01
2.20022500000E+09	-1.50204657531E+01	2.06563624594E+01	-8.90234686754E+00	3.84808144556E+01	-8.90836771856E+00	2.50441869135E+01	-5.29423067492E+00	-6.77161587089E+01
2.22022250000E+09	-1.36423146982E+01	4.41967409177E+00	-8.71484669141E+00	3.80165667891E+01	-9.36048863357E+00	2.21624084820E+01	-5.71169960496E+00	-7.51498987304E+01
2.24022000000E+09	-1.19434557584E+01	-8.24464899044E+00	-8.26934323987E+00	3.72604364228E+01	-9.78761168825E+00	2.12110306716E+01	-6.01215939251E+00	-8.20356632122E+01
2.26021750000E+09	-1.03734286863E+01	-1.71300402463E+01	-7.69041361682E+00	3.52064110134E+01	-1.00261733850E+01	2.17520675465E+01	-6.33977417720E+00	-8.83862120887E+01
2.28021500000E+09	-9.21164246931E+00	-2.44277081765E+01	-7.14742102480E+00	3.22025033581E+01	-1.00636390558E+01	2.30857580319E+01	-6.74267219689E+00	-9.53661612964E+01
2.30021250000E+09	-8.36255295606E+00	-3.17880860601E+01	-6.59694648928E+00	2.81858299140E+01	-9.89862874966E+00	2.40326060627E+01	-7.05877446783E+00	-1.02966349628E+02
2.32021000000E+09	-7.67334382278E+00	-3.91506870424E+01	-6.12389017821E+00	2.30454829142E+01	-9.63797182291E+00	2.39029898050E+01	-7.19276528523E+00	-1.10062983311E+02
