# Hz S DB R 50
! CMT, S5180, 51801906, 22.3.3/1
! Date: 27/01/2023 17:18:21
! Data: Format (Calibration Info)
! Freq	S11:dB/Ang(F2)	S21:dB/Ang(F2)	S12:dB/Ang(F2)	S22:dB/Ang(F2)
5.00000000000E+05	-4.93471361469E+00	-1.34958722327E+01	-4.71913216915E+01	1.25538627171E+02	-5.25905290013E+01	3.39554927753E+01	3.55426666263E-02	-3.52723665895E-01
2.04975000000E+07	-9.55679265424E+00	-1.75001990887E+02	-4.76542584991E+01	9.12092458381E+01	-4.81774628642E+01	8.95569724812E+01	2.37572481401E-02	9.53029763826E+00
4.04950000000E+07	-9.15544681027E+00	-1.75194570019E+02	-4.14688273261E+01	9.03204346448E+01	-4.19245659062E+01	8.77243270140E+01	5.33556588018E-02	1.90191597632E+01
6.04925000000E+07	-8.62951673808E+00	-1.75922961666E+02	-3.76538077513E+01	8.91772191938E+01	-3.80188906808E+01	8.62789072350E+01	9.37855013374E-02	2.86295392365E+01
8.04900000000E+07	-7.86300524846E+00	-1.77429212727E+02	-3.45922374883E+01	8.79781337463E+01	-3.49174524908E+01	8.45670540656E+01	1.35627525690E-01	3.82908677817E+01
1.00487500000E+08	-6.88310786166E+00	-1.79472655270E+02	-3.18528529164E+01	8.63932414857E+01	-3.21386686113E+01	8.24586140546E+01	1.88704184281E-01	4.79709748980E+01
1.20485000000E+08	-5.74076340068E+00	1.77417213763E+02	-2.92212790852E+01	8.37388476823E+01	-2.94763733889E+01	7.94687622278E+01	2.53205278864E-01	5.77039768829E+01
1.40482500000E+08	-4.46239665303E+00	1.72407296301E+02	-2.66188607354E+01	7.91991042543E+01	-2.68551754321E+01	7.52589281427E+01	3.09652080379E-01	6.75538592001E+01
1.60480000000E+08	-3.04249250867E+00	1.64580852434E+02	-2.40135457373E+01	7.22469858877E+01	-2.41629665903E+01	6.88832405974E+01	3.39568826178E-01	7.76164672986E+01
1.80477500000E+08	-1.58654238073E+00	1.52706575737E+02	-2.13956515398E+01	6.15174400648E+01	-2.15312845116E+01	5.87361582349E+01	3.40272562746E-01	8.79838919058E+01
2.00475000000E+08	-4.78856152635E-01	1.35500434849E+02	-1.91208859531E+01	4.54671579220E+01	-1.92061060950E+01	4.34641872919E+01	3.14348117000E-01	9.88088291398E+01
2.20472500000E+08	-4.09665797437E-01	1.13924295294E+02	-1.78132927837E+01	2.46988217683E+01	-1.78519851803E+01	2.33741158688E+01	2.69310833854E-01	1.09919822908E+02
2.40470000000E+08	-1.65344784790E+00	9.31944529906E+01	-1.77994789404E+01	4.92054952722E+00	-1.78462827079E+01	4.19270102412E+00	2.54208622050E-01	1.21152106786E+02
2.60467500000E+08	-3.62711187833E+00	7.80723005266E+01	-1.85442962759E+01	-9.32703281284E+00	-1.86604014708E+01	-9.44152675949E+00	2.48198649893E-01	1.32148684305E+02
2.80465000000E+08	-5.73823363140E+00	6.86386625547E+01	-1.93693600387E+01	-1.84492756886E+01	-1.96088579706E+01	-1.79321289354E+01	2.38010486925E-01	1.43013202695E+02
3.00462500000E+08	-7.79208230173E+00	6.35100359864E+01	-2.00621274886E+01	-2.41975401311E+01	-2.04848255015E+01	-2.29044414939E+01	1.95363795499E-01	1.53916566975E+02
3.20460000000E+08	-9.69976104450E+00	6.10045922489E+01	-2.05874861351E+01	-2.82507180824E+01	-2.11566936914E+01	-2.56084174165E+01	1.15787353589E-01	1.64769160857E+02
3.40457500000E+08	-1.13385390719E+01	6.03621811571E+01	-2.09305949260E+01	-3.07850631454E+01	-2.15975893962E+01	-2.71765764984E+01	7.26976144970E-03	1.75415806983E+02
3.60455000000E+08	-1.25960641231E+01	6.16103679801E+01	-2.10644238002E+01	-3.22555816455E+01	-2.18392746010E+01	-2.83378198282E+01	-1.22198992252E-01	-1.74260578653E+02
3.80452500000E+08	-1.34556642434E+01	6.48867872852E+01	-2.09751611950E+01	-3.32225901024E+01	-2.19397580964E+01	-2.95067512304E+01	-2.46406097516E-01	-1.64148744688E+02
4.00450000000E+08	-1.39483172623E+01	6.93973407093E+01	-2.07138403410E+01	-3.44151738351E+01	-2.19133709782E+01	-3.04138039508E+01	-3.80783784629E-01	-1.54263228389E+02
4.20447500000E+08	-1.40336961950E+01	7.35398081121E+01	-2.03255156940E+01	-3.59166568363E+01	-2.17030861505E+01	-3.13018946357E+01	-5.10481794622E-01	-1.44493597282E+02
4.40445000000E+08	-1.36308888558E+01	7.61807474431E+01	-1.98614472569E+01	-3.74172780195E+01	-2.13154601202E+01	-3.25689357334E+01	-6.47125087300E-01	-1.34979461282E+02
4.60442500000E+08	-1.27344855334E+01	7.71751906120E+01	-1.92160288678E+01	-3.86592444367E+01	-2.07491085449E+01	-3.45340274996E+01	-7.67305307161E-01	-1.25761680565E+02
4.80440000000E+08	-1.14933088568E+01	7.67361613516E+01	-1.83427842636E+01	-4.03297243791E+01	-2.00702126509E+01	-3.73341270954E+01	-8.72925417949E-01	-1.16860527125E+02
5.00437500000E+08	-1.00951070007E+01	7.44561355485E+01	-1.72406543392E+01	-4.34195193644E+01	-1.92714136565E+01	-4.06709112398E+01	-9.60934533129E-01	-1.08237107552E+02
5.20435000000E+08	-8.66473605229E+00	6.96132685820E+01	-1.60590820441E+01	-4.83524903316E+01	-1.83294933191E+01	-4.43897140015E+01	-1.04204474105E+00	-9.97562105696E+01
5.40432500000E+08	-7.25929851612E+00	6.15478815682E+01	-1.48892067087E+01	-5.47876482808E+01	-1.71327737478E+01	-4.91815881176E+01	-1.12193051927E+00	-9.12488521794E+01
5.60430000000E+08	-5.94889234372E+00	4.99766910213E+01	-1.37199193813E+01	-6.24405223025E+01	-1.57887472712E+01	-5.63199906385E+01	-1.18927979960E+00	-8.26598094526E+01
5.80427500000E+08	-4.92256322103E+00	3.49438221395E+01	-1.26048895453E+01	-7.20468115111E+01	-1.45404753201E+01	-6.57712607600E+01	-1.23934035052E+00	-7.37981300092E+01
6.00425000000E+08	-4.41617533395E+00	1.69283755996E+01	-1.17494946667E+01	-8.39651715379E+01	-1.33335395274E+01	-7.67159508393E+01	-1.25228927788E+00	-6.46315872206E+01
6.20422500000E+08	-4.56436267911E+00	-3.03360901831E+00	-1.14270063395E+01	-9.71072108218E+01	-1.23544453727E+01	-9.08277188631E+01	-1.23713196293E+00	-5.54081579808E+01
6.40420000000E+08	-5.27476609335E+00	-2.35046684070E+01	-1.16787623297E+01	-1.08592891706E+02	-1.21809305377E+01	-1.05661149257E+02	-1.15829457365E+00	-4.62979728726E+01
6.60417500000E+08	-6.19056389622E+00	-4.39966468632E+01	-1.21705008565E+01	-1.16497040602E+02	-1.24783484300E+01	-1.16747450887E+02	-9.69464891367E-01	-3.75853741275E+01
6.80415000000E+08	-7.05008119236E+00	-6.43811446992E+01	-1.25280961466E+01	-1.21388610853E+02	-1.27054535474E+01	-1.24394651459E+02	-7.02663069960E-01	-2.90733536647E+01
7.00412500000E+08	-7.72774447351E+00	-8.47524755211E+01	-1.26289388154E+01	-1.25170291692E+02	-1.27845403500E+01	-1.30100130848E+02	-4.10526555577E-01	-2.02114560916E+01
7.20410000000E+08	-8.11330500299E+00	-1.05672260114E+02	-1.26425507331E+01	-1.28982882089E+02	-1.27662885075E+01	-1.33767894273E+02	-1.56759029355E-01	-1.07791598021E+01
7.40407500000E+08	-8.02561188299E+00	-1.27231133101E+02	-1.26339133901E+01	-1.32018819094E+02	-1.24452904227E+01	-1.35175724988E+02	1.47718925166E-02	-9.60811151691E-01
7.60405000000E+08	-7.44307718786E+00	-1.48421371623E+02	-1.24325298800E+01	-1.33841522549E+02	-1.16273935827E+01	-1.36634695447E+02	1.02114000095E-01	8.89259134922E+00
7.80402500000E+08	-6.58493976492E+00	-1.69153597792E+02	-1.18274122768E+01	-1.35919288627E+02	-1.05463004826E+01	-1.39849007532E+02	1.75978132672E-01	1.87886511356E+01
8.00400000000E+08	-5.61334842262E+00	1.68926674132E+02	-1.08555097839E+01	-1.40452256327E+02	-9.32150925873E+00	-1.44281012472E+02	2.57777938269E-01	2.91061698299E+01
8.20397500000E+08	-4.56652450373E+00	1.43994486674E+02	-9.78617659929E+00	-1.48311143679E+02	-7.95559524731E+00	-1.51586212589E+02	3.53837252232E-01	4.04226949164E+01
8.40395000000E+08	-3.55907960060E+00	1.15147610366E+02	-8.82113138584E+00	-1.59019904694E+02	-7.11173238354E+00	-1.62673640420E+02	4.24842556770E-01	5.30414968759E+01
8.60392500000E+08	-2.98874575638E+00	8.18599356334E+01	-8.12731865080E+00	-1.72339933852E+02	-7.18639776332E+00	-1.72966751897E+02	4.42815961366E-01	6.68815166577E+01
8.80390000000E+08	-3.19318168355E+00	4.63747947003E+01	-7.94776923617E+00	1.73255946998E+02	-7.63456528770E+00	-1.78957974125E+02	4.32425590795E-01	8.13475110168E+01
9.00387500000E+08	-3.82628258517E+00	1.34385937137E+01	-8.23031416870E+00	1.59805204000E+02	-8.08959056455E+00	1.76069467269E+02	4.01479701870E-01	9.53358600658E+01
9.20385000000E+08	-4.49441251223E+00	-1.37362879271E+01	-8.84253659855E+00	1.48723039650E+02	-8.90049469570E+00	1.73563432524E+02	3.08954277370E-01	1.08044139936E+02
9.40382500000E+08	-5.20292243320E+00	-3.55229696844E+01	-9.66223425380E+00	1.41247441987E+02	-9.14310185309E+00	1.74993590547E+02	1.09940862052E-01	1.19279445159E+02
9.60380000000E+08	-6.02717038247E+00	-5.34775897415E+01	-1.04121977431E+01	1.37834724855E+02	-8.57445439388E+00	1.71709105440E+02	-1.69917311087E-01	1.29890002187E+02
9.80377500000E+08	-6.87125211049E+00	-6.90209070421E+01	-1.07333514605E+01	1.37308386990E+02	-8.54371997466E+00	1.63632407241E+02	-3.96589194928E-01	1.40252263556E+02
1.00037500000E+09	-7.83095623543E+00	-8.37295147000E+01	-1.04755533714E+01	1.36749792561E+02	-8.95180664036E+00	1.57872037384E+02	-6.21516406532E-01	1.50267661314E+02
1.02037250000E+09	-9.24132581859E+00	-9.90087800565E+01	-9.93837442843E+00	1.33878236416E+02	-9.06504301147E+00	1.53548523956E+02	-9.61329467648E-01	1.60071371622E+02
1.04037000000E+09	-1.14467004305E+01	-1.17951005876E+02	-9.50557802060E+00	1.29361278642E+02	-8.97916942722E+00	1.47083989229E+02	-1.41927065327E+00	1.69661792254E+02
1.06036750000E+09	-1.46584326784E+01	-1.48428177008E+02	-9.19193843107E+00	1.24932439607E+02	-9.02960953646E+00	1.39664254240E+02	-1.90926014297E+00	1.78746850950E+02
1.08036500000E+09	-1.68454512908E+01	1.53300669451E+02	-8.71050822135E+00	1.20749380548E+02	-8.92019304957E+00	1.33288715941E+02	-2.40868808021E+00	-1.72808549463E+02
1.10036250000E+09	-1.34321616162E+01	9.28392218982E+01	-7.92504985258E+00	1.14827175931E+02	-8.43774399405E+00	1.25369178079E+02	-2.91794242718E+00	-1.64323884363E+02
1.12036000000E+09	-9.17774195119E+00	5.68324769558E+01	-7.09991741245E+00	1.05008639575E+02	-8.08382307420E+00	1.15272481188E+02	-3.33683892962E+00	-1.55070090430E+02
1.14035750000E+09	-6.30695852519E+00	3.07073833034E+01	-6.73492858983E+00	9.22338111283E+01	-7.61465925357E+00	1.05908257905E+02	-3.57390900857E+00	-1.45294312246E+02
1.16035500000E+09	-4.87224693903E+00	8.21814606767E+00	-7.02617187771E+00	7.92846292887E+01	-6.81637945736E+00	9.14271910318E+01	-3.70223658005E+00	-1.36003830022E+02
1.18035250000E+09	-4.52549567437E+00	-1.21129127745E+01	-7.76374036187E+00	6.89827659201E+01	-7.17413017655E+00	7.24435862244E+01	-3.78457161726E+00	-1.26493862156E+02
1.20035000000E+09	-4.88246394200E+00	-3.20076197734E+01	-8.49096712100E+00	6.20174688062E+01	-8.49090206907E+00	6.00007815170E+01	-3.65836256405E+00	-1.17483373794E+02
1.22034750000E+09	-5.73183466405E+00	-5.15186372762E+01	-8.93028512584E+00	5.59593404366E+01	-9.27524242368E+00	5.38982268159E+01	-3.47836002012E+00	-1.09639634299E+02
1.24034500000E+09	-6.76343017391E+00	-7.05712767124E+01	-9.42743756042E+00	4.88643618179E+01	-9.47456434857E+00	4.61332922572E+01	-3.28737862517E+00	-1.02042916970E+02
1.26034250000E+09	-7.80796120403E+00	-9.04990961701E+01	-1.03618372155E+01	4.29994718215E+01	-1.00331562323E+01	3.79250536383E+01	-3.04515227912E+00	-9.46961035301E+01
1.28034000000E+09	-8.55278997666E+00	-1.12013377340E+02	-1.14332239825E+01	4.19274552004E+01	-1.05334514582E+01	3.42222846106E+01	-2.80947355853E+00	-8.76698052612E+01
1.30033750000E+09	-8.72633649531E+00	-1.33150474430E+02	-1.18754864798E+01	4.54372908733E+01	-1.01842636370E+01	3.15688492185E+01	-2.60042802666E+00	-8.04085990617E+01
1.32033500000E+09	-8.37337587160E+00	-1.51484444441E+02	-1.13816541574E+01	4.73259132253E+01	-9.59284345513E+00	2.45150986727E+01	-2.28916097525E+00	-7.29125736729E+01
1.34033250000E+09	-7.87316443576E+00	-1.66735541310E+02	-1.08692778136E+01	4.43545463100E+01	-9.40794189813E+00	1.72340333035E+01	-1.95029785233E+00	-6.58143249567E+01
1.36033000000E+09	-7.37001593631E+00	-1.79700096791E+02	-1.09349317887E+01	4.13872439350E+01	-9.11637051219E+00	1.24797902808E+01	-1.63478968377E+00	-5.85153452469E+01
1.38032750000E+09	-6.87869953508E+00	1.68723563675E+02	-1.10198783617E+01	4.32402143457E+01	-8.51736279581E+00	7.43105528761E+00	-1.27196306007E+00	-5.08639228364E+01
1.40032500000E+09	-6.46464872662E+00	1.57761317053E+02	-1.01288623518E+01	4.75667928299E+01	-8.05238402247E+00	1.55360301476E+00	-8.51736538662E-01	-4.32828820916E+01
1.42032250000E+09	-6.40453595147E+00	1.46669137328E+02	-8.36869032662E+00	4.60659200050E+01	-7.68637647748E+00	-1.67525552133E+00	-5.64208568108E-01	-3.52852558513E+01
1.44032000000E+09	-6.91050143444E+00	1.34881298754E+02	-7.02780288057E+00	3.77061717518E+01	-6.91575727072E+00	-2.58870363756E+00	-4.57980883110E-01	-2.51458494316E+01
1.46031750000E+09	-8.12311299450E+00	1.20590935927E+02	-6.51027202196E+00	2.85310846392E+01	-5.84576359054E+00	-4.28705367031E+00	-4.98572461128E-01	-1.31230860664E+01
1.48031500000E+09	-1.04547788875E+01	1.00737006936E+02	-6.25187392931E+00	2.12852715984E+01	-4.99833073081E+00	-6.39465723038E+00	-8.92715020540E-01	4.65787407741E-02
1.50031250000E+09	-1.48008516282E+01	7.01918072536E+01	-5.79009622731E+00	1.34155707482E+01	-4.11489752004E+00	-7.26136397844E+00	-1.70960284151E+00	1.58708736130E+01
1.52031000000E+09	-1.97906705104E+01	1.47086633342E+00	-5.41665689870E+00	2.17509666163E+00	-3.03640425448E+00	-1.17272880695E+01	-2.31941448465E+00	3.56669977989E+01
1.54030750000E+09	-1.51971849004E+01	-6.98870884639E+01	-5.51197929302E+00	-1.09256137283E+01	-2.63655388606E+00	-2.04419066459E+01	-2.25215052347E+00	5.53190958311E+01
1.56030500000E+09	-1.13584651193E+01	-9.99683556951E+01	-6.13694966620E+00	-2.38337302552E+01	-2.98379282694E+00	-2.78124538516E+01	-1.92408406087E+00	7.29094397623E+01
1.58030250000E+09	-9.79173092168E+00	-1.19035716693E+02	-7.00598843014E+00	-3.38061942803E+01	-3.51046806403E+00	-3.35524063109E+01	-1.56897490225E+00	8.86698336402E+01
1.60030000000E+09	-9.42826314649E+00	-1.35695261573E+02	-7.58642725010E+00	-3.97498871553E+01	-4.29812236162E+00	-3.89050867321E+01	-1.29167980932E+00	1.02412287597E+02
1.62029750000E+09	-9.64168693489E+00	-1.53702080635E+02	-7.49628201788E+00	-4.34503973570E+01	-5.18456184347E+00	-4.21820307222E+01	-1.24856741458E+00	1.13734719542E+02
1.64029500000E+09	-1.00967018500E+01	-1.74407624491E+02	-6.89952396417E+00	-4.83275041345E+01	-5.69549063665E+00	-4.44443902152E+01	-1.52757723888E+00	1.23856832672E+02
1.66029250000E+09	-1.04375978431E+01	1.59887513213E+02	-6.32281047415E+00	-5.48571779762E+01	-5.94702869853E+00	-4.90410182549E+01	-1.96421277583E+00	1.33450891161E+02
1.68029000000E+09	-1.00051219990E+01	1.28129317583E+02	-5.87258386072E+00	-6.08437375748E+01	-6.29422312115E+00	-5.48236292802E+01	-2.42251990030E+00	1.42362978666E+02
1.70028750000E+09	-8.26946526746E+00	9.65299153307E+01	-5.28375356643E+00	-6.55742385696E+01	-6.41620595691E+00	-6.03520621252E+01	-2.80143300516E+00	1.50883599333E+02
1.72028500000E+09	-5.99736221137E+00	7.09381279243E+01	-4.42242936493E+00	-7.09492425896E+01	-6.36507009469E+00	-6.98843328036E+01	-3.02604720899E+00	1.58849623684E+02
1.74028250000E+09	-4.10599537207E+00	4.97969733479E+01	-3.55099026480E+00	-7.88608347500E+01	-7.22350681557E+00	-8.18859130868E+01	-3.29568835340E+00	1.66003896349E+02
1.76028000000E+09	-2.74278015997E+00	3.14125001175E+01	-3.06278046468E+00	-8.84310038156E+01	-8.70295632426E+00	-8.74215600119E+01	-3.71514449927E+00	1.73832584770E+02
1.78027750000E+09	-1.73347604711E+00	1.46856815660E+01	-2.91924051918E+00	-9.69553816099E+01	-9.29667981837E+00	-8.80027888693E+01	-4.07665972745E+00	-1.78210709184E+02
1.80027500000E+09	-1.23818959717E+00	-1.33625397055E+00	-2.83719382407E+00	-1.03564399030E+02	-9.20466025859E+00	-9.25601777609E+01	-4.47799936415E+00	-1.71526532177E+02
1.82027250000E+09	-1.52429992583E+00	-1.59987360380E+01	-2.58356772869E+00	-1.09095502138E+02	-9.59077859230E+00	-9.75848308100E+01	-5.02050696933E+00	-1.64933709675E+02
1.84027000000E+09	-2.54281747214E+00	-2.93648862494E+01	-2.19159230166E+00	-1.15840373532E+02	-9.37183368511E+00	-9.52148493188E+01	-5.47444990375E+00	-1.57064421876E+02
1.86026750000E+09	-3.92510601753E+00	-4.45220577711E+01	-1.98150815291E+00	-1.24986748209E+02	-7.15609719262E+00	-9.69003908037E+01	-5.61765219193E+00	-1.49257384247E+02
1.88026500000E+09	-6.11933681637E+00	-6.72455291500E+01	-2.27190428903E+00	-1.34604282402E+02	-4.80221735499E+00	-1.14053487364E+02	-5.87847131754E+00	-1.43148394653E+02
1.90026250000E+09	-9.62646046552E+00	-9.82768955394E+01	-2.87182084859E+00	-1.41462735881E+02	-4.22811867089E+00	-1.36448749655E+02	-6.31375950947E+00	-1.33950387845E+02
1.92026000000E+09	-1.23639203861E+01	-1.45050816004E+02	-3.28793519381E+00	-1.45346562242E+02	-4.49550279486E+00	-1.54774516233E+02	-6.05960583639E+00	-1.23189330048E+02
1.94025750000E+09	-1.11253572700E+01	1.67091193041E+02	-3.24672522276E+00	-1.49096296963E+02	-5.20664827216E+00	-1.71049998380E+02	-5.36988575076E+00	-1.15614647704E+02
1.96025500000E+09	-8.87312135895E+00	1.39969055548E+02	-3.02721458096E+00	-1.55587730866E+02	-6.33063356667E+00	1.78539711994E+02	-4.91432401798E+00	-1.09833108426E+02
1.98025250000E+09	-7.25308231915E+00	1.24268198099E+02	-3.03982726775E+00	-1.63588385337E+02	-6.84130315802E+00	1.74840643060E+02	-4.58498268350E+00	-1.02313594320E+02
2.00025000000E+09	-6.17904925718E+00	1.11055916241E+02	-3.13126480405E+00	-1.70158698205E+02	-6.35742808071E+00	1.72428618692E+02	-4.19518699368E+00	-9.40810919192E+01
2.02024750000E+09	-5.59946101785E+00	9.68298115510E+01	-2.85753997656E+00	-1.75577891069E+02	-5.42074572825E+00	1.68100065310E+02	-3.92995411989E+00	-8.58469357413E+01
2.04024500000E+09	-5.58850012522E+00	8.04410175099E+01	-2.11230983237E+00	1.77374500910E+02	-4.36837562882E+00	1.63527102239E+02	-3.86825740116E+00	-7.68771892421E+01
2.06024250000E+09	-6.38606222900E+00	6.03972588506E+01	-1.22748366752E+00	1.66334101099E+02	-2.86216675805E+00	1.57994048771E+02	-3.79236711904E+00	-6.56536824596E+01
2.08024000000E+09	-8.59321771798E+00	3.28186823044E+01	-7.13186284358E-01	1.52086987538E+02	-1.27108683568E+00	1.46917343324E+02	-3.59203235697E+00	-5.36248449170E+01
2.10023750000E+09	-1.25027770446E+01	-6.93349247195E+00	-8.30902214266E-01	1.37738099837E+02	-6.60284868019E-01	1.32728080423E+02	-3.74835265868E+00	-3.83753957553E+01
2.12023500000E+09	-1.51588798364E+01	-6.19564950530E+01	-1.47970717926E+00	1.26001830825E+02	-9.69436577246E-01	1.22750653978E+02	-3.43899263058E+00	-1.64294509395E+01
2.14023250000E+09	-1.46753069077E+01	-1.07541155790E+02	-2.38436305803E+00	1.17960785637E+02	-1.40570080437E+00	1.17953479408E+02	-2.21684773113E+00	4.21779179940E+00
2.16023000000E+09	-1.40599011038E+01	-1.36185041831E+02	-3.19988092873E+00	1.12032711891E+02	-1.75430889591E+00	1.15146672460E+02	-1.02708211183E+00	2.04382403090E+01
2.18022750000E+09	-1.43893240838E+01	-1.57849104532E+02	-4.05502921342E+00	1.05876149414E+02	-2.18322229183E+00	1.13035577227E+02	-2.41566855155E-01	3.40467542033E+01
2.20022500000E+09	-1.60606310008E+01	-1.77153332613E+02	-5.09883420190E+00	1.00089085455E+02	-2.74874567530E+00	1.11093298572E+02	6.65715017758E-02	4.59747299289E+01
2.22022250000E+09	-2.00593492927E+01	1.55135918366E+02	-6.12922884558E+00	9.48872794015E+01	-3.53280318135E+00	1.09082434060E+02	1.36200034658E-02	5.72745737551E+01
2.24022000000E+09	-2.27402497898E+01	7.66524892639E+01	-6.93137374891E+00	9.00327142216E+01	-4.56954159203E+00	1.08182329030E+02	-1.96287207538E-01	6.86850431152E+01
2.26021750000E+09	-1.54826305607E+01	2.66740247891E+01	-7.32170640325E+00	8.44665794102E+01	-5.73814455174E+00	1.09201386554E+02	-4.93558217575E-01	8.00595047266E+01
2.28021500000E+09	-1.05355767902E+01	8.63386744757E+00	-7.48086265195E+00	7.78814571488E+01	-6.88903841320E+00	1.12257985136E+02	-9.70288842968E-01	9.13168005506E+01
2.30021250000E+09	-7.34821488438E+00	-4.54271750786E+00	-7.50272908662E+00	7.14415566208E+01	-7.70642423049E+00	1.16371829558E+02	-1.62948436212E+00	1.01673404825E+02
2.32021000000E+09	-5.10328183372E+00	-1.64153688084E+01	-7.45582253525E+00	6.52002532465E+01	-8.07237252717E+00	1.19855488101E+02	-2.41299037089E+00	1.10566318618E+02
