# Hz S DB R 50
! CMT, S5180, 51801906, 22.3.3/1
! Date: 27/01/2023 17:16:52
! Data: Format (Calibration Info)
! Freq	S11:dB/Ang(F2)	S21:dB/Ang(F2)	S12:dB/Ang(F2)	S22:dB/Ang(F2)
5.00000000000E+05	-4.42183362172E-02	-6.71465669315E-02	-6.38937439788E+01	3.74337481251E+01	-6.03176536360E+01	-1.32171741805E+02	-4.20002527431E-01	9.71212623785E+00
2.04975000000E+07	-1.70684961261E-02	-7.09552346763E-01	-8.56634411429E+01	1.23908827577E+02	-9.02738009487E+01	6.20916004187E+01	-5.47406050831E+01	-9.15954422956E+01
4.04950000000E+07	6.10899092594E-03	-1.23363816042E+00	-8.67437512737E+01	1.09416971850E+02	-9.03726410777E+01	1.10818907834E+01	-5.23995691850E+01	-1.33890921032E+01
6.04925000000E+07	1.61171874447E-02	-1.74450873191E+00	-8.79448452522E+01	-3.46808302028E+01	-9.24946506113E+01	-6.49618592389E+01	-5.11807544993E+01	3.33112082833E+01
8.04900000000E+07	8.70971533135E-03	-2.30217299897E+00	-9.20502112943E+01	-9.00281668677E+01	-9.72325313874E+01	-1.22112431637E+02	-5.08888638304E+01	7.77381198146E+01
1.00487500000E+08	-6.53088133188E-03	-2.95675084222E+00	-9.85108213293E+01	1.07694244173E+02	-8.95155171736E+01	1.28699683138E+02	-5.21098520376E+01	1.24523079826E+02
1.20485000000E+08	-5.78205258302E-03	-3.72656088597E+00	-9.45031146417E+01	-1.43388146732E+02	-8.99618953647E+01	-1.55079890288E+02	-5.36068869514E+01	1.64014117899E+02
1.40482500000E+08	2.14499842851E-04	-4.39463621046E+00	-9.80023536243E+01	1.00582215136E+02	-8.78265931177E+01	-7.34848183309E+01	-5.79064719236E+01	-1.36508932783E+02
1.60480000000E+08	5.80002299749E-03	-4.90605478447E+00	-8.86222244658E+01	1.10492279486E+02	-9.11835354118E+01	9.76987388028E+01	-6.39564824778E+01	-2.80287456761E+01
1.80477500000E+08	-7.58530431955E-03	-5.51118224260E+00	-1.10994187482E+02	-1.44274617548E+02	-9.95556217854E+01	1.07409358401E+01	-5.68883734148E+01	9.12152815634E+01
2.00475000000E+08	-2.31440848434E-02	-6.27521892106E+00	-9.15630256738E+01	8.64133784965E+01	-9.56069714744E+01	1.42236995253E+02	-5.13838707587E+01	1.47458420476E+02
2.20472500000E+08	-2.44538708835E-02	-7.19706071950E+00	-1.05263260779E+02	-1.44637202656E+02	-9.17580869191E+01	5.37001922216E+01	-4.90934442838E+01	-1.68418999688E+02
2.40470000000E+08	1.21406758410E-03	-7.97258509495E+00	-9.47587141006E+01	-8.05668192137E+01	-9.26016330213E+01	7.38185362363E+00	-4.87366565622E+01	-1.27617099403E+02
2.60467500000E+08	3.15479219947E-02	-8.52342063503E+00	-9.43708119814E+01	-7.90948561507E+01	-9.77372156250E+01	8.70539418588E+01	-5.01764930338E+01	-9.22146918284E+01
2.80465000000E+08	4.07951103848E-02	-8.96142911257E+00	-9.85890955789E+01	1.40058913004E+02	-9.90811331847E+01	-1.79092871635E+02	-5.42630936084E+01	-5.79772764261E+01
3.00462500000E+08	2.75419412566E-02	-9.56263345058E+00	-9.48355543430E+01	-7.34905994816E+01	-9.30270236030E+01	-1.72369404340E+02	-6.18758869250E+01	-8.13691986756E+01
3.20460000000E+08	1.31667121954E-02	-1.03556443253E+01	-9.68194899469E+01	-1.16764044056E+02	-9.12272677188E+01	1.19644474933E+02	-5.52801946914E+01	-1.03480498045E+02
3.40457500000E+08	2.45859486997E-02	-1.11196250005E+01	-9.26569658570E+01	1.10576641667E+02	-9.64004419610E+01	4.64997534580E+00	-5.12941751458E+01	-8.36889282589E+01
3.60455000000E+08	4.54779207092E-02	-1.17346457509E+01	-9.42077578125E+01	3.47183170210E+01	-9.65566404101E+01	-9.96729943548E+01	-4.98822382136E+01	-5.39035450303E+01
3.80452500000E+08	5.51012978154E-02	-1.22864914600E+01	-8.87224432905E+01	7.23663777627E+01	-9.15549607999E+01	8.21526427958E+01	-5.07144500914E+01	-2.88329064606E+01
4.00450000000E+08	3.80006644472E-02	-1.29624743857E+01	-9.68627047380E+01	-1.05214965424E+02	-9.38820409365E+01	2.30532217517E+01	-5.21089701038E+01	-1.21090503169E+01
4.20447500000E+08	2.00746604572E-02	-1.37594830450E+01	-1.00938099873E+02	-6.73386861156E+01	-9.56446450558E+01	1.04420061617E+02	-5.26086732930E+01	-1.51343280201E+01
4.40445000000E+08	1.91483278993E-02	-1.44905061572E+01	-9.73999735563E+01	-1.31203897905E+02	-9.30819362106E+01	-8.98508508632E+01	-5.00438819362E+01	-9.30377101195E+00
4.60442500000E+08	4.22990189745E-02	-1.50424402676E+01	-9.11238401978E+01	2.35755450153E+01	-9.88824172082E+01	5.04150128278E+01	-4.78369362365E+01	1.25416050524E+01
4.80440000000E+08	6.76212918343E-02	-1.54978624859E+01	-9.51559108296E+01	-3.51153585894E+01	-9.72153247191E+01	8.12133701877E+01	-4.62644725906E+01	3.86676002994E+01
5.00437500000E+08	7.05386882736E-02	-1.60360447028E+01	-9.18211848215E+01	-7.21193458710E+01	-9.76183219373E+01	3.05834643060E+01	-4.54745101953E+01	6.25575825093E+01
5.20435000000E+08	5.07147136544E-02	-1.67337039584E+01	-1.04271708902E+02	3.60550516893E-01	-9.86999078132E+01	-1.14262676475E+02	-4.57900537663E+01	9.17621058085E+01
5.40432500000E+08	3.22799943832E-02	-1.74772704363E+01	-1.04706721287E+02	-8.89274944257E+01	-9.01451213404E+01	-5.25364959754E+01	-4.68332895912E+01	1.18647303742E+02
5.60430000000E+08	2.81612205647E-02	-1.81413683881E+01	-8.48756972168E+01	6.76428671686E+01	-9.02276427371E+01	1.23325321577E+02	-4.98804549868E+01	1.44917042150E+02
5.80427500000E+08	3.62255259936E-02	-1.86751589441E+01	-9.30827752033E+01	-8.40256958958E+01	-8.69957228327E+01	-6.25053334909E+00	-5.94810021266E+01	1.48826390745E+02
6.00425000000E+08	3.82497861669E-02	-1.92364941620E+01	-8.96616499263E+01	1.30574517654E+02	-9.56302644538E+01	6.32606483231E+01	-5.27892073740E+01	6.90202329224E+01
6.20422500000E+08	2.40953292412E-02	-1.99332735821E+01	-9.59823605307E+01	1.65135303511E+02	-8.69611310861E+01	-6.52672590010E+01	-4.60703132809E+01	9.49830749522E+01
6.40420000000E+08	-2.99173816030E-04	-2.07614229501E+01	-9.02451211153E+01	-8.22243442310E+01	-9.41122759625E+01	3.76966899491E+01	-4.24752610172E+01	1.31533440630E+02
6.60417500000E+08	-4.09520029026E-03	-2.16409213892E+01	-9.23605862381E+01	8.56192338986E+01	-9.84519852382E+01	-1.61815714214E+00	-4.08506176378E+01	1.67006618447E+02
6.80415000000E+08	2.34745643299E-02	-2.23736820851E+01	-9.00017186172E+01	-1.57669117401E+02	-9.62770455431E+01	-7.54673288716E+01	-4.07726451178E+01	-1.55056111033E+02
7.00412500000E+08	6.17754806407E-02	-2.28902664680E+01	-9.28784641901E+01	-1.03573815005E+02	-9.53895001324E+01	-4.00831909081E+01	-4.31725278205E+01	-1.15138290189E+02
7.20410000000E+08	7.97769447101E-02	-2.32931701406E+01	-9.31788247237E+01	1.03851477990E+02	-8.77272256804E+01	8.64360045856E+01	-4.92633743395E+01	-6.68796527138E+01
7.40407500000E+08	6.17665009618E-02	-2.38541366700E+01	-9.21104161510E+01	1.69130143123E+02	-8.50546627447E+01	9.74991074214E+01	-5.63247206224E+01	8.55852422918E+01
7.60405000000E+08	2.84439706140E-02	-2.46471872516E+01	-9.05685738281E+01	1.58578806253E+02	-8.90216321583E+01	4.00812975274E+01	-4.54820497877E+01	1.60996915995E+02
7.80402500000E+08	2.60246845384E-02	-2.55185821066E+01	-9.08390132343E+01	-6.39113480236E+00	-9.19412201581E+01	9.87919401875E+01	-4.18126832690E+01	-1.56006782734E+02
8.00400000000E+08	5.99941949240E-02	-2.62830930428E+01	-8.85216324460E+01	1.30961901311E+01	-9.30008402905E+01	4.29864221041E+01	-3.98291518926E+01	-1.16434952436E+02
8.20397500000E+08	9.10591940293E-02	-2.68483768895E+01	-8.94984158290E+01	8.89453849050E+01	-9.46083271135E+01	-7.05698355186E+01	-3.97158280528E+01	-7.74301786849E+01
8.40395000000E+08	8.24785188665E-02	-2.73948493451E+01	-9.09615150052E+01	-2.45728893759E+01	-9.90901470300E+01	-7.98482363213E+01	-4.08599619862E+01	-3.96227981463E+01
8.60392500000E+08	3.98833063612E-02	-2.81377203899E+01	-9.63951206607E+01	-1.46740208521E+01	-1.08265385243E+02	8.38364571379E+01	-4.38096970289E+01	-1.31424067272E-01
8.80390000000E+08	1.94914488339E-02	-2.89955020356E+01	-9.73806796110E+01	1.35996865226E+02	-8.52424695340E+01	5.47455436519E+01	-5.00895282128E+01	5.13193037365E+01
9.00387500000E+08	5.32173623578E-02	-2.97718248460E+01	-9.19020069035E+01	-4.86410890682E-02	-9.52500002052E+01	1.47230221914E+02	-5.48467258761E+01	1.74382208470E+02
9.20385000000E+08	1.10081459386E-01	-3.03106010786E+01	-8.87849612883E+01	-1.13459202944E+02	-1.01400837287E+02	1.69606298835E+02	-4.63655693519E+01	-1.09452757213E+02
9.40382500000E+08	1.36699065026E-01	-3.07481513170E+01	-1.11407534890E+02	1.74095364708E+02	-1.01397325326E+02	1.63363680718E+02	-4.25632524728E+01	-6.68439315730E+01
9.60380000000E+08	1.15995456352E-01	-3.12744263621E+01	-1.03587313557E+02	6.70645808867E+00	-9.54868598942E+01	5.14406955225E+01	-4.03214177642E+01	-2.36842790034E+01
9.80377500000E+08	8.13826938830E-02	-3.19695338342E+01	-9.73766584356E+01	-5.69587407700E+01	-9.08291427943E+01	-1.58820423368E+02	-3.91814621158E+01	1.47347757791E+01
1.00037500000E+09	7.07296687537E-02	-3.26837923298E+01	-9.31556198417E+01	1.37323325595E+01	-9.34841734493E+01	-4.96898309979E+01	-3.91811200676E+01	5.55003596112E+01
1.02037250000E+09	7.69436894204E-02	-3.33081796689E+01	-9.12587254172E+01	1.40016376143E+02	-9.03304355535E+01	1.72177570607E+02	-4.06040223301E+01	9.19478296129E+01
1.04037000000E+09	7.73797989210E-02	-3.38632516852E+01	-8.75113047190E+01	8.32090462466E+01	-1.03257428883E+02	9.13759526674E+01	-4.42681582414E+01	1.28727730511E+02
1.06036750000E+09	5.46857894746E-02	-3.45440150516E+01	-8.94224609362E+01	1.16937124612E+02	-8.35678274521E+01	1.21367367656E+02	-5.31601068461E+01	1.51161812444E+02
1.08036500000E+09	2.52224050137E-02	-3.53509243166E+01	-9.44354531191E+01	1.31548878314E+02	-8.78849902440E+01	-1.78609063900E+02	-5.21552471590E+01	5.17882848030E+01
1.10036250000E+09	2.18055540109E-02	-3.61710214304E+01	-8.77640162487E+01	1.76730382699E+02	-9.34911407215E+01	-1.68455248479E+02	-4.45749410225E+01	7.30250622294E+01
1.12036000000E+09	4.91706111179E-02	-3.67937534471E+01	-9.01326132518E+01	1.42930552312E+02	-8.76368205827E+01	1.64412444900E+02	-4.21693045980E+01	1.03217093219E+02
1.14035750000E+09	8.34577336265E-02	-3.72469033272E+01	-8.43072539158E+01	9.03939962440E+01	-8.64736376102E+01	-1.76895495774E+02	-4.14905502369E+01	1.31242710529E+02
1.16035500000E+09	9.12080611027E-02	-3.76635112470E+01	-8.96999739712E+01	7.35009428596E+01	-8.50362342175E+01	1.38730621797E+02	-4.21115459473E+01	1.52166138948E+02
1.18035250000E+09	6.49609089331E-02	-3.82826820164E+01	-8.64005848737E+01	8.06506420129E+01	-8.06325413918E+01	8.47950683071E+00	-4.30136559491E+01	1.62220657289E+02
1.20035000000E+09	3.61816596666E-02	-3.91396690166E+01	-9.26068412458E+01	9.67242891578E+00	-8.81620589624E+01	5.92264299365E+01	-4.27945148219E+01	1.69096042057E+02
1.22034750000E+09	3.80853160618E-02	-4.00273881571E+01	-8.46929855699E+01	9.82749136630E+01	-8.17167170437E+01	9.64068508385E+01	-4.20630526540E+01	1.79352857648E+02
1.24034500000E+09	7.60226033988E-02	-4.07436809775E+01	-7.89119975367E+01	9.08638233317E+01	-8.23088284182E+01	9.29520567127E+01	-4.19362489237E+01	-1.63687475663E+02
1.26034250000E+09	1.02454936720E-01	-4.13027372999E+01	-8.14871032803E+01	2.50602652205E+01	-1.06560978896E+02	4.15471443034E+01	-4.24401618905E+01	-1.50208919150E+02
1.28034000000E+09	8.05721638968E-02	-4.18658487262E+01	-9.59976578640E+01	6.09834980655E+01	-9.13619540249E+01	-3.34402927891E+01	-4.38146619060E+01	-1.40113569846E+02
1.30033750000E+09	2.69344338260E-02	-4.26556585026E+01	-8.84932216941E+01	-1.27365003239E+01	-9.68339845139E+01	6.16400308920E+01	-4.49208985520E+01	-1.37024847038E+02
1.32033500000E+09	7.50746315988E-03	-4.36556699592E+01	-8.16221848384E+01	2.61532424696E+01	-8.15561354327E+01	5.43365185411E+01	-4.56704726515E+01	-1.35702969709E+02
1.34033250000E+09	5.13173665371E-02	-4.46296515257E+01	-8.71483735945E+01	1.23315890141E+01	-8.46747252241E+01	2.84866809024E+01	-4.49046939724E+01	-1.41130005613E+02
1.36033000000E+09	1.44847448976E-01	-4.53123259774E+01	-8.46550640027E+01	9.65703141580E+01	-9.17992142330E+01	-1.30155701973E+01	-4.21614930704E+01	-1.41714616340E+02
1.38032750000E+09	2.04733971418E-01	-4.56812003900E+01	-9.82635952617E+01	-8.58349401041E+00	-8.36974616254E+01	8.17678376107E+00	-3.92356738131E+01	-1.26281145623E+02
1.40032500000E+09	1.91084693349E-01	-4.60595231615E+01	-9.54041230981E+01	6.27795369514E+01	-9.21401350396E+01	2.97779714347E+01	-3.69677897179E+01	-9.93447522639E+01
1.42032250000E+09	1.26622972775E-01	-4.66209628948E+01	-8.69717267552E+01	5.98963081748E+01	-9.02811791355E+01	6.11572476553E+01	-3.61166429449E+01	-6.84504986200E+01
1.44032000000E+09	8.30251289133E-02	-4.73871086332E+01	-9.43409737620E+01	-5.97727870717E+01	-9.64626815055E+01	1.70279134727E+01	-3.64886147758E+01	-3.45496005314E+01
1.46031750000E+09	9.66993483515E-02	-4.81528004050E+01	-9.60014950871E+01	5.91764638307E+00	-8.71139705275E+01	6.80531933624E+01	-3.84440457013E+01	1.39135036477E+00
1.48031500000E+09	1.26528014453E-01	-4.87717667034E+01	-9.03288434722E+01	-4.74503649470E+01	-8.14782694727E+01	3.08107866696E+00	-4.36582443540E+01	3.80714677683E+01
1.50031250000E+09	1.16856471474E-01	-4.92946930777E+01	-8.84235518546E+01	-2.02654685838E+00	-8.29630787027E+01	2.70116363118E+01	-6.92143702341E+01	4.57262981495E+01
1.52031000000E+09	7.41518253474E-02	-4.99438341879E+01	-8.53968309177E+01	2.27654100104E+01	-8.09184262352E+01	3.29853391313E+01	-4.40711958738E+01	-6.50466407005E+01
1.54030750000E+09	4.59603895641E-02	-5.07017695996E+01	-8.04480382954E+01	2.31061024040E+01	-8.36419499660E+01	6.56958887979E+01	-3.81268122447E+01	-3.04614908591E+01
1.56030500000E+09	6.38178775994E-02	-5.13812022920E+01	-8.81703347847E+01	3.15734259603E+01	-8.08768419167E+01	7.97055910840E+01	-3.53688750357E+01	2.81307069636E+00
1.58030250000E+09	1.08752204596E-01	-5.18449122282E+01	-8.14685722670E+01	4.64750141431E+01	-8.23178012685E+01	4.12570535408E+01	-3.39207087162E+01	3.32865158129E+01
1.60030000000E+09	1.30066144286E-01	-5.21751867340E+01	-8.33530324172E+01	2.46734246439E+01	-7.63946542473E+01	4.79348113479E+01	-3.35661083473E+01	6.16631644838E+01
1.62029750000E+09	1.04079022419E-01	-5.27051847135E+01	-7.91362758817E+01	1.02988880706E+01	-7.74028699201E+01	2.43464361010E+01	-3.41129494495E+01	8.86852145785E+01
1.64029500000E+09	6.33664938045E-02	-5.35280291247E+01	-8.46605294637E+01	1.01806106689E+01	-7.67974866699E+01	1.26487912810E+01	-3.57703705234E+01	1.14220311822E+02
1.66029250000E+09	4.70424028418E-02	-5.44431306696E+01	-8.08906086018E+01	1.42062160424E+01	-7.80747787534E+01	6.05616093924E+00	-3.93633438711E+01	1.36624473659E+02
1.68029000000E+09	6.32783039569E-02	-5.52080395904E+01	-7.96783602802E+01	-5.32605740345E+00	-8.26219834213E+01	2.25577368643E+00	-4.74950783461E+01	1.34614874893E+02
1.70028750000E+09	7.87279234491E-02	-5.57847972864E+01	-8.03721905040E+01	-1.73976530340E+01	-7.91165898560E+01	-2.61454884710E+00	-4.35626271688E+01	6.38997121449E+01
1.72028500000E+09	6.33190770637E-02	-5.63991363596E+01	-7.87445069005E+01	-3.59931317495E+01	-8.15071593331E+01	-3.84020593330E+01	-3.68873306450E+01	7.86854709581E+01
1.74028250000E+09	2.66345020515E-02	-5.72153047328E+01	-8.03987763222E+01	-3.61386735364E+01	-8.28126471111E+01	-1.26142430205E+01	-3.37617370650E+01	1.04228968211E+02
1.76028000000E+09	2.16431909828E-02	-5.82081405789E+01	-7.82614537469E+01	-3.60904320716E+01	-8.05603311096E+01	-2.04465692875E+01	-3.28320805087E+01	1.29569527608E+02
1.78027750000E+09	6.35995703499E-02	-5.91302736236E+01	-7.83163303872E+01	-3.71828114012E+01	-8.55277105323E+01	-5.17197646039E+01	-3.36331481794E+01	1.54482698176E+02
1.80027500000E+09	1.34668406090E-01	-5.97510376456E+01	-8.17145460149E+01	-6.03414559880E+01	-8.50881585411E+01	-4.86600420624E+00	-3.56782903039E+01	1.73037441587E+02
1.82027250000E+09	1.70809119326E-01	-6.01574454519E+01	-7.92435987616E+01	-4.70597064205E+01	-8.48867840431E+01	-4.50964162577E+01	-3.85962126355E+01	-1.77855184256E+02
1.84027000000E+09	1.47127819828E-01	-6.05824694828E+01	-8.21944448500E+01	-8.88556503967E+01	-8.34601148520E+01	-5.01219257932E+01	-4.02139253886E+01	1.77460487236E+02
1.86026750000E+09	8.83070536585E-02	-6.12760104453E+01	-8.14895976846E+01	-4.53206191812E+01	-8.71939714292E+01	-1.18868548848E+01	-4.01355914957E+01	1.73889019950E+02
1.88026500000E+09	6.35570327302E-02	-6.21685457929E+01	-8.23922225360E+01	-1.36801786450E+01	-8.80308209044E+01	1.01233588183E+01	-3.93156522090E+01	1.75067583642E+02
1.90026250000E+09	8.40796687827E-02	-6.30184770933E+01	-8.50740840430E+01	-1.26750002524E+01	-8.48645485375E+01	8.69921100061E+00	-3.80470582401E+01	1.75629100599E+02
1.92026000000E+09	1.13701415399E-01	-6.36489409619E+01	-8.30326947545E+01	-1.32953947638E+01	-8.59913381590E+01	1.03187265310E-01	-3.59979512188E+01	-1.75881426541E+02
1.94025750000E+09	1.05078431313E-01	-6.41929496695E+01	-8.21161251608E+01	-4.87155559193E+01	-7.96067707466E+01	4.25474424779E+01	-3.42519102167E+01	-1.57906377277E+02
1.96025500000E+09	6.41465994148E-02	-6.47864809278E+01	-7.83671711470E+01	-3.42272694340E+01	-7.86316925543E+01	4.00629791851E+01	-3.33367068686E+01	-1.32443131270E+02
1.98025250000E+09	4.86014169058E-02	-6.55656459334E+01	-7.80512779008E+01	-1.68124854979E+01	-7.46501161359E+01	7.54336266430E+00	-3.34233213099E+01	-1.03893397663E+02
2.00025000000E+09	1.01244437016E-01	-6.63505003388E+01	-7.70804190717E+01	-3.72493417243E+01	-7.70433381778E+01	4.12340412235E+00	-3.47727299275E+01	-7.44763147274E+01
2.02024750000E+09	1.91559595767E-01	-6.69144459509E+01	-7.69485131522E+01	-2.46987031921E+01	-7.56955419252E+01	-2.50776018713E+01	-3.74051852587E+01	-4.90235647962E+01
2.04024500000E+09	2.44786964929E-01	-6.72535178466E+01	-7.66361557803E+01	-2.12989858234E+01	-7.41652234813E+01	-1.17674107227E+01	-4.17201029915E+01	-3.82869133157E+01
2.06024250000E+09	2.10701948104E-01	-6.75611534567E+01	-7.68498695732E+01	-3.55428543512E+01	-7.48612829534E+01	-2.25081631739E+01	-4.36801266770E+01	-6.02370546323E+01
2.08024000000E+09	1.36887660876E-01	-6.81387088233E+01	-7.69864857755E+01	-6.24639028983E+00	-7.39781700178E+01	3.40377071352E-01	-4.01935090887E+01	-6.61134225899E+01
2.10023750000E+09	9.49143572975E-02	-6.89655567461E+01	-7.44293527090E+01	-9.09921498871E+00	-7.28692022560E+01	-1.14302927087E+01	-3.72261921909E+01	-5.09986040646E+01
2.12023500000E+09	1.20223538812E-01	-6.97414432677E+01	-6.98917557326E+01	-2.92933995880E+01	-7.32076820965E+01	-3.03706970891E+01	-3.57411210073E+01	-2.99898674394E+01
2.14023250000E+09	1.63194905864E-01	-7.02505755586E+01	-7.36321954621E+01	-3.67877087102E+01	-7.47115318754E+01	-3.57604713463E+01	-3.47089504256E+01	-9.35614553348E+00
2.16023000000E+09	1.61185882231E-01	-7.06979358730E+01	-7.27224294154E+01	-4.16525652334E+01	-7.50515404791E+01	-2.38104230926E+01	-3.44021731199E+01	1.25820067056E+01
2.18022750000E+09	9.71097171278E-02	-7.13970325332E+01	-7.20418800771E+01	-4.35431537371E+01	-7.63540986612E+01	-3.41129922250E+01	-3.49578235436E+01	3.32295163703E+01
2.20022500000E+09	4.88109455714E-02	-7.24129562820E+01	-7.32356217862E+01	-3.79360459279E+01	-7.55767439468E+01	-4.56740709945E+00	-3.64975365862E+01	4.78404842025E+01
2.22022250000E+09	6.01598736097E-02	-7.34185267542E+01	-7.27557811876E+01	-4.54200154209E+01	-7.53739030946E+01	-3.51041204603E+01	-3.83218810164E+01	4.96883576366E+01
2.24022000000E+09	1.39147468807E-01	-7.40919396534E+01	-7.23445714945E+01	-4.94771705800E+01	-7.64003498568E+01	-2.34228935803E+01	-3.77959853292E+01	4.14048276419E+01
2.26021750000E+09	2.01084601150E-01	-7.44483693108E+01	-7.24605457161E+01	-4.61948665712E+01	-7.50985604643E+01	-1.68898768701E+01	-3.50543115554E+01	4.61408000754E+01
2.28021500000E+09	1.91420678021E-01	-7.47654505725E+01	-7.54763764238E+01	-6.39763081219E+01	-7.73783583011E+01	-2.13243619767E+01	-3.34173787162E+01	6.41105846829E+01
2.30021250000E+09	1.22473805078E-01	-7.53686936429E+01	-7.73185908572E+01	-6.28575030386E+01	-7.52447412970E+01	-1.77871991556E+01	-3.31253688617E+01	8.50396168070E+01
2.32021000000E+09	6.00715581310E-02	-7.62909908700E+01	-8.05421972012E+01	-4.85686895112E+01	-7.75909177059E+01	-1.78068966652E+01	-3.44145135596E+01	1.03280733482E+02
