# Hz S DB R 50
! CMT, S5180, 51801906, 22.3.3/1
! Date: 27/01/2023 17:17:11
! Data: Format (Calibration Info)
! Freq	S11:dB/Ang(F2)	S21:dB/Ang(F2)	S12:dB/Ang(F2)	S22:dB/Ang(F2)
5.00000000000E+05	-6.61924394804E+00	-6.19393424379E+00	-5.04758055951E+01	-4.04552762639E+01	-3.62949630779E+01	4.27751994052E+01	-6.52612504161E-01	7.42293473555E+00
2.04975000000E+07	-5.00461496603E+01	9.77647787738E+01	-9.04991543530E+01	-1.02433327337E+02	-9.26497688651E+01	-1.47405446623E+02	-5.34211068552E+01	-1.11338379099E+02
4.04950000000E+07	-5.43341634911E+01	-5.25542443982E+01	-8.61072252737E+01	1.09923802552E+02	-8.81047513963E+01	1.57259280201E+02	-5.26436239823E+01	-1.23060027202E+01
6.04925000000E+07	-5.13613885495E+01	-8.83976530920E+00	-9.00520593728E+01	-1.78536999936E+02	-9.03695708339E+01	-6.17162079417E+01	-5.16645227403E+01	3.48501050244E+01
8.04900000000E+07	-5.20009177084E+01	3.96710708519E+01	-9.04808276244E+01	5.52421262451E+01	-9.61455147390E+01	-1.22262907659E+02	-5.09880565208E+01	7.71795159611E+01
1.00487500000E+08	-5.27759253649E+01	7.93057961670E+01	-9.49338094982E+01	1.35653909377E+02	-9.80813269017E+01	1.21147584937E+02	-5.20037043269E+01	1.24287573140E+02
1.20485000000E+08	-5.82380219784E+01	1.17757534651E+02	-1.01047405881E+02	9.65365897047E+01	-9.49827893004E+01	-6.42392343995E+01	-5.33939583258E+01	1.68848085390E+02
1.40482500000E+08	-6.28364359018E+01	1.03388947130E+02	-9.05788072213E+01	1.73678337262E+02	-9.00623658962E+01	9.46477432891E+01	-5.74191346321E+01	-1.31291260942E+02
1.60480000000E+08	-5.79361540012E+01	7.73784033000E+01	-8.88312612557E+01	-1.76384845593E+02	-1.15057731929E+02	1.62316922460E+02	-6.24993829308E+01	-3.77217861564E+01
1.80477500000E+08	-5.24411519484E+01	1.11228675567E+02	-9.14966405442E+01	1.97530503721E+01	-1.01714090439E+02	1.59598831308E+02	-5.75523173894E+01	8.83942421447E+01
2.00475000000E+08	-5.00330143057E+01	1.53053999362E+02	-8.80170758159E+01	1.68177912131E+02	-9.09912928016E+01	1.52505627715E+02	-5.15487678250E+01	1.48206518616E+02
2.20472500000E+08	-4.91638049500E+01	-1.63364659237E+02	-9.26331798592E+01	1.78610375358E+02	-9.21609675153E+01	1.00172278839E+02	-4.89838595798E+01	-1.67215258580E+02
2.40470000000E+08	-5.02552533570E+01	-1.18191501631E+02	-1.04375737716E+02	6.22373723910E+00	-9.66941567463E+01	-2.27433602557E+01	-4.80840142408E+01	-1.26849357680E+02
2.60467500000E+08	-5.36396204763E+01	-6.60206447113E+01	-1.03053680203E+02	-1.24419622165E+02	-9.66552657277E+01	7.84185658617E+00	-4.97180124853E+01	-8.82088704422E+01
2.80465000000E+08	-5.91358585057E+01	7.26747204296E+00	-9.32999752990E+01	-4.37215587384E+01	-8.59899995847E+01	-4.45321297017E+01	-5.38731430630E+01	-5.26175656462E+01
3.00462500000E+08	-6.10364961102E+01	1.19341492252E+02	-9.07046998759E+01	1.47138345732E+02	-8.91364698186E+01	-1.54789974212E+02	-6.18122699562E+01	-6.64513068748E+01
3.20460000000E+08	-5.47416609212E+01	-1.57016010509E+02	-9.73797955183E+01	-1.30633554794E+02	-9.09254008151E+01	1.36494566242E+02	-5.55565956776E+01	-1.04266300086E+02
3.40457500000E+08	-5.35813116806E+01	-1.05648087350E+02	-1.05014152732E+02	-4.75508734132E+01	-8.87810591791E+01	1.68626707510E+02	-5.10349499406E+01	-8.18906547355E+01
3.60455000000E+08	-5.41491118915E+01	-5.51626161053E+01	-8.87514636000E+01	5.07203823323E+00	-9.01058518409E+01	-7.21083925862E+01	-4.99524358318E+01	-5.07310342985E+01
3.80452500000E+08	-5.83388030240E+01	-5.51584839020E-02	-9.53672756198E+01	-9.98690367336E+01	-9.46483072297E+01	-2.52482144040E+01	-5.05663116254E+01	-2.68515691739E+01
4.00450000000E+08	-6.30140636371E+01	1.34040688225E+02	-9.51629421581E+01	-1.71448618916E+02	-8.97676623806E+01	1.48845429795E+02	-5.21890776139E+01	-9.70286961700E+00
4.20447500000E+08	-5.50131739212E+01	-1.38157848764E+02	-1.00764974846E+02	1.27027243926E+02	-8.90638864319E+01	8.59789998591E+01	-5.22432423821E+01	-1.65271630886E+01
4.40445000000E+08	-5.08555057586E+01	-8.70484014559E+01	-9.18221795538E+01	-7.39138700045E+01	-9.54393434232E+01	-1.50265386919E+02	-4.97362411130E+01	-6.61260112541E+00
4.60442500000E+08	-4.84025722477E+01	-4.32256982483E+01	-9.55643519314E+01	2.74347353589E-01	-8.64037692916E+01	1.05415957567E+02	-4.75535257038E+01	1.60404097085E+01
4.80440000000E+08	-4.77645196716E+01	-3.43710970021E+00	-9.56533518884E+01	-1.57005140914E+02	-9.67099252776E+01	1.61640553415E+02	-4.59603599895E+01	4.06469508726E+01
5.00437500000E+08	-4.84124518795E+01	3.25313121417E+01	-9.14552448538E+01	-1.53082366070E+02	-1.01496685654E+02	1.42289472486E+02	-4.54579674999E+01	6.61848532866E+01
5.20435000000E+08	-5.02947606471E+01	6.12215365162E+01	-9.62409737430E+01	-1.07543699995E+02	-1.18288480609E+02	-9.75457797518E+00	-4.54631577362E+01	9.30675558079E+01
5.40432500000E+08	-5.40962642500E+01	8.49008447281E+01	-9.53559675033E+01	7.29467807409E+01	-9.20896265004E+01	-4.20986373609E+01	-4.65553090983E+01	1.20055147295E+02
5.60430000000E+08	-5.74193149956E+01	8.67007156111E+01	-8.77873651752E+01	3.57149333187E+01	-9.02556279760E+01	2.65276097838E+01	-4.94552124417E+01	1.44253424153E+02
5.80427500000E+08	-5.41245292174E+01	7.03319325689E+01	-1.04057169255E+02	-3.16043689932E+01	-9.70012626876E+01	-5.25079163264E+01	-5.76765221635E+01	1.51367874274E+02
6.00425000000E+08	-5.13500050219E+01	8.39213951823E+01	-9.35813660785E+01	-9.51594271316E+01	-8.79352417459E+01	1.27952399994E+01	-5.33966023890E+01	7.51680582420E+01
6.20422500000E+08	-4.85819371347E+01	1.09904614887E+02	-9.46821404586E+01	4.92052260800E+01	-8.96992596731E+01	1.76133228762E+02	-4.58533422436E+01	9.63100855230E+01
6.40420000000E+08	-4.71380322766E+01	1.42399088645E+02	-9.25987904279E+01	1.22731796245E+02	-9.32804669696E+01	2.71979507528E+01	-4.22750238516E+01	1.32254259479E+02
6.60417500000E+08	-4.73227054907E+01	1.78045177392E+02	-8.47421974178E+01	6.37085664531E+01	-9.16771640601E+01	-6.29546522853E+01	-4.04709016634E+01	1.67641709082E+02
6.80415000000E+08	-4.92680329780E+01	-1.40898065231E+02	-9.32117121426E+01	9.25562322904E+01	-1.00867669346E+02	-2.40072526778E+01	-4.04669908673E+01	-1.54276227521E+02
7.00412500000E+08	-5.26520329989E+01	-9.19227411503E+01	-9.31796950253E+01	5.64906024539E+01	-1.00243091468E+02	-1.69327211031E+02	-4.26024942710E+01	-1.13850485327E+02
7.20410000000E+08	-5.69544452313E+01	-6.12910568197E+00	-9.02600286381E+01	-6.81706214115E+01	-1.02128426476E+02	1.50449231149E+02	-4.88987396278E+01	-6.71071614478E+01
7.40407500000E+08	-5.55058629928E+01	8.89359038369E+01	-9.93461643022E+01	-6.39911097979E+01	-8.92465721465E+01	1.51731761983E+02	-5.59056869648E+01	8.53481719702E+01
7.60405000000E+08	-5.13496795320E+01	1.52885430447E+02	-8.83821805099E+01	1.62794627956E+02	-8.97224231135E+01	-6.64319240372E+00	-4.55773586799E+01	1.61110990340E+02
7.80402500000E+08	-4.99768354287E+01	-1.61159203266E+02	-9.00739894970E+01	-1.26615972398E+02	-8.52684454080E+01	1.65049777324E+02	-4.14805282125E+01	-1.55968612513E+02
8.00400000000E+08	-5.07475086867E+01	-1.18338501668E+02	-8.94964223289E+01	-1.06989241038E+02	-9.53154922882E+01	-5.78465506269E+01	-3.95879267712E+01	-1.16324365758E+02
8.20397500000E+08	-5.51928592257E+01	-7.10840184169E+01	-9.00232623067E+01	1.26862002677E+02	-8.62067180125E+01	1.68458390966E+01	-3.93877531814E+01	-7.68035688202E+01
8.40395000000E+08	-6.55383130793E+01	5.75016956179E+01	-9.68715104183E+01	4.85098389366E+01	-9.63779606160E+01	2.11175768482E+01	-4.05186611542E+01	-3.90703822781E+01
8.60392500000E+08	-5.47319996305E+01	1.76227233098E+02	-9.33657141090E+01	-1.68088205561E+02	-9.20883200285E+01	-7.39048544626E+01	-4.34120152886E+01	1.12266716785E+00
8.80390000000E+08	-4.88207191807E+01	-1.37928290300E+02	-9.16223169390E+01	1.54239101337E+02	-8.78905361818E+01	-1.75314865765E+02	-4.91983524994E+01	5.08254665495E+01
9.00387500000E+08	-4.60964022106E+01	-9.33109295035E+01	-9.04199239402E+01	8.34091279340E+01	-8.95336512559E+01	1.43537347335E+02	-5.53343989772E+01	1.67445001018E+02
9.20385000000E+08	-4.52371712280E+01	-5.14897189230E+01	-9.77101329521E+01	8.16770585520E+01	-9.15281777804E+01	-6.53253217982E+01	-4.64831449888E+01	-1.10841965708E+02
9.40382500000E+08	-4.56449451839E+01	-1.17164364526E+01	-9.29435041356E+01	1.27921583522E+02	-9.71818938269E+01	1.20896510326E+02	-4.24720413576E+01	-6.75653718823E+01
9.60380000000E+08	-4.79806439340E+01	2.58387307010E+01	-9.04370766463E+01	-1.78980117394E+02	-9.38981249106E+01	-6.73134837083E+01	-4.00363210659E+01	-2.46768321102E+01
9.80377500000E+08	-5.16337423598E+01	5.71877137252E+01	-8.81578176026E+01	9.21068037149E+01	-1.10091847657E+02	-1.10917849244E+02	-3.88502408882E+01	1.57328538886E+01
1.00037500000E+09	-5.85366620978E+01	4.80355401098E+01	-9.43042693641E+01	-9.61312261132E+00	-9.24971577523E+01	1.14202590049E+02	-3.87746685484E+01	5.47414558361E+01
1.02037250000E+09	-5.36413759286E+01	2.66116054142E+01	-8.37915325653E+01	1.36232993153E+02	-8.50124854664E+01	1.66756643931E+02	-4.02430800327E+01	9.19069193192E+01
1.04037000000E+09	-4.95332112754E+01	5.09394334346E+01	-9.34617038261E+01	1.58231761377E+02	-9.29175511520E+01	-2.64620604052E+01	-4.35783168549E+01	1.29065818277E+02
1.06036750000E+09	-4.75215342694E+01	8.59327362346E+01	-8.77557731522E+01	7.48446527291E+01	-8.52769205479E+01	9.72231522820E+01	-5.21608815986E+01	1.51999695503E+02
1.08036500000E+09	-4.72292465049E+01	1.28117370795E+02	-1.01248600441E+02	1.67358327637E+02	-9.36470182767E+01	1.59918283256E+02	-5.23191568620E+01	5.20785594426E+01
1.10036250000E+09	-4.91417114109E+01	1.77054143178E+02	-9.52983314734E+01	1.17064916640E+02	-9.55390844699E+01	1.65581426494E+02	-4.45645969714E+01	7.24066830545E+01
1.12036000000E+09	-5.27711210752E+01	-1.24268889562E+02	-8.62529109869E+01	1.54383849931E+02	-8.89225166462E+01	-1.65554893981E+02	-4.18480850275E+01	1.03151464594E+02
1.14035750000E+09	-5.38677514283E+01	-3.66714471991E+01	-9.77755064185E+01	4.24886730084E+01	-9.02157181970E+01	2.45698628909E+01	-4.12233556660E+01	1.30945390428E+02
1.16035500000E+09	-5.05507156076E+01	4.22350033366E+01	-8.49078095022E+01	3.23929634704E+00	-8.80446915509E+01	1.39930541583E+01	-4.17329129849E+01	1.51164246696E+02
1.18035250000E+09	-4.81476706692E+01	9.30195436915E+01	-8.76457293095E+01	9.09305252983E+00	-9.24498576574E+01	-2.46414004263E+01	-4.25903129028E+01	1.63059284679E+02
1.20035000000E+09	-4.73878661917E+01	1.37818803988E+02	-9.18574365310E+01	1.65367785785E+02	-9.03902442770E+01	9.02553559843E+01	-4.22376617686E+01	1.70199888744E+02
1.22034750000E+09	-4.88985379418E+01	1.74823576313E+02	-8.81767287198E+01	1.48736178717E+02	-8.84030327808E+01	1.15842424195E+02	-4.17875144423E+01	-1.78033626202E+02
1.24034500000E+09	-5.29479315667E+01	-1.52444695364E+02	-8.62155316799E+01	1.03467010612E+02	-8.46013886197E+01	4.01585393148E+01	-4.16687628333E+01	-1.62150984519E+02
1.26034250000E+09	-6.37252530095E+01	1.74179543186E+02	-8.41967777110E+01	3.91404177082E+01	-8.50355703364E+01	6.27425867312E+01	-4.23886034186E+01	-1.49955364882E+02
1.28034000000E+09	-5.26182417338E+01	1.37817080209E+02	-9.67786724020E+01	7.00740130461E+01	-8.83520676947E+01	6.59097099757E+01	-4.37702071396E+01	-1.41138142676E+02
1.30033750000E+09	-4.74217982269E+01	1.72198112124E+02	-8.98331095936E+01	-2.08720378689E+01	-8.20905033953E+01	8.29672663734E+01	-4.45457959174E+01	-1.36516544547E+02
1.32033500000E+09	-4.43608972373E+01	-1.53013287092E+02	-8.84516401019E+01	8.96444503405E+01	-8.47503572033E+01	-3.37238757577E+00	-4.48746236794E+01	-1.36322188154E+02
1.34033250000E+09	-4.36109802973E+01	-1.14717812195E+02	-9.07470518465E+01	2.82979751724E+01	-8.48538209729E+01	1.60667557295E+01	-4.45774478238E+01	-1.42668583012E+02
1.36033000000E+09	-4.39707144210E+01	-7.77895726161E+01	-8.73405278979E+01	7.23980608340E+01	-8.95836511863E+01	6.26683708754E+01	-4.19584628928E+01	-1.41461182012E+02
1.38032750000E+09	-4.50447668018E+01	-3.43382347400E+01	-8.88801279396E+01	1.20415314012E+02	-8.53808110691E+01	8.90451564777E+01	-3.90675582806E+01	-1.26046667680E+02
1.40032500000E+09	-4.80467599876E+01	1.22688097502E+01	-9.54598040211E+01	2.83560684391E+00	-8.08586991459E+01	1.86863150485E+00	-3.67968904672E+01	-9.97316595000E+01
1.42032250000E+09	-5.21578344085E+01	6.69960137098E+01	-8.63469824276E+01	2.68641233823E+01	-8.11787678951E+01	3.91432767696E+01	-3.58749698756E+01	-6.86568140235E+01
1.44032000000E+09	-5.83196419541E+01	1.48748658774E+02	-8.39002083118E+01	-1.14833064400E+01	-8.23168712084E+01	4.92517486045E+01	-3.62987856057E+01	-3.54892140361E+01
1.46031750000E+09	-5.59688024794E+01	-9.93999327189E+01	-8.82329154742E+01	4.49842279777E+01	-8.45169966212E+01	4.96545290952E+01	-3.81715601865E+01	1.63354171432E+00
1.48031500000E+09	-5.19779846753E+01	-3.56131311964E+01	-9.02679378175E+01	-3.82150220244E+01	-8.51314791430E+01	1.89068664836E+01	-4.31888896657E+01	3.67939101291E+01
1.50031250000E+09	-5.09909831584E+01	1.88210256914E+01	-8.27939821341E+01	1.93434419305E+01	-9.07528451312E+01	5.81749548653E-01	-6.72304124379E+01	5.43565439436E+01
1.52031000000E+09	-5.24296457390E+01	7.79606151887E+01	-8.58092166910E+01	2.89265509059E+00	-8.14628663241E+01	2.84589740969E+01	-4.40135951075E+01	-6.61244695006E+01
1.54030750000E+09	-5.40973472558E+01	1.56252139803E+02	-9.01283297425E+01	1.25350354561E+02	-8.49804224075E+01	4.68188029023E+01	-3.78924860768E+01	-3.04488406643E+01
1.56030500000E+09	-5.19603995505E+01	-1.13573939803E+02	-8.51139263292E+01	4.46817791561E+01	-8.40713070885E+01	5.96850878984E+01	-3.51210048700E+01	2.70240099903E+00
1.58030250000E+09	-4.75055959479E+01	-5.02046002128E+01	-8.76260708371E+01	3.74575077721E+01	-8.03167048066E+01	6.12331789107E+01	-3.36743822954E+01	3.30176871137E+01
1.60030000000E+09	-4.48914405423E+01	2.33188690501E+00	-8.03867921905E+01	2.74365024302E+01	-8.10242709368E+01	2.75627844280E+01	-3.32533919108E+01	6.17523984422E+01
1.62029750000E+09	-4.35064852475E+01	4.70056650691E+01	-8.32431510104E+01	1.16917981364E+01	-8.40264957358E+01	-2.47899430457E+01	-3.38641406393E+01	8.85192205643E+01
1.64029500000E+09	-4.37364711239E+01	8.73908132237E+01	-7.95879739931E+01	3.35657666644E+01	-8.03821449821E+01	2.19709138421E+01	-3.52838832165E+01	1.14215070282E+02
1.66029250000E+09	-4.57665924486E+01	1.21531046401E+02	-8.51878991248E+01	1.34248533616E+01	-8.18754441515E+01	4.17746934533E+01	-3.89311168802E+01	1.37204669707E+02
1.68029000000E+09	-4.98048473327E+01	1.33618855606E+02	-8.00093123420E+01	4.79118742775E+01	-8.29477616811E+01	5.77254812085E+01	-4.74694446888E+01	1.42118399360E+02
1.70028750000E+09	-5.11692148683E+01	1.14286912884E+02	-8.26488341047E+01	6.49409968263E+00	-8.19900288863E+01	3.56161494026E+01	-4.34913349539E+01	6.29231187890E+01
1.72028500000E+09	-4.65794545209E+01	1.19989562841E+02	-7.84648800949E+01	1.24880922175E+01	-7.92132149849E+01	1.37496102063E+01	-3.66173607781E+01	7.71196009352E+01
1.74028250000E+09	-4.42065406000E+01	1.50800688120E+02	-7.97204451994E+01	1.54353975189E+00	-7.90468607894E+01	-3.61366307175E-01	-3.34741189886E+01	1.03814186245E+02
1.76028000000E+09	-4.38155972529E+01	-1.74344318834E+02	-7.93037167140E+01	-2.36424197917E+00	-8.02358260430E+01	-1.59885156753E+01	-3.24569491688E+01	1.29027376125E+02
1.78027750000E+09	-4.50973126021E+01	-1.33601317787E+02	-7.92756929339E+01	9.39642247844E+00	-7.90481493328E+01	-4.43090961955E+00	-3.32699392821E+01	1.54779057200E+02
1.80027500000E+09	-4.81604641622E+01	-8.53127173117E+01	-8.08842196308E+01	-1.07990353687E+01	-7.95012151672E+01	9.77748701141E+00	-3.53286980522E+01	1.73452333777E+02
1.82027250000E+09	-5.27658746148E+01	-8.72933505598E+00	-7.97057158830E+01	-2.71158473673E+00	-7.83916891373E+01	-8.78240885716E+00	-3.84124831101E+01	-1.77823835574E+02
1.84027000000E+09	-5.24081125135E+01	8.31665341535E+01	-8.18243365378E+01	-1.26209198940E+01	-8.15867234729E+01	-3.75976546310E+00	-4.00201434029E+01	1.76930953922E+02
1.86026750000E+09	-4.94322957839E+01	1.44928861947E+02	-7.78763752021E+01	-1.65671309226E+01	-8.48533019155E+01	-1.34993174706E+01	-3.98016211132E+01	1.73066923514E+02
1.88026500000E+09	-4.84520959283E+01	-1.70604273188E+02	-8.25344313808E+01	-2.38576391585E+01	-7.97973511165E+01	8.85292207614E+00	-3.90360409954E+01	1.73593855685E+02
1.90026250000E+09	-5.01466734562E+01	-1.38248121296E+02	-8.15449618702E+01	-3.92024528768E+01	-8.17442316954E+01	-4.93174794864E+00	-3.75877919172E+01	1.75174847200E+02
1.92026000000E+09	-5.57246490565E+01	-1.07357577985E+02	-8.18130020431E+01	1.15227702756E+01	-8.10427007321E+01	-3.03052898224E+01	-3.55164043126E+01	-1.76093820714E+02
1.94025750000E+09	-6.08877337784E+01	1.78489577000E+02	-8.19296087618E+01	-5.10511575373E+00	-7.96518943709E+01	6.71504823367E-01	-3.38781970413E+01	-1.57893326186E+02
1.96025500000E+09	-5.04938766860E+01	-1.79959502193E+02	-7.80904890102E+01	-3.27508477218E+01	-8.10162863217E+01	1.96193544992E+01	-3.30118933540E+01	-1.31987048840E+02
1.98025250000E+09	-4.60376942174E+01	-1.48232309235E+02	-7.88011612096E+01	3.11942054501E+00	-7.61612852823E+01	-2.22888776347E+00	-3.31426760839E+01	-1.03566097836E+02
2.00025000000E+09	-4.31493002980E+01	-1.11210702088E+02	-7.76072609634E+01	-2.05425758231E+01	-8.10124410641E+01	-1.79283548754E+01	-3.45422452384E+01	-7.43469250843E+01
2.02024750000E+09	-4.16797087433E+01	-7.43886694909E+01	-7.95542471860E+01	-8.69118451752E+00	-7.54496302151E+01	-4.01290076000E+00	-3.73278870367E+01	-4.74903097464E+01
2.04024500000E+09	-4.16350920022E+01	-3.89300553995E+01	-7.54532200716E+01	-1.17699144720E+01	-7.80454972351E+01	-3.04812468749E+01	-4.17603601347E+01	-4.01352820543E+01
2.06024250000E+09	-4.25591881833E+01	-2.14156171695E-01	-7.65334143319E+01	-2.02001343623E+01	-7.75940816178E+01	2.25511116260E+00	-4.32584136876E+01	-6.36372855601E+01
2.08024000000E+09	-4.50183920953E+01	3.61246878268E+01	-8.01766281078E+01	-9.87005402513E+00	-7.77759352948E+01	7.91658380138E+00	-3.95412936157E+01	-6.67794723614E+01
2.10023750000E+09	-4.97353380716E+01	6.66466824692E+01	-7.31426161113E+01	-2.32830326918E+00	-7.76112183136E+01	-9.79566419927E+00	-3.68868892369E+01	-5.03636654388E+01
2.12023500000E+09	-5.85069507416E+01	4.91330070041E+01	-7.88982841458E+01	-8.19738785110E+00	-7.71618913676E+01	-4.45771804405E+00	-3.54955271671E+01	-2.95488570069E+01
2.14023250000E+09	-5.08900457453E+01	1.45111174359E+01	-7.55571618690E+01	-1.93392006134E+01	-7.70958925726E+01	-1.10266236380E+01	-3.45426146966E+01	-8.52347350234E+00
2.16023000000E+09	-4.58494225015E+01	4.24779387590E+01	-7.44628637114E+01	-2.11486498670E+01	-7.48847978951E+01	-1.15779289142E+01	-3.42085207870E+01	1.26454215177E+01
2.18022750000E+09	-4.46502679889E+01	8.11545082421E+01	-7.62823380865E+01	-2.18944322699E+01	-7.48940252593E+01	-1.42625935937E+01	-3.46698123016E+01	3.23014962051E+01
2.20022500000E+09	-4.57050701333E+01	1.22049181145E+02	-7.72263868608E+01	-1.11674890141E+01	-7.47453975765E+01	-1.77045422608E+01	-3.62489189376E+01	4.83509820262E+01
2.22022250000E+09	-5.00366449269E+01	-1.79008240100E+02	-7.35950735995E+01	3.64749696123E+00	-7.49405264370E+01	-1.87065554022E+01	-3.80635925047E+01	4.97129413299E+01
2.24022000000E+09	-5.34815110593E+01	-8.28610511176E+01	-7.36527227092E+01	2.56150141472E+00	-7.49887075506E+01	-1.18134339633E+01	-3.74655198528E+01	4.11420268623E+01
2.26021750000E+09	-4.78986189337E+01	6.60203933243E+00	-7.42622945504E+01	-1.17831496184E+01	-7.38008656665E+01	-2.60922531939E+01	-3.47706718840E+01	4.56274060149E+01
2.28021500000E+09	-4.40492118922E+01	5.63021530437E+01	-7.56100104435E+01	-1.02123171481E+01	-7.62175332155E+01	-8.53912811916E+00	-3.31191123132E+01	6.38055183518E+01
2.30021250000E+09	-4.19651821216E+01	9.68340962122E+01	-7.69376066964E+01	1.16180204995E+00	-7.50349717221E+01	-1.12253702286E+01	-3.28549682223E+01	8.52036339937E+01
2.32021000000E+09	-4.19260825509E+01	1.26273367757E+02	-7.76472335918E+01	2.68294150277E+00	-7.56215825376E+01	9.65492181803E+00	-3.41660844171E+01	1.03031301048E+02
