# Hz S DB R 50
! CMT, S5180, 51801906, 22.3.3/1
! Date: 27/01/2023 17:15:46
! Data: Format (Calibration Info)
! Freq	S11:dB/Ang(F2)	S21:dB/Ang(F2)	S12:dB/Ang(F2)	S22:dB/Ang(F2)
5.00000000000E+05	-2.00819215253E-01	-1.97701196744E+00	-6.00180859012E+01	-7.56270652032E+00	-8.13959790619E+01	-6.00681142227E+01	6.85530265841E-03	-1.13783975106E-01
2.04975000000E+07	-1.24749981476E-01	-1.87227517814E+01	-7.67196409653E+01	4.64035437315E+01	-7.54884089369E+01	1.57608600982E+01	-3.03427263820E-03	-6.61148431521E-01
4.04950000000E+07	-1.80435274026E-01	-3.64204697807E+01	-7.52052299215E+01	-8.33773010942E+01	-8.08835834752E+01	-7.46386655402E+01	-1.73249938778E-03	-1.17000719722E+00
6.04925000000E+07	-2.92409881310E-01	-5.40761930060E+01	-7.14212780412E+01	-2.79455225416E+01	-7.12193877607E+01	-3.18169119289E+01	-9.04505762084E-03	-1.68549548109E+00
8.04900000000E+07	-4.60487755861E-01	-7.18120517816E+01	-9.11858822777E+01	-6.52510770359E+01	-9.49149604540E+01	3.41417957664E+01	-1.73431296966E-02	-2.24549552583E+00
1.00487500000E+08	-6.38422893502E-01	-8.94088977643E+01	-9.08817826889E+01	4.49618364133E+01	-8.48322501759E+01	7.13251238680E+01	-2.18869296574E-02	-2.94518634643E+00
1.20485000000E+08	-8.20191520670E-01	-1.06861929922E+02	-9.22825648543E+01	-3.71557784401E+01	-9.54611872279E+01	-6.74363004814E+01	-2.01878784955E-02	-3.73627725889E+00
1.40482500000E+08	-1.02775182631E+00	-1.24194508352E+02	-8.36417509299E+01	1.48410454116E+02	-8.30850049943E+01	-1.77921637840E+02	-1.78698708386E-03	-4.45391360820E+00
1.60480000000E+08	-1.24686554477E+00	-1.41584786871E+02	-8.11257975233E+01	1.47711319759E+02	-8.69267108746E+01	1.42362488099E+02	3.32334130642E-03	-4.99146388010E+00
1.80477500000E+08	-1.46135686735E+00	-1.59091028341E+02	-7.77521281510E+01	1.64963559420E+02	-7.64002347961E+01	1.57729967962E+02	-7.21317647484E-03	-5.46089424155E+00
2.00475000000E+08	-1.66029687580E+00	-1.76618364296E+02	-7.35544231442E+01	1.48945975983E+02	-7.32888754128E+01	1.45654035805E+02	-2.41173006187E-02	-6.10918591626E+00
2.20472500000E+08	-1.87360836003E+00	1.65791102636E+02	-7.16364878744E+01	1.45507645187E+02	-7.23452402181E+01	1.44465665762E+02	-2.99130205438E-02	-6.89905643301E+00
2.40470000000E+08	-2.11101527088E+00	1.47909011083E+02	-6.96600078590E+01	1.38539713034E+02	-6.93804521196E+01	1.34652640094E+02	-9.92533110874E-03	-7.71832239578E+00
2.60467500000E+08	-2.35202029964E+00	1.29808773216E+02	-6.82487768779E+01	1.29714882518E+02	-6.91722488433E+01	1.30115313962E+02	1.76929937767E-02	-8.38131930731E+00
2.80465000000E+08	-2.57060747133E+00	1.11892109184E+02	-6.74336806829E+01	1.24726402273E+02	-6.78220837861E+01	1.19176358393E+02	3.10609529886E-02	-8.92542944012E+00
3.00462500000E+08	-2.80842028087E+00	9.44118338042E+01	-6.69169018698E+01	1.13276726326E+02	-6.66591873123E+01	1.11668277279E+02	3.04131316146E-02	-9.50956507372E+00
3.20460000000E+08	-3.09795941010E+00	7.71418928673E+01	-6.68731517993E+01	1.10632754155E+02	-6.69413989070E+01	1.09519140656E+02	2.20255516824E-02	-1.02235924086E+01
3.40457500000E+08	-3.40583250121E+00	6.00401729652E+01	-6.69412251374E+01	1.06197968840E+02	-6.70323747781E+01	9.74745407433E+01	2.96646943117E-02	-1.09550435516E+01
3.60455000000E+08	-3.70386314013E+00	4.33036234859E+01	-6.79736096553E+01	9.68320367475E+01	-6.84168149892E+01	8.83045134017E+01	4.69026814805E-02	-1.16145565920E+01
3.80452500000E+08	-4.01976639769E+00	2.70656899205E+01	-6.83888547710E+01	9.97858997806E+01	-6.86858775285E+01	9.15116004282E+01	5.90920213587E-02	-1.21970957069E+01
4.00450000000E+08	-4.39398076178E+00	1.10199115811E+01	-6.96888041020E+01	9.64765475589E+01	-6.89403555840E+01	8.98860319966E+01	6.64145830518E-02	-1.28262563828E+01
4.20447500000E+08	-4.78357844508E+00	-5.12311290343E+00	-7.12982694262E+01	1.05972016893E+02	-7.11934530361E+01	9.36672808595E+01	6.00385445582E-02	-1.35095632484E+01
4.40445000000E+08	-5.14687307085E+00	-2.11673687555E+01	-7.32344422681E+01	1.17022474689E+02	-7.28685637922E+01	1.11943466663E+02	6.06897713877E-02	-1.41438347277E+01
4.60442500000E+08	-5.48647780668E+00	-3.68342787271E+01	-8.03469815427E+01	1.52500681254E+02	-7.73215975906E+01	1.39217297391E+02	6.17544431100E-02	-1.47042133970E+01
4.80440000000E+08	-5.84938091795E+00	-5.24000185970E+01	-7.11736173392E+01	1.68859496483E+02	-7.13390339052E+01	1.56863216208E+02	6.41717168078E-02	-1.52001712903E+01
5.00437500000E+08	-6.23373731617E+00	-6.81465598013E+01	-6.91720746581E+01	1.79979808468E+02	-6.92380090626E+01	1.70470244308E+02	5.90636753809E-02	-1.57462390578E+01
5.20435000000E+08	-6.58486078682E+00	-8.39332299558E+01	-6.60202155257E+01	-1.67546527048E+02	-6.57858610099E+01	1.77306290831E+02	4.64933652879E-02	-1.63883527522E+01
5.40432500000E+08	-6.88798296824E+00	-9.94235269888E+01	-6.30586073756E+01	-1.71042038039E+02	-6.37658024295E+01	1.73922235554E+02	3.02288725612E-02	-1.71225977998E+01
5.60430000000E+08	-7.16805238115E+00	-1.14353189401E+02	-6.07737214756E+01	-1.71713215122E+02	-6.13376692684E+01	1.75301380495E+02	2.71208821613E-02	-1.78757280752E+01
5.80427500000E+08	-7.44988880827E+00	-1.28984205109E+02	-5.89743018891E+01	1.78314660878E+02	-5.98507356018E+01	1.62043940401E+02	3.30660786567E-02	-1.85208595490E+01
6.00425000000E+08	-7.72645921317E+00	-1.43392251383E+02	-5.80412822094E+01	1.72422647864E+02	-5.93422090713E+01	1.57480390913E+02	3.30455281959E-02	-1.90020175248E+01
6.20422500000E+08	-7.99246257421E+00	-1.57722176308E+02	-5.70519500129E+01	1.70080575931E+02	-5.87570281967E+01	1.56910679754E+02	9.98224867584E-03	-1.94379258224E+01
6.40420000000E+08	-8.24196110433E+00	-1.71808749184E+02	-5.56440857685E+01	1.59974979103E+02	-5.72504739289E+01	1.50124710745E+02	-2.05097635236E-02	-2.00683071611E+01
6.60417500000E+08	-8.57719433537E+00	1.74080727453E+02	-5.50186573437E+01	1.52685976662E+02	-5.64587902705E+01	1.45322476008E+02	-2.61398219226E-02	-2.10019651031E+01
6.80415000000E+08	-9.03460699108E+00	1.59169152021E+02	-5.44736289534E+01	1.46041315027E+02	-5.57763411204E+01	1.37389125284E+02	8.41811713872E-03	-2.19607628447E+01
7.00412500000E+08	-9.55106828046E+00	1.42812913258E+02	-5.43736245064E+01	1.36214341128E+02	-5.55973985303E+01	1.32669162257E+02	6.35694613741E-02	-2.26512423170E+01
7.20410000000E+08	-1.00078367294E+01	1.25248113361E+02	-5.47808747122E+01	1.34042029870E+02	-5.57969117473E+01	1.30330630171E+02	9.42156208885E-02	-2.29993969177E+01
7.40407500000E+08	-1.03805608768E+01	1.06721292712E+02	-5.47523424991E+01	1.24288061552E+02	-5.51181205906E+01	1.20833960774E+02	6.93496891208E-02	-2.33106798100E+01
7.60405000000E+08	-1.07568600583E+01	8.75146520438E+01	-5.54809483722E+01	1.18725864055E+02	-5.55460873021E+01	1.14263792904E+02	2.22049828074E-02	-2.39809602750E+01
7.80402500000E+08	-1.10539538791E+01	6.72211645111E+01	-5.64384592454E+01	1.13302379586E+02	-5.61290475690E+01	1.08693007568E+02	1.40752911462E-02	-2.50501351423E+01
8.00400000000E+08	-1.11401750380E+01	4.68502048952E+01	-5.77605777273E+01	1.05948369739E+02	-5.73039162770E+01	1.00488794327E+02	6.34339137537E-02	-2.61807610185E+01
8.20397500000E+08	-1.09874631620E+01	2.82566265838E+01	-6.15223261407E+01	1.07680962485E+02	-6.02061685334E+01	9.88002319587E+01	1.36741427402E-01	-2.69671086871E+01
8.40395000000E+08	-1.08258400381E+01	1.12578789274E+01	-6.28246868911E+01	1.13056684029E+02	-6.14369923304E+01	1.03407886941E+02	1.80689807691E-01	-2.73284254161E+01
8.60392500000E+08	-1.07333176138E+01	-4.25917538801E+00	-6.56510996124E+01	1.30471194891E+02	-6.36129886330E+01	1.17006243331E+02	1.72538958150E-01	-2.75618732504E+01
8.80390000000E+08	-1.06274307067E+01	-1.87408168356E+01	-6.77746296401E+01	1.65149455695E+02	-6.70745818343E+01	1.51609367131E+02	1.41910348130E-01	-2.79807023131E+01
9.00387500000E+08	-1.05050837366E+01	-3.18328598948E+01	-6.50332061253E+01	-1.75445627401E+02	-6.44133669486E+01	1.72130635098E+02	1.22134316277E-01	-2.87806571048E+01
9.20385000000E+08	-1.04836750519E+01	-4.31851459504E+01	-6.33397346666E+01	-1.45224461055E+02	-6.18729817559E+01	-1.62828703417E+02	1.35279906180E-01	-2.98399475337E+01
9.40382500000E+08	-1.06977803667E+01	-5.41553477354E+01	-5.97326408523E+01	-1.43923379893E+02	-5.83226583936E+01	-1.66916289821E+02	1.56877776853E-01	-3.07720654422E+01
9.60380000000E+08	-1.11320971475E+01	-6.54708175459E+01	-5.60992429265E+01	-1.38800388434E+02	-5.57519749619E+01	-1.65286015572E+02	1.73376899707E-01	-3.13053574666E+01
9.80377500000E+08	-1.17067962610E+01	-7.75356600463E+01	-5.36035477075E+01	-1.46056489072E+02	-5.41118533685E+01	-1.70769173923E+02	1.60017063316E-01	-3.15049270244E+01
1.00037500000E+09	-1.23315274308E+01	-8.99543643603E+01	-5.15535536125E+01	-1.51646485767E+02	-5.21505229119E+01	-1.71554999844E+02	1.26202032034E-01	-3.17305147423E+01
1.02037250000E+09	-1.30981007886E+01	-1.03307530000E+02	-4.98932025403E+01	-1.56855675602E+02	-5.02817243560E+01	-1.78512172635E+02	1.01684006114E-01	-3.22902262314E+01
1.04037000000E+09	-1.40999336883E+01	-1.18364750030E+02	-4.90231305765E+01	-1.63253602410E+02	-4.98066279825E+01	1.71721176867E+02	1.03345427859E-01	-3.31601437016E+01
1.06036750000E+09	-1.50198416947E+01	-1.35604656418E+02	-4.73564772929E+01	-1.68665841159E+02	-4.93242304713E+01	1.69130831131E+02	1.24295885214E-01	-3.39815973814E+01
1.08036500000E+09	-1.56799901814E+01	-1.54362316336E+02	-4.65912271870E+01	1.78457113452E+02	-4.88937331262E+01	1.63989418609E+02	1.29171842375E-01	-3.45564522496E+01
1.10036250000E+09	-1.61284199900E+01	-1.73501340475E+02	-4.61786264249E+01	1.66344302119E+02	-4.78897093782E+01	1.56161247849E+02	1.06675370774E-01	-3.49729447927E+01
1.12036000000E+09	-1.65506318248E+01	1.67104183331E+02	-4.66677054681E+01	1.60853934055E+02	-4.78695155691E+01	1.50225404932E+02	7.45532767527E-02	-3.54520279878E+01
1.14035750000E+09	-1.67077912027E+01	1.46878803501E+02	-4.67092048552E+01	1.54589537113E+02	-4.82286603747E+01	1.44800112081E+02	6.59037364103E-02	-3.60712762565E+01
1.16035500000E+09	-1.62874191799E+01	1.28130731650E+02	-4.59156079482E+01	1.50615248346E+02	-4.72285668865E+01	1.46545308091E+02	8.19999694115E-02	-3.68036224943E+01
1.18035250000E+09	-1.58639642748E+01	1.11635023833E+02	-4.66996483649E+01	1.37648860429E+02	-4.71254219773E+01	1.37838840053E+02	1.03397127490E-01	-3.74877964980E+01
1.20035000000E+09	-1.57141149525E+01	9.64798634149E+01	-4.75150952270E+01	1.32371755522E+02	-4.69602863024E+01	1.30608997523E+02	1.19215408928E-01	-3.81879303895E+01
1.22034750000E+09	-1.59463906272E+01	8.08115138082E+01	-4.86916474986E+01	1.25063923116E+02	-4.78994074715E+01	1.19137232301E+02	1.30940139225E-01	-3.89514133964E+01
1.24034500000E+09	-1.62322700202E+01	6.47441560588E+01	-4.97887615499E+01	1.25209346007E+02	-4.90072060091E+01	1.18096530070E+02	1.58877168443E-01	-3.97717220872E+01
1.26034250000E+09	-1.63831463123E+01	4.78036746540E+01	-5.06546814114E+01	1.22004046231E+02	-4.97483368904E+01	1.15475161089E+02	2.00236026959E-01	-4.05248387388E+01
1.28034000000E+09	-1.68125569980E+01	2.98751513129E+01	-5.25846822754E+01	1.21972871291E+02	-5.10062022467E+01	1.14354852894E+02	2.38540434432E-01	-4.11992562609E+01
1.30033750000E+09	-1.74032916155E+01	9.69152226330E+00	-5.50111032816E+01	1.30677196890E+02	-5.27603338037E+01	1.15761499459E+02	2.56691316069E-01	-4.18791627263E+01
1.32033500000E+09	-1.77620963085E+01	-1.37078396123E+01	-5.64504381916E+01	1.42003330346E+02	-5.47427693579E+01	1.23372111562E+02	2.68460545075E-01	-4.25714920429E+01
1.34033250000E+09	-1.73381080794E+01	-3.50862655318E+01	-5.78198980445E+01	1.66317339106E+02	-5.65548883687E+01	1.43708617261E+02	2.71761887936E-01	-4.33728805611E+01
1.36033000000E+09	-1.64990930571E+01	-5.30755998616E+01	-5.67456985763E+01	-1.71729534425E+02	-5.52275445384E+01	1.67894231770E+02	2.66622979673E-01	-4.43139346495E+01
1.38032750000E+09	-1.58600672335E+01	-6.88890148138E+01	-5.47560665799E+01	-1.53900363974E+02	-5.32345384057E+01	-1.77760175927E+02	2.66769232792E-01	-4.53887149301E+01
1.40032500000E+09	-1.52891696834E+01	-8.28861676734E+01	-5.20752941051E+01	-1.40918732376E+02	-5.05381396155E+01	-1.70595392796E+02	3.01310119908E-01	-4.63164772203E+01
1.42032250000E+09	-1.47124463324E+01	-9.59331809555E+01	-4.88984468872E+01	-1.37421933755E+02	-4.84450429858E+01	-1.70185520827E+02	3.73626759999E-01	-4.69388993691E+01
1.44032000000E+09	-1.40866788347E+01	-1.06272637121E+02	-4.63674245542E+01	-1.40638614187E+02	-4.65227609304E+01	-1.70728143988E+02	4.39986292703E-01	-4.73171625606E+01
1.46031750000E+09	-1.35767236310E+01	-1.15037106900E+02	-4.50546015822E+01	-1.45794646562E+02	-4.51135700451E+01	-1.74848342968E+02	4.42706935048E-01	-4.76492438752E+01
1.48031500000E+09	-1.33945924602E+01	-1.22998756296E+02	-4.35780593557E+01	-1.44886800779E+02	-4.37035143986E+01	-1.76895734626E+02	3.84747919924E-01	-4.82883312305E+01
1.50031250000E+09	-1.35355046517E+01	-1.30848403843E+02	-4.13494980673E+01	-1.49457615710E+02	-4.25904464313E+01	1.76095172122E+02	3.22483588185E-01	-4.91172959846E+01
1.52031000000E+09	-1.38636415804E+01	-1.38560630462E+02	-3.96374656221E+01	-1.61058792565E+02	-4.20860675024E+01	1.69768158527E+02	3.24041363613E-01	-4.97848708917E+01
1.54030750000E+09	-1.44088001033E+01	-1.45586269779E+02	-3.95133370812E+01	-1.74428535146E+02	-4.19798568292E+01	1.64212052324E+02	3.86120232951E-01	-5.00655762419E+01
1.56030500000E+09	-1.53735045286E+01	-1.53119665785E+02	-3.96433018047E+01	-1.78927179176E+02	-4.15338578407E+01	1.62736036741E+02	4.53949473047E-01	-5.01457167080E+01
1.58030250000E+09	-1.71141484909E+01	-1.62324721280E+02	-3.93460645689E+01	1.78723849692E+02	-4.10583616112E+01	1.58997031424E+02	4.67458094022E-01	-5.04374773392E+01
1.60030000000E+09	-1.98719257556E+01	-1.76629785892E+02	-3.86494801684E+01	1.71219711232E+02	-4.07468166590E+01	1.53218252012E+02	4.08257225870E-01	-5.11053358165E+01
1.62029750000E+09	-2.31395242945E+01	1.59485948662E+02	-3.87184532460E+01	1.60120505509E+02	-4.07001918837E+01	1.47615599968E+02	3.20955124480E-01	-5.20411622771E+01
1.64029500000E+09	-2.53120347437E+01	1.19781614139E+02	-3.97204164468E+01	1.51843648466E+02	-4.09375115382E+01	1.42831201093E+02	2.70686170248E-01	-5.30111540412E+01
1.66029250000E+09	-2.39457040539E+01	7.11758758701E+01	-4.05619080641E+01	1.48511306098E+02	-4.10015295733E+01	1.37797585170E+02	3.06496635425E-01	-5.38530844234E+01
1.68029000000E+09	-2.04350856419E+01	4.10372619464E+01	-4.12063201078E+01	1.45806078465E+02	-4.11898194573E+01	1.33633278064E+02	4.15535201148E-01	-5.45158450652E+01
1.70028750000E+09	-1.76157429458E+01	2.43708421977E+01	-4.20257565726E+01	1.40096096068E+02	-4.14693779916E+01	1.27968789383E+02	5.07400335161E-01	-5.50047019460E+01
1.72028500000E+09	-1.57574500681E+01	1.39001243396E+01	-4.36583130767E+01	1.36079174626E+02	-4.20812505468E+01	1.21210611720E+02	5.01060398361E-01	-5.55653045978E+01
1.74028250000E+09	-1.46449602594E+01	5.44886185782E+00	-4.56936586533E+01	1.38492133158E+02	-4.36290299753E+01	1.16032190666E+02	4.03310764931E-01	-5.63242287763E+01
1.76028000000E+09	-1.37431113367E+01	-4.08331653097E+00	-4.66270403429E+01	1.47027322884E+02	-4.49644658284E+01	1.18966064396E+02	2.99724215040E-01	-5.74551571909E+01
1.78027750000E+09	-1.32059634231E+01	-1.25525308025E+01	-4.73575487481E+01	1.51210928037E+02	-4.61058198936E+01	1.22275377996E+02	2.73519725019E-01	-5.87926838538E+01
1.80027500000E+09	-1.30506908849E+01	-1.99338854444E+01	-4.87608362351E+01	1.54725672567E+02	-4.72269270321E+01	1.26494438960E+02	3.22925105529E-01	-6.01045482891E+01
1.82027250000E+09	-1.34167318993E+01	-2.53215171251E+01	-5.06918582734E+01	1.67287865487E+02	-4.84878855010E+01	1.36011736867E+02	3.84930371034E-01	-6.12419856031E+01
1.84027000000E+09	-1.41353362594E+01	-3.19358270486E+01	-5.14997374509E+01	-1.69307692648E+02	-4.91934705998E+01	1.51759044717E+02	3.92693870227E-01	-6.21619376680E+01
1.86026750000E+09	-1.53076399280E+01	-4.12638183075E+01	-4.94741284995E+01	-1.44622555053E+02	-4.80246835567E+01	1.72474786321E+02	3.60439131770E-01	-6.28588805659E+01
1.88026500000E+09	-1.68587517485E+01	-5.24483010740E+01	-4.63461849138E+01	-1.36371276061E+02	-4.56018308895E+01	-1.76796846146E+02	3.23361917810E-01	-6.34675298742E+01
1.90026250000E+09	-1.86976470406E+01	-6.54759756137E+01	-4.38818458013E+01	-1.37130207359E+02	-4.32547143112E+01	-1.73805162504E+02	2.97099551691E-01	-6.41091279786E+01
1.92026000000E+09	-2.07858418843E+01	-8.30213341722E+01	-4.22091092127E+01	-1.38989203181E+02	-4.13981750550E+01	-1.74917175807E+02	2.66874198310E-01	-6.50080100924E+01
1.94025750000E+09	-2.22649461236E+01	-1.11766639273E+02	-4.07379980733E+01	-1.36472797387E+02	-4.00784467506E+01	-1.74939927751E+02	2.43550372376E-01	-6.61975282799E+01
1.96025500000E+09	-2.17923045574E+01	-1.44146992973E+02	-3.82172006785E+01	-1.38816298145E+02	-3.83471982224E+01	-1.77243180500E+02	2.58288222081E-01	-6.73755120055E+01
1.98025250000E+09	-2.00448654275E+01	-1.66024328175E+02	-3.61210415058E+01	-1.49719315821E+02	-3.69517289692E+01	1.77036246104E+02	3.20403237714E-01	-6.81555283615E+01
2.00025000000E+09	-1.86099565448E+01	-1.79216906040E+02	-3.52641625552E+01	-1.62726680560E+02	-3.61016990625E+01	1.70046556838E+02	4.05837128903E-01	-6.83697477533E+01
2.02024750000E+09	-1.74902899136E+01	1.71512010494E+02	-3.52056050222E+01	-1.69679916436E+02	-3.57432365461E+01	1.66045580130E+02	4.50736643398E-01	-6.84737793014E+01
2.04024500000E+09	-1.66714498867E+01	1.61984031298E+02	-3.42764520663E+01	-1.74425469674E+02	-3.49407062597E+01	1.62767926634E+02	4.49134042515E-01	-6.89058676075E+01
2.06024250000E+09	-1.61412091084E+01	1.54584899601E+02	-3.35132493605E+01	1.76884597154E+02	-3.45357966296E+01	1.58585700242E+02	4.31637910095E-01	-6.96708421547E+01
2.08024000000E+09	-1.59543322362E+01	1.48944209559E+02	-3.31801240521E+01	1.66425508130E+02	-3.39886088747E+01	1.54438903993E+02	4.43821290260E-01	-7.05359456140E+01
2.10023750000E+09	-1.63976542696E+01	1.45489921917E+02	-3.36067828099E+01	1.58133519559E+02	-3.36285710241E+01	1.49118050870E+02	4.91560082269E-01	-7.11330218713E+01
2.12023500000E+09	-1.73860072270E+01	1.40744047603E+02	-3.41714682827E+01	1.52396391350E+02	-3.36053546514E+01	1.41904815101E+02	5.43490445377E-01	-7.14676139718E+01
2.14023250000E+09	-1.95113537753E+01	1.33958707329E+02	-3.43139030538E+01	1.50753225620E+02	-3.35096680555E+01	1.37463513428E+02	5.71606189115E-01	-7.17110220879E+01
2.16023000000E+09	-2.28250699449E+01	1.25344680323E+02	-3.44837006794E+01	1.44962656007E+02	-3.36582466605E+01	1.30458393271E+02	5.50114495505E-01	-7.20843611122E+01
2.18022750000E+09	-2.87732610697E+01	1.04381303247E+02	-3.52677974858E+01	1.42017677686E+02	-3.41477558583E+01	1.25860302653E+02	4.87556954289E-01	-7.26914451546E+01
2.20022500000E+09	-3.42958993020E+01	-9.73982958698E+00	-3.59813141108E+01	1.39650206428E+02	-3.46196254304E+01	1.19407712152E+02	4.17422922306E-01	-7.35812646755E+01
2.22022250000E+09	-2.40123523891E+01	-4.34440777272E+01	-3.70594184136E+01	1.40408357862E+02	-3.58566635421E+01	1.14706625436E+02	3.83932717235E-01	-7.45752024460E+01
2.24022000000E+09	-1.87565858034E+01	-5.12592038657E+01	-3.76396722511E+01	1.44132469350E+02	-3.68491238419E+01	1.14412274838E+02	3.90499240520E-01	-7.53555198802E+01
2.26021750000E+09	-1.61094447922E+01	-5.56403656534E+01	-3.83006348766E+01	1.45445857566E+02	-3.79292932494E+01	1.13080104858E+02	3.84289157416E-01	-7.58618704429E+01
2.28021500000E+09	-1.43615099226E+01	-5.93184666099E+01	-3.92489851406E+01	1.49947510809E+02	-3.91797338764E+01	1.16163924839E+02	3.22607338800E-01	-7.62563981530E+01
2.30021250000E+09	-1.33618794165E+01	-6.43035494258E+01	-4.01342721564E+01	1.55670193777E+02	-4.02417694265E+01	1.20029170468E+02	2.29141038946E-01	-7.68753479228E+01
2.32021000000E+09	-1.26600448228E+01	-6.78748705904E+01	-4.14531534605E+01	1.64811885830E+02	-4.18531148569E+01	1.28187391758E+02	1.56378852488E-01	-7.77895248278E+01
