! PocketVna 1.60  pocketvna.com
! Live measurements ((Reflection-S11, Transmission-S21, Transmission-S12, Reflection-S22) Linear 5000000-2000000000/800 calibrated)
# Hz S RI R 50
! Hz          ReS11                      ImS11                      ReS21                      ImS21                      ReS12                      ImS12                      ReS22                      ImS22                      
5000000       0.681505988688069          -0.13123511418949577       -0.039775058976258257      0.10483753903692902        0.045739001190930551       0.094539513691735647       1.6348755387399041         0.24515096685479212        
7496871       0.6764010527359916         -0.25216826022903893       -0.025331294584010046      0.12196179581979616        0.026914690095426401       0.19350257305471655        3.6621772118160241         -0.017896465750545782      
9993742       0.66563071988506084        -0.3214452962603952        0.03329212187736208        0.22412527203127799        0.071941852023909972       0.17511159786147032        2.8835066957718944         -0.16335737689632882       
12490613      0.77704268274677357        -0.45670742467070269       0.065236772861634165       0.22004648460341097        0.059471631594263497       0.21064611763038904        2.2515090318137982         -5.4047706180662018        
14987484      0.63662854540952207        -0.62128520764643391       0.10902672745307211        0.26242884969676694        0.12518946060408781        0.27011679761107399        2.9018488051679623         -3.8231467016791116        
17484355      0.52498141852518887        -0.64009005970577237       0.13884716667278632        0.2469452754404251         0.1516669341682429         0.26498429648847976        0.16186823150953308        -2.8133185629423552        
19981226      0.30530465006428281        -0.80976696188212427       0.18226764288022707        0.27363479785666273        0.17374885801101481        0.29064322152320649        -0.17067815161513697       -2.1702168385514722        
22478097      0.20244951979177189        -0.72747652803126961       0.23103036016634892        0.32126916494683189        0.22317227760735431        0.30353593461003747        -0.13113122270190261       -1.9543012728469058        
24974968      0.12116878954796557        -0.7349687513102271        0.27667442638172735        0.31168357933552532        0.26595690961326479        0.30967966899681204        -0.2489175067303758        -1.5977992488747048        
27471839      -0.032497192713553322      -0.72428239885066037       0.30854256919756057        0.30645918798776495        0.31599168081201484        0.32112094168100941        -0.22121645040258431       -1.2969793757338124        
29968710      -0.07856037281210651       -0.71611966008110939       0.36182021979629653        0.30609994996149459        0.36451911924302421        0.30896776120751118        -0.24036296305177407       -1.1540748111492529        
32465581      -0.14950028175978597       -0.66030296864421278       0.40626719938638328        0.30323480410738507        0.40842290700190059        0.30490001693236735        -0.28302313914687977       -1.0263274001735656        
34962453      -0.21949558137378899       -0.61529661552892634       0.43818931690782448        0.28730870475056691        0.44439443001506368        0.30094894525076438        -0.26822942056062543       -0.94008793914918831       
37459324      -0.2622225525161887        -0.57671331624736344       0.47213857114407071        0.28840906357929919        0.46755561411256041        0.27896407824721492        -0.30457438714572099       -0.84578845155006899       
39956195      -0.25371379249231335       -0.55575238491938461       0.50777499532238202        0.27040078910462717        0.5044803065227802         0.27441919319211194        -0.33292607686556347       -0.77967227647745774       
42453066      -0.30137087290667486       -0.51520452647027692       0.52787335023812942        0.25845279389673986        0.52195887978524025        0.2668632368345803         -0.27816723408035804       -0.72183316513164064       
44949937      -0.31531958831739798       -0.46934212950529935       0.54682102945092503        0.24362275837689823        0.5454851580546124         0.24189268765418212        -0.28494414816364017       -0.66189443061041942       
47446808      -0.32237566095823761       -0.43475014043166238       0.57007136688311433        0.21703368062561909        0.56266523470423324        0.22417713732283295        -0.23571607563527608       -0.60545055344994747       
49943679      -0.32683002155395857       -0.37136184295829322       0.57812290295223423        0.18301152048671981        0.57524409653245712        0.19901705336473341        -0.25352147744549935       -0.55586211258244211       
52440550      -0.32884948139892117       -0.33593475877228923       0.58684332538520434        0.16820911300372657        0.58521582795282123        0.16664801798239801        -0.2367688419594195        -0.49185098650133391       
54937421      -0.34267820923353448       -0.28866468685180446       0.59697285367556452        0.13143916479009563        0.59268425828278826        0.13520045241301895        -0.20982809521948759       -0.40969443688044788       
57434292      -0.34202273968205849       -0.2322151219400081        0.6055028271739693         0.10140126257238122        0.59338490845444625        0.10251321094050385        -0.21295905554199859       -0.35133379687171828       
59931163      -0.34374569302594704       -0.18438881682613059       0.60866137598376724        0.07348998174472543        0.6028522082761909         0.069695924143012206       -0.22052219760922889       -0.29016504644258784       
62428035      -0.35011153044157323       -0.1439424424114501        0.61196015914933932        0.042634971981418558       0.61203858508217868        0.04742243750301358        -0.21128665973638477       -0.21169239290170111       
64924906      -0.34997137900337139       -0.099420697374423356      0.61261363155009185        0.022340402355784435       0.60859451384186314        0.021698052605417791       -0.20818593923482046       -0.16954687050202771       
67421777      -0.34807732065019759       -0.061466982132949169      0.60250391397186032        0.00085464250312643718     0.60541925921706041        -0.0016840837623584386     -0.2201890500527757        -0.1154598754719196        
69918648      -0.35091743688184202       -0.033597094411116857      0.59865314741623576        -0.017432277176253175      0.59606809450784415        -0.016215541196600049      -0.2176684351516234        -0.069347306045851112      
72415519      -0.34437605882356992       -0.017494819759561363      0.58869362772130784        -0.036223596784012616      0.5877066075472942         -0.038971540206228047      -0.21223912914580825       -0.030637458490799106      
74912390      -0.34803435096550445       0.0095048299724102576      0.57544166717932832        -0.05427932572099451       0.57665168155353141        -0.056155668049643157      -0.21928117844368489       0.001908620596650082       
77409261      -0.34365802235306836       0.03814466046945434        0.56493151981088829        -0.068425117391541515      0.5673242687758947         -0.071568608118369015      -0.22104379760643864       0.05309338249519046        
79906132      -0.34583888777384186       0.062568362923175164       0.550925419362855          -0.082773379603215846      0.5582283008926664         -0.086643440128745891      -0.20453668266341843       0.081680244283219364       
82403003      -0.34744382727324996       0.081846244427501755       0.54274508161075907        -0.097208575307223044      0.54598480807650651        -0.098591623645465018      -0.20937877718541104       0.1252810345231391         
84899874      -0.34191702062181606       0.10972633723670631        0.52916337115863921        -0.10664589783189503       0.53528361604067232        -0.10933928680743013       -0.20983994964472466       0.166757689864586          
87396745      -0.33365727117575578       0.1232126341449829         0.51969081939632356        -0.11906958342879237       0.52762049045254411        -0.12019307358640668       -0.21143272748410025       0.20121228795606955        
89893616      -0.34085405987028067       0.1492689112845246         0.51083392611493039        -0.12756728484858665       0.51892330942734388        -0.13149225584613633       -0.24572586523467013       0.22217336847996397        
92390488      -0.33744666940311974       0.17546644414385867        0.50238669258957735        -0.13240119609500461       0.50853796174723187        -0.14048630875592663       -0.25053807416872531       0.27227367856123569        
94887359      -0.35722351898588339       0.19278401891735897        0.49750456439577845        -0.14667570855302331       0.50433235895621054        -0.14741109859064827       -0.27207983513481898       0.28919730878422628        
97384230      -0.3454088602879351        0.21359554323021085        0.48898993124622869        -0.15035513008341786       0.49776665775157475        -0.15231630668567889       -0.29400592279184568       0.3160997011283404         
99881101      -0.36657806931991394       0.22545999877667033        0.48765417921222487        -0.15200878960437417       0.49857763184316156        -0.15226820763652582       -0.32050878002005401       0.34189217139112787        
102377972     -0.36996834451779803       0.23331594503494457        0.48119278224562151        -0.16252715690721567       0.48986527440574856        -0.15826916298629132       -0.35312197734877737       0.35917334470642903        
104874843     -0.38340605031348046       0.2503839924248969         0.47979143296353993        -0.15754584947950412       0.48959953370422254        -0.15989265117596932       -0.37723237642062635       0.36616761705666478        
107371714     -0.40099912885345473       0.25692765261103928        0.48097983430003588        -0.16014195852466748       0.48601652179568905        -0.15914671729573129       -0.4101221261354287        0.37257854533779428        
109868585     -0.39563653573464502       0.25405140900227552        0.4746402925933037         -0.1594785357734638        0.47974265169090147        -0.15789977516777048       -0.43695918429171632       0.37790455331566208        
112365456     -0.41635023188298326       0.26030219259921217        0.47291713359120213        -0.15925435569213842       0.47786946379446366        -0.15596303125344368       -0.4534291969832504        0.36639224756955502        
114862327     -0.43075718206429819       0.26869857879966236        0.47458686873064415        -0.15492947378290906       0.47804810504354373        -0.15027115518962519       -0.48833528259081355       0.35935019197300622        
117359198     -0.43932131268107877       0.27859832808891966        0.47132988480422811        -0.15470996237749451       0.47693921613799006        -0.15379381338633097       -0.50997619563417251       0.34916343909906861        
119856070     -0.44999036561132605       0.26875134670452444        0.47092060322269258        -0.14915105691017397       0.47388350821990244        -0.14792324980033569       -0.52355431853263501       0.34556657574211508        
122352941     -0.45612315370595097       0.27516071881893622        0.47384566506953191        -0.14703863327743821       0.47159975024780681        -0.14725628613784594       -0.53944496865879343       0.33313381487531463        
124849812     -0.47154178392997476       0.2829867481265671         0.47182781430229465        -0.14471168504239396       0.46801715618224066        -0.14012840477846913       -0.55110132696243952       0.32319502916467518        
127346683     -0.48652892386187213       0.28424201589883269        0.47217252208927074        -0.13927744229055308       0.46817394835952025        -0.14666354650403823       -0.57701722444730696       0.3354878717894107         
129843554     -0.49052014214406225       0.29178434879648196        0.4752737006126771         -0.14256697796479495       0.46899475754933023        -0.13989557960329851       -0.59637709115054349       0.32596436269429069        
132340425     -0.49838917157587181       0.28607039550793106        0.47140702363369785        -0.13869073428492804       0.4653528695684101         -0.13929004299780962       -0.59359752845865232       0.32014389027766721        
134837296     -0.50895031120246359       0.28908096589281751        0.47706660363495362        -0.14040096155871676       0.46748641530945989        -0.1467521245650685        -0.61948675080217575       0.31015822834642193        
137334167     -0.52050460666699649       0.29174952707032925        0.47540610292553587        -0.14220737601314518       0.46857460486786928        -0.14458035932079161       -0.63621125922257771       0.3064574621783126         
139831038     -0.53670726131536439       0.29604981300127087        0.47995285772472995        -0.14377058548638422       0.4695347473439247         -0.15183324969786971       -0.64158813416652782       0.30597743987158615        
142327909     -0.53949550827877513       0.29658925445773004        0.48198585506915176        -0.15078968222883479       0.47205067784524185        -0.15562576789302496       -0.64969629865062761       0.29854743150929114        
144824780     -0.56001106565360703       0.30211145653795629        0.48425273499501748        -0.15575994962788334       0.47597950942222494        -0.16527655646431158       -0.6752321710119612        0.29444843314378832        
147321652     -0.55180811280181363       0.31119693759121009        0.48763924349001203        -0.16396001680726119       0.48141778907753574        -0.17340045294478171       -0.68439245123437631       0.29403769010978625        
149818523     -0.56652627499127839       0.31144735013813607        0.4962545735591129         -0.17471754566420195       0.49227016834684595        -0.18355795721479842       -0.69967939014407055       0.2906192375918854         
152315394     -0.56728434311908205       0.32153440165615982        0.50586808012631823        -0.18444327041206354       0.49943921193595137        -0.19384278800716367       -0.71543040548541659       0.27925796199464586        
154812265     -0.59052885117759546       0.32966580526144024        0.50780544864623334        -0.19422367103999608       0.51301156985907992        -0.20633089379910424       -0.73183891564977077       0.28158833731620941        
157309136     -0.58772004129483868       0.33971262584213363        0.51956596037436276        -0.20912221073936269       0.52226486491456026        -0.21308856701739046       -0.73944279934782431       0.27117092391755876        
159806007     -0.618725420506826         0.34720501614236948        0.5300001384165981         -0.22469572828532502       0.53482195805475097        -0.22882823280931286       -0.75700466044629811       0.26681130283484145        
162302878     -0.62656744553509525       0.34908128017890366        0.54267374180500705        -0.24668556927353166       0.54760958108214353        -0.24422047752831577       -0.76634198639254059       0.27234221976870276        
164799749     -0.62932093648559084       0.35400269768450393        0.55567710784512603        -0.25877784098538431       0.56519705540938692        -0.25698115013520367       -0.773814525814986         0.25758901338155843        
167296620     -0.63781660339000157       0.36132984099566973        0.5639816068371134         -0.27783652344552728       0.57759998887965036        -0.275903031016552         -0.78355932757769076       0.24695137434474054        
169793491     -0.65685932875069419       0.3709042484047485         0.57712346732966868        -0.30246376998343805       0.58925934257066082        -0.28976837450075632       -0.79057789961774394       0.24186316388695289        
172290362     -0.67515192210459973       0.36391998816314436        0.59401970956515426        -0.3239702753422809        0.60063164617780274        -0.30638716855034648       -0.80417340725354036       0.23821748304640811        
174787233     -0.67231496907389721       0.37285024960437463        0.60756225790113971        -0.34781458413061866       0.6136071895824422         -0.32651434520699235       -0.79846481022224558       0.21842372507788688        
177284105     -0.68500030430242731       0.37183121573984096        0.62137221540184051        -0.37001535031080374       0.62281204173180493        -0.34131486323600879       -0.80340100796625058       0.22725873481110775        
179780976     -0.69664324767443486       0.36718080075659632        0.62907554203451477        -0.39695645698684634       0.63186376223150398        -0.36396193073469968       -0.80729232072787138       0.2218429271310659         
182277847     -0.70587260700318288       0.36579306594184474        0.62606552397847026        -0.41724449756017723       0.63325095633705453        -0.38488454615012213       -0.80079004295492806       0.21237682073137923        
184774718     -0.69456048346387378       0.37052461263650155        0.6378259482391283         -0.44614972836131112       0.63572381784193899        -0.40808075429538759       -0.80287146392786746       0.20011732438924093        
187271589     -0.69690497979882327       0.3570054612684917         0.63467682250831015        -0.46772666614617464       0.63237074706282548        -0.42882830332689503       -0.7904102531210716        0.19460218375612817        
189768460     -0.69532739876605876       0.34806541232508997        0.62951199318036044        -0.489177315826477         0.623400565800727          -0.45149881124241353       -0.7803204926758075        0.18579676558543159        
192265331     -0.66641780121796335       0.33356049169858665        0.62224665858090267        -0.51007136394758579       0.60543018149372119        -0.47736918229708614       -0.77043221209523649       0.18154166801167898        
194762202     -0.65598816496917056       0.33392758960693336        0.59957972782402702        -0.53477241207062798       0.58893978506948708        -0.50253883121360776       -0.75123622057117789       0.17512516306467035        
197259073     -0.63432998146262298       0.32718238432623048        0.57533024181242243        -0.55281063909045669       0.55478048534291258        -0.52530997387108669       -0.72385990367221908       0.17006915533252956        
199755944     -0.59960614496636155       0.32641455388034296        0.54721406401976203        -0.57618866681728165       0.52517449927356852        -0.5423287728834697        -0.71076198524205758       0.16209546592024243        
202252815     -0.57476584625133198       0.32352963417457964        0.50401115863364399        -0.58772968198680342       0.48527259474707884        -0.57065008003732465       -0.68143591734881992       0.16091309959992139        
204749687     -0.52710326931516671       0.32697794443578809        0.46767993537036756        -0.60109175736939391       0.43745456526991788        -0.59007672600286099       -0.65634574681130919       0.16611342338837704        
207246558     -0.5030603646670444        0.32803590517037945        0.42116325255681142        -0.61611086746664334       0.38730135754033768        -0.61096241047348598       -0.62507289239830943       0.16491455618786433        
209743429     -0.46269302265761048       0.33223910814630392        0.37186838748977713        -0.61497099103037689       0.34263445647904678        -0.62911289056065112       -0.59490482773604469       0.16428195231713735        
212240300     -0.4331683951560702        0.34030463401558197        0.32585431130494719        -0.61458739663205852       0.29230836491717016        -0.63116489379043295       -0.56989571490840785       0.15816894084717986        
