! PocketVna 1.60  pocketvna.com
! Live measurements ((Reflection-S11, Transmission-S21, Transmission-S12, Reflection-S22) Linear 5000000-2000000000/800 calibrated)
# Hz S RI R 50
! Hz          ReS11                      ImS11                      ReS21                      ImS21                      ReS12                      ImS12                      ReS22                      ImS22                      
5000000       0.80407772660793364        -0.013293154744946177      0.91463028481917441        0.041841582650106554       0.88663662834146684        -0.021707533083569264      1.2860158477644774         -0.21753726371761178       
7496871       0.80858886231012561        -0.088065571164228015      0.87212135054975115        0.0142800540337645         0.8809208865791438         0.022302145716811973       1.5939055442856489         -0.25499074124662724       
9993742       0.7981682804317719         -0.11810215684196214       0.88986189375329361        0.0051710877287619791      0.86550924770764659        -0.022019158424174876      1.4528586254449796         -0.37203952736514723       
12490613      0.87813233070912433        -0.20172752221710158       0.91338000212296011        0.037825450066654491       0.90385334890763491        -0.025272110328601164      1.5338062947016091         -0.60943478334947576       
14987484      0.82061479749670052        -0.28019440887564984       0.90989472065585186        -0.011122107008156175      0.91299331731342215        0.0055575722715436723      1.309231683877748          -0.764019553107809         
17484355      0.74115262329123255        -0.33424896955831007       0.90009734027201049        -0.010437844086846578      0.90964184982038176        0.0091678067298515444      1.3280121068791833         -0.8789286420902015        
19981226      0.7143518096904905         -0.44228025216233779       0.91879227779784989        -0.016124232680780993      0.92251458890500904        0.0050075251924810056      1.1110775405949807         -1.0045708693119511        
22478097      0.67640065160166041        -0.48445260623836511       0.9148272909660794         -0.015449033523750159      0.90024439776619802        -0.012436316494637311      1.1157350844778109         -0.97075438798360525       
24974968      0.59832627784667125        -0.58190363029366721       0.92102566165342137        -0.035660624783667584      0.93571396331939505        -0.020958164660053385      0.83512461227362245        -1.1394624847849999        
27471839      0.49349356560129104        -0.62692697056439062       0.92223319532940973        -0.033413437536779125      0.92741946723474888        -0.023727374675227359      0.65847945706410038        -1.1321434135223112        
29968710      0.41743947584882102        -0.66526026319453679       0.94036651784607017        -0.047401198445939298      0.94715967426940217        -0.035117127991303856      0.58038388434356103        -1.085527485652281         
32465581      0.33990776773569514        -0.6964258252595863        0.94731329963724187        -0.0548348561322861        0.94631877695969302        -0.058443310953000142      0.43534298761266282        -1.1713911962678198        
34962453      0.19694678600605467        -0.69551533502797058       0.94667270371938839        -0.061084464391166951      0.96218797772836118        -0.055414992132113518      0.35346777332148371        -1.0921525656225572        
37459324      0.18797542087111088        -0.70398058492194271       0.96679473349864242        -0.076530102839848679      0.95586181314232799        -0.061865567906896922      0.24946693957236382        -1.106482638185089         
39956195      0.10260734636204741        -0.70761231860225271       0.96523268204767343        -0.080287458055730135      0.9776337504691921         -0.079616161480787415      0.16195744925771657        -1.0146413970694552        
42453066      0.041349043222061968       -0.65851019730641736       0.98164473913879147        -0.095910300243705809      0.97479168768504787        -0.088180087575935193      0.091114130352328099       -0.91933473548432532       
44949937      0.015008100331934018       -0.65533063150787796       0.98018292086415926        -0.11644147948251964       0.98311057719377348        -0.11903591876966334       0.077641652121391597       -0.88073055519018628       
47446808      -0.021425480896575751      -0.60433939998267006       0.98789618675021817        -0.1335130967141461        0.99879503978447459        -0.13013389263102793       0.070625209494292934       -0.80189140284516924       
49943679      -0.04959802011880686       -0.54572025210159747       0.99860975177106193        -0.15706782949139428       0.99782644379754726        -0.15230554142171299       0.036946982495568548       -0.71621928506547228       
52440550      -0.065235236294021975      -0.51244768696378129       1.0017033183613007         -0.17914352928480909       1.007463561405509          -0.17447017404483667       0.025007637876615609       -0.64140613394762058       
54937421      -0.086074250325109014      -0.44611431733562695       1.0148552310250485         -0.19708563939465093       1.0180812981997078         -0.19324350599173742       0.042528094243802182       -0.56078420724093025       
57434292      -0.090320077224821424      -0.38853365385254957       1.0259042213363321         -0.21416597295613851       1.0151400194157927         -0.20706932997075311       0.027888802686050141       -0.45434441870080194       
59931163      -0.10095922781413526       -0.31818481723112946       1.0234329163977223         -0.22999864593594016       1.0153081652586027         -0.22874053254799653       -0.0027760039828754975     -0.38350346321982176       
62428035      -0.10974318017428467       -0.2748027963278562        1.0227984808769621         -0.24105530756678825       1.0142042895122765         -0.23759086714490077       0.0069206329351373603      -0.31446837240345321       
64924906      -0.11151218877684786       -0.23006703044656834       1.0140307696951878         -0.24918710771168248       1.0141276904414973         -0.25246332272540711       0.0058774976400248272      -0.26406915255107344       
67421777      -0.10548481377133967       -0.18348824756292004       1.0083554944029829         -0.26233706531267598       1.0083165448760822         -0.25546884283481536       -0.0043197348410510331     -0.20685245327393495       
69918648      -0.1085232917871166        -0.1629800152860556        0.99474755507442547        -0.26335916411261584       0.98462152532518576        -0.26320272539216055       0.0038530161571583808      -0.15962732905900845       
72415519      -0.101631359396873         -0.1296661501593003        0.97954224240136945        -0.27683423241517857       0.97082299918915838        -0.28060209602109432       0.012545623053669018       -0.12713215943801776       
74912390      -0.10935027576802923       -0.1136011052214463        0.96334458469944628        -0.29031233892347924       0.95432772451291825        -0.29019531030447338       0.0081099930318265841      -0.096015487071033537      
77409261      -0.091488512565050334      -0.089490818013002904      0.94248403675550296        -0.30326086044003531       0.9366111829579542         -0.30878669835548439       0.023281725389600955       -0.056017654384080691      
79906132      -0.08183357934279531       -0.085425063643786991      0.92630280270743381        -0.31896168644319411       0.92684532068090486        -0.327579619128822         0.047254971983457572       -0.033009913317917056      
82403003      -0.076967324162367484      -0.077878336122414168      0.91423148101389085        -0.33539735696619          0.91004558436334193        -0.34474350969357692       0.041173831605234919       -0.0041294462652502941     
84899874      -0.067255464169912571      -0.063655527610594315      0.89952772596548425        -0.35431853174081951       0.89706154521166748        -0.35635190495554198       0.05992258576643094        0.015131922417692952       
87396745      -0.05012775021334278       -0.060430240135091962      0.89120588095976017        -0.37050312030220173       0.89883282477643833        -0.38064746289856149       0.067282310091960174       0.038940527357990841       
89893616      -0.051369641408417717      -0.065068860896088529      0.87831434404134312        -0.38933714623327098       0.88804278057398978        -0.3957817784317279        0.0608452364866085         0.053765945975178031       
92390488      -0.045918773108483441      -0.047685783183601255      0.87832643146232703        -0.4065854368791762        0.8886846007231729         -0.41635355366504423       0.063961664154929793       0.071498940602997607       
94887359      -0.037045574590492188      -0.053394715762588786      0.87273163227156114        -0.42677452892543943       0.88176825061185982        -0.42966360990453878       0.064195652344040913       0.087580160390775111       
97384230      -0.034516990090432541      -0.058586689900605768      0.8686898430164196         -0.44434654395258211       0.88317363703553631        -0.44814570572757395       0.054480673709793127       0.087195400490183067       
99881101      -0.037192661932574096      -0.05847403134234945       0.87372538360742802        -0.45910227459877534       0.8905275017288613         -0.45788480754790128       0.04526311551305167        0.087960165769141035       
102377972     -0.036894124868170633      -0.067363371478347464      0.87781393784850592        -0.47812944680721037       0.88615021553747342        -0.4707052802431238        0.025096390127372404       0.092251498224939513       
104874843     -0.036555635922520993      -0.074828113513836239      0.87651359606507873        -0.48541567558559545       0.89166114203915736        -0.48136653867985757       0.021312984048407448       0.094521622179028569       
107371714     -0.048025402174312705      -0.085482253619266105      0.87781943640075188        -0.48853111903742774       0.89304675249356746        -0.48219323279510656       -0.00069273346267774655    0.092684731226888556       
109868585     -0.040228523106803804      -0.094651908163003839      0.87514281294204865        -0.49343368805584964       0.89222591916864802        -0.48138861229204316       -0.011926807057681968      0.092163907094243491       
112365456     -0.052299892694626218      -0.10126404789022726       0.88160560743313376        -0.49993374546487734       0.88950897669206508        -0.48179586948706837       -0.030424567136304217      0.079729210471944048       
114862327     -0.061723032959297514      -0.11687996631077524       0.87694285213719059        -0.49579121210549515       0.88877979150139552        -0.47967703248168786       -0.050963599407230491      0.07495732603465298        
117359198     -0.079107365073679589      -0.10844051166922677       0.87522835846108227        -0.49192672950220723       0.87586767100908458        -0.47590131358704879       -0.07871025010082866       0.064778886440887487       
119856070     -0.094863283959175634      -0.11506734499935008       0.87308523139851657        -0.48749994793074497       0.87105885674205319        -0.46891120463787717       -0.087484093972411359      0.050700514352444083       
122352941     -0.10610337154868066       -0.11935847647996459       0.86599487907223682        -0.48733498865222158       0.85703127509200394        -0.46637162707230734       -0.11749346916126807       0.049315256494077281       
124849812     -0.12658028266410221       -0.11703792502106261       0.85444471459170201        -0.4764485489692612        0.84726914386873831        -0.46297791706247421       -0.14578353828750318       0.040777361974413673       
127346683     -0.14429310949256646       -0.1203506985752089        0.84409415553298828        -0.46905881349594114       0.82860066295541979        -0.46670829711319184       -0.16480871869939243       0.039196850461766727       
129843554     -0.1706428322260124        -0.12363373577926701       0.83406256466888451        -0.46570038463034652       0.81430124111461977        -0.4642105528107196        -0.1953336065867686        0.040675769988917782       
132340425     -0.20092135983057688       -0.12262628715881022       0.81857431701231553        -0.46988338824844811       0.79705270686265128        -0.46238969221488158       -0.22148419135336633       0.021655499381601408       
134837296     -0.21988417566350299       -0.13289865565380876       0.80944366320463224        -0.46837270257682256       0.78130725416875513        -0.47144379269475867       -0.24743437089809478       0.012792546939915621       
137334167     -0.24885402602264003       -0.12209635519301228       0.79485090040499373        -0.46702579648942083       0.76924535756420309        -0.47884705180826798       -0.28046303936670886       0.0090222380829341406      
139831038     -0.27450317667994001       -0.13285389380714543       0.78116121559960583        -0.47649990761180511       0.76236752179019307        -0.48883313652540322       -0.29287211529367246       0.00032083075769734554     
142327909     -0.30118323242758321       -0.13296695368782535       0.76810195711517304        -0.48814939519502626       0.74942619072972927        -0.50171970147761935       -0.32997734656957556       -0.0062883990478605056     
144824780     -0.3301420914062001        -0.12772449254803811       0.75899520307973745        -0.49543071865608207       0.74499941302083461        -0.5208788274384083        -0.34224752854409368       -0.0062280894467737491     
147321652     -0.34159304297076726       -0.12822884123193826       0.74921172144982795        -0.51150820992454082       0.73919075125437872        -0.53718491386868739       -0.37412146759753606       -0.013327932060170812      
149818523     -0.35929587745023234       -0.11908012080231554       0.7462897611561945         -0.53212275895476879       0.73941672878836395        -0.55868609620764564       -0.39494145068197817       -0.016160870884940771      
152315394     -0.3774260509600183        -0.12927357360729605       0.74347779522893309        -0.54901614854650183       0.74450358383311044        -0.57417771923843175       -0.42242575612434802       -0.010583057110569602      
154812265     -0.39752598048385879       -0.11627768495728819       0.73825746992355845        -0.56797328798162072       0.75236844905328026        -0.596458475015476         -0.44479707963684378       -0.015931376962678521      
157309136     -0.42003371926062832       -0.10172112155354367       0.75048908277148796        -0.59438047577382536       0.76522580250596894        -0.61941853564281379       -0.46527012175099008       -0.010465302646335431      
159806007     -0.43421543091821302       -0.087283108518022984      0.75656795823675782        -0.61443419680823941       0.78095312340852341        -0.63754797853464917       -0.48447462928096113       -0.0062623209551730613     
162302878     -0.45979633662473929       -0.077091026077923397      0.76979414483576636        -0.64684753159339425       0.79328976148989061        -0.65839463415620447       -0.49351411150247443       -0.0018917106418784042     
164799749     -0.45614474586160353       -0.068154993909777126      0.77720117402416566        -0.65969920527759118       0.81369274510515155        -0.67215266479778435       -0.50454063323977905       0.0046620445000729073      
167296620     -0.46571014709216713       -0.054861075211141357      0.78743256375062998        -0.6874676345016999        0.82742956813139978        -0.69031371103263472       -0.52323923119517979       0.010702101010602868       
169793491     -0.46575609974130489       -0.027820595306769107      0.80865079273089968        -0.70992693904774717       0.83735161547006987        -0.70069078074013968       -0.5358467848767684        0.017600195327834706       
172290362     -0.49217563865483305       0.0023506880811105992      0.81930017030815017        -0.73172183741196384       0.86118878530670917        -0.71182391872913753       -0.54607315090837272       0.02222880036252534        
174787233     -0.48180228819965776       0.011322529441649633       0.8355087494202933         -0.75721068793923219       0.86672993908292983        -0.72675409971744009       -0.55155118786177681       0.027558320252060124       
177284105     -0.5033610334899048        0.035155425981742483       0.85423237523120443        -0.78265689091544632       0.87236692116999415        -0.73804465256258811       -0.55288517906874668       0.04133999797545302        
179780976     -0.48919085667291146       0.060706889811976195       0.86188702413950324        -0.80046754418270427       0.87956287242250097        -0.75324145552248034       -0.55311046747000603       0.04771359198948729        
182277847     -0.49785841535617437       0.082142199851799436       0.86081760006934138        -0.82104591982902908       0.87465923036756532        -0.76295161726793637       -0.56548266168444317       0.048775006280642609       
184774718     -0.48734419742533269       0.099477032560876408       0.87217466641193886        -0.84258271822257391       0.86732106037368684        -0.77985792228438733       -0.56791501215839013       0.059025158634813071       
187271589     -0.48134505706867375       0.11397259081961603        0.8613951430084551         -0.85228135302172259       0.85641790007261753        -0.79312134328982364       -0.56066191942568067       0.062272303634690204       
189768460     -0.48590168591850647       0.13720674623418933        0.84939945379245596        -0.86605729973600498       0.83602207577434706        -0.80557502519168611       -0.55040315593583977       0.068180330185716218       
192265331     -0.45946897472179959       0.14649962440755304        0.84016737895419014        -0.87789164667600417       0.80911098461409148        -0.82728085930854245       -0.5404760916564384        0.082333009807020574       
194762202     -0.4370320476227309        0.16371556933756959        0.81096231307641864        -0.89281623124801845       0.78122085983420486        -0.84473970733621395       -0.52132200800883988       0.079377263546660248       
197259073     -0.42166017617281892       0.17882914930271418        0.77582202420114654        -0.90423067021998171       0.73701709111862201        -0.86526121776856924       -0.49874544043032865       0.082416902397439609       
199755944     -0.39699660321148939       0.19254403189505556        0.74116653293893608        -0.91721846719088096       0.69229401209686781        -0.87658847287352537       -0.47500972616728215       0.09285565245286137        
202252815     -0.36386266189751842       0.21162815049373149        0.68825701790740335        -0.92263653445718885       0.64502662269849897        -0.89251937955457206       -0.43993948817594497       0.096925565115209875       
204749687     -0.32422512228184008       0.21836833987746052        0.64530841734646427        -0.92715892633799779       0.58372825693844543        -0.9150076139359844        -0.41457287227612061       0.11031390447985527        
207246558     -0.29332193455055461       0.22881584764159318        0.59135982355069161        -0.93301085436278963       0.52903081624217152        -0.92765949425915972       -0.38587052681385436       0.11342528015599004        
209743429     -0.26070424089894279       0.23340974966699321        0.52512679817106278        -0.92718338957531299       0.47209709667630967        -0.94014920764330767       -0.33990748921123698       0.12268621745508534        
212240300     -0.22915073981061487       0.25801424294183845        0.47630861407144209        -0.92015039792115683       0.41361997130430445        -0.94552235644220761       -0.31106336877865132       0.11616613569275118        
