! PocketVna 1.60  pocketvna.com
! Live measurements ((Reflection-S11, Transmission-S21, Transmission-S12, Reflection-S22) Linear 5000000-2000000000/800 calibrated)
# Hz S RI R 50
! Hz          ReS11                      ImS11                      ReS21                     ImS21                     ReS12                      ImS12                      ReS22                     ImS22                     
5000000       0.88672213399229938        -0.045141840377390691      0.9946436730093513         0.050113488314587125       1.1112398395190659        0.036494811336171065      1.2977717837781777        0.021242542872237313      
7496871       0.86932615776550781        -0.084184921931222539      0.94085444912177418        0.036082731584982465       0.95683851258131902       0.037595049003196886      1.4388223872278652        -0.19168405964329444      
9993742       0.87270575880129242        -0.11383267588901286       1.015478029158819          0.070437630769615733       0.92236591990422934       0.055401105095327148      1.2856455724596727        -0.18205294492587867      
12490613      0.91687152125311133        -0.14237270095967666       1.0146294493604202         0.090823940829940317       0.99436946120703495       0.017733618638574339      1.4368936794458718        -0.36717995181621732      
14987484      0.92673163144595594        -0.24109348568190475       1.0052379109270573         0.043269593352668764       0.98545009063284383       0.038921318513010589      1.3373596652147455        -0.33404888765480006      
17484355      0.86058334531942293        -0.30107533783853868       0.98109543238381802        0.042184583844459417       0.97916461205372274       0.047691235360482226      1.4117107304617322        -0.50166182499426892      
19981226      0.85831110969627467        -0.37146204347039741       1.0026363183555247         0.05719515407931007        0.992502601932018         0.041820729665456087      1.2256120914704682        -0.60460615567718956      
22478097      0.82247857381620482        -0.41683224414003894       0.98624111121039482        0.054969151778013085       0.97452092812936564       0.039450909570078803      1.1926402840531725        -0.64267634003038898      
24974968      0.80647431428607941        -0.48353792750356589       0.9838954012619221         0.048666702410920325       1.0023211786264399        0.054695534609151483      1.1474394328009492        -0.80767650018754578      
27471839      0.71614692574772421        -0.54008400974022364       0.98681141623041668        0.051736993650218686       0.98720967446433483       0.053954574460016239      1.0321942690778947        -0.7967097389418214       
29968710      0.6736327049857983         -0.60515076313077931       0.9951715379319187         0.041068746240118859       0.99932179729790926       0.046922764419254137      0.91905365493903868       -0.8370471143571          
32465581      0.58010450115441792        -0.62824588104820722       0.99001274005628548        0.044709510867618908       0.99347411826196508       0.030345731185617102      0.83843573329357191       -0.90212058931574746      
34962453      0.509864862028656          -0.67342289932916777       0.99113683012633447        0.050620839478620193       0.99205107508621782       0.055283687100757817      0.78706924083038809       -0.87130340252873129      
37459324      0.49088052834605644        -0.66849679410344631       1.0037598591682388         0.046349424419504973       0.98509038933149717       0.049096628442338343      0.69302883805005333       -0.91850718544033849      
39956195      0.43890850133994885        -0.67481216208712858       0.99420404581261379        0.047755084421024697       0.99598234310385481       0.049429899894913434      0.5893290751309086        -0.9298546782771403       
42453066      0.36113206740146658        -0.68069733811551714       0.99572249536548041        0.052582699702485323       0.99681048768373937       0.058301474564003905      0.52963849572542043       -0.85622320364216076      
44949937      0.32385953037061138        -0.66575171908726871       0.99280719015749663        0.054994690011877609       0.99679846242755876       0.055727203314553997      0.50562945934959791       -0.81629977157065969      
47446808      0.28782791731651824        -0.62418842928101503       0.994118611318622          0.049144947871000613       1.0005529298567373        0.062396567785155982      0.49609009551196087       -0.77373674128090963      
49943679      0.24234765358555604        -0.58188957812348496       0.99346778466698571        0.054722983305201534       1.0022481759464565        0.059515057185496677      0.41765405092402647       -0.73784200229027386      
52440550      0.22382871801616444        -0.55326937288595446       0.98524079716659763        0.063383419022229964       0.99247415152279661       0.06538683099948002       0.39897801589422449       -0.65182733348505362      
54937421      0.20040932133633529        -0.47708097914733005       0.99298320592026124        0.058969964334057885       0.98924235345420353       0.060312469031262694      0.36959901327149064       -0.57841798334500971      
57434292      0.16843688403518833        -0.4484899207086101        0.99729849131232151        0.058545311619665703       0.98680459590126579       0.056698408237479694      0.33425687051472874       -0.49165925329293164      
59931163      0.14146535337965024        -0.38633119553366307       0.99147685249255413        0.055798714985401385       0.98780941927353494       0.060387411848639126      0.29373255407330029       -0.44028573090758233      
62428035      0.10866990267984387        -0.33851995368046811       0.99051653158979258        0.055774156288603299       0.98671734258377897       0.055923365065596316      0.27596114561994778       -0.38131166472805172      
64924906      0.092720032696244806       -0.27988312940842131       0.98821227884232721        0.052799655771533706       0.98530975998955739       0.050310149612208969      0.25370748560118994       -0.32226503508944759      
67421777      0.085356309625015087       -0.2386300219741028        0.98241146811512392        0.054242362905927814       0.98887177867853271       0.05463296819392862       0.21781041040846641       -0.25675414648225597      
69918648      0.068182138721699259       -0.21018727863691186       0.98668717422899621        0.058292900069884031       0.98375376752396948       0.055998722178081738      0.19874238652503975       -0.23020856554859961      
72415519      0.058608835200159186       -0.18246467311425554       0.98866939482530203        0.053259588006754309       0.98832453562184253       0.047461595772763182      0.19831640053992261       -0.17966303362597147      
74912390      0.039142661012654394       -0.16588518196324961       0.98767118380955521        0.052482641620540692       0.98879922442877477       0.049797621823308609      0.17529776503321604       -0.14890830306634872      
77409261      0.051848950747247907       -0.13111568675356822       0.98890873940235668        0.046419193541916801       0.98853984968321806       0.051825108481528423      0.18154602806236345       -0.1142266785591864       
79906132      0.051111172731690219       -0.10102073347070861       0.99167866673725835        0.049134227818567591       0.99715770210549204       0.048226555121300391      0.1816365585648558        -0.077190749318196319     
82403003      0.051149414784313951       -0.090654144845203885      0.99658925442720658        0.049550328985802063       0.99373520149116434       0.048250454441026783      0.17993730841101796       -0.03937675539935271      
84899874      0.044083079870000881       -0.06329382401919649       0.99117630894220365        0.051364529489798062       0.9882446605400147        0.051142789888880623      0.1908481991353822        -0.018028534154786648     
87396745      0.068695002016750231       -0.055182110844369997      0.99201396320752189        0.049520184001231003       0.99747875296548483       0.051158299884314501      0.19535894829998199       0.023218263799598977      
89893616      0.052202775523022382       -0.037364681420093894      0.99340964351237016        0.049130773713076691       0.99771497742605642       0.058726298702078475      0.18143910922281295       0.050341841815966182      
92390488      0.065528503194564103       -0.01067067913952718       0.99133770041895075        0.055056277093999281       0.99534997912120382       0.05501762856314054       0.18008960381137359       0.076720418499652429      
94887359      0.066628181636799177       0.00295408928184158        0.99579516504065169        0.05420727847042623        0.988225077737375         0.057178338991733808      0.17955397873372039       0.094744699834436091      
97384230      0.077259994983477409       0.0014732695302337934      0.99384464328169708        0.056544225693788967       0.99221529932455477       0.055239602556690949      0.17403672772047718       0.12287619183133434       
99881101      0.068129947691857207       0.016074466935274357       0.9965565500618252         0.058098862994267426       0.99091889264293342       0.063274131523630955      0.16410338221483733       0.14670113997471648       
102377972     0.072708735454806731       0.027690279294771417       0.99695085930966831        0.059117895012216939       0.99303443405030811       0.057029077667828137      0.14956350279326094       0.14745002606301949       
104874843     0.079066657785325192       0.028496273107891733       0.99247639621391504        0.059468405284307163       0.99251561685594092       0.056373998081224237      0.15439492882988304       0.16430381411815184       
107371714     0.073443522575121462       0.021510604072948945       0.99265348912104778        0.057646590701246725       0.98741786601302695       0.058515684890872381      0.1327756608651286        0.17070033996925116       
109868585     0.087676511913191882       0.02161123836313586        0.98714872959335853        0.059041715038827172       0.98571012987643281       0.0590631183939078        0.11577006453650936       0.17311666897077441       
112365456     0.07360709697514918        0.021157903470135117       0.99217807330493812        0.053392937854842455       0.98535544119170548       0.0601584201141298        0.11539001584551584       0.1601643022298446        
114862327     0.082168193362549061       0.0040110765929043026      0.98492228799379067        0.055943239653068133       0.98995494697244102       0.058124986071248372      0.10318051535819074       0.16029353842977281       
117359198     0.068146422935525849       0.0062523053078294838      0.98795716600670225        0.057395734240914244       0.98335038232787009       0.05332304971816644       0.083193133293376062      0.15098639963028829       
119856070     0.081194952108386884       -0.0050552701260076624     0.98297008837185118        0.058036570233977694       0.98484174724446161       0.053207460469134389      0.078733806421701011      0.14167828627312512       
122352941     0.073241721904857587       -0.007036227925610772      0.98744760214062           0.053650828915186237       0.98480219071765496       0.047420188750631788      0.062190671975820767      0.1283368733914407        
124849812     0.074382686524085348       -0.025087227543193504      0.98083088995446932        0.054594202666732851       0.98825319675108236       0.053094005731980691      0.055187632536932096      0.11585767650106876       
127346683     0.069177342613464962       -0.030139407753899183      0.9886758361837793         0.054586667626248905       0.98786172585247145       0.044544670687229303      0.044064738931569342      0.10838936389334194       
129843554     0.055287345604890167       -0.04317583697394041       0.98768640230185512        0.055849962111277802       0.98964590119238216       0.048465482047709202      0.022481416115483259      0.10129914798312739       
132340425     0.051049527277140176       -0.061463755446312447      0.98548780370590272        0.046872309629931559       0.98662870989362061       0.054186591871255289      0.0172461019689839        0.077396792186600352      
134837296     0.034996366584681575       -0.071544476529630904      0.99179792457968619        0.052045221504017233       0.99045587444759942       0.046603721234335621      -0.0051487746309163565    0.064747373778734088      
137334167     0.023087548460844005       -0.094695443628988782      0.98509660605295846        0.05364350164102203        0.98802842304593108       0.048603630143488313      -0.023604340427245293     0.052066080284559488      
139831038     0.012948062475719576       -0.098699000625943306      0.99030569452514638        0.046726558711353054       0.99751580349370728       0.052063036086091606      -0.031536028028373929     0.042538608055885371      
142327909     -0.0071297203234984832     -0.12287796629659845       0.98949422397653175        0.047645557463787104       0.98724115862079642       0.051625034971423032      -0.052207388792245464     0.014555916360888616      
144824780     -0.02503971701264977       -0.13913709726763906       0.98973198152176045        0.047046607468964073       0.99467726291267733       0.049615934519870834      -0.073093064880823691     -0.0062010212776915426    
147321652     -0.031169444249368468      -0.16738222651356038       0.99553102799832671        0.047043214156792024       0.99235185248784108       0.051557620646490776      -0.093150260637838753     -0.025144207192274112     
149818523     -0.042450339114949075      -0.17705902022397371       0.99121073176670715        0.04540826848741867        1.0022749987001174        0.047486831371378511      -0.11499872401720011      -0.054839741400945337     
152315394     -0.06201511999782959       -0.20523581874405922       0.99598986464365014        0.050634542669783116       0.99434860494057753       0.054267091504093201      -0.13610602224567517      -0.07207308753263808      
154812265     -0.070233131523398024      -0.22524859761883054       0.99320649324461197        0.050071390560553319       0.9964069909444857        0.054440319523100522      -0.15757868887270299      -0.10371285068018755      
157309136     -0.076302033968378175      -0.2536994444415322        0.99350121039939632        0.054727142329389966       0.99510656574397505       0.058108640273212359      -0.16240176552325261      -0.13222971156843361      
159806007     -0.10292129321748243       -0.27015534951657827       0.99530972680261076        0.053017093191296036       0.99735079150492489       0.058657178517322758      -0.1858136681011533       -0.14240844555477378      
162302878     -0.12362641640210791       -0.29755836153081472       1.0008530739661259         0.056277160633366748       0.99588347119676413       0.060567578892154507      -0.19869383835435744      -0.1623191830120389       
164799749     -0.11083966826998504       -0.31571064722403214       0.99293060116930265        0.059598450395045834       0.99451335373163408       0.063364959860083822      -0.21639789222420533      -0.1928997675704365       
167296620     -0.11199412273683949       -0.33650911846340653       0.99273946136701197        0.060088257808267022       0.99513600710434613       0.060391590112565015      -0.2278477195189377       -0.21178393041400143      
169793491     -0.12927769580467835       -0.34418196543883545       0.99475216247402753        0.06073952143950602        0.98653410220634452       0.058817867302549745      -0.24952560804943047      -0.21967342536309162      
172290362     -0.1664579431120341        -0.35041075111838049       0.99165830771235453        0.058545859749331387       0.98584511388677609       0.057710107769467042      -0.25168648986624786      -0.24130945410793619      
174787233     -0.15064408983613331       -0.36868541273061423       0.9915306513348896         0.057893067076054516       0.98393557759012606       0.0559920148004256        -0.26892639557435066      -0.25548122571571041      
177284105     -0.15887380375609272       -0.37029547752881048       0.9914495019688857         0.062884506851589528       0.98257520817200072       0.060169864266479398      -0.28573353755890452      -0.26860437741727683      
179780976     -0.18100376167961416       -0.37556992447221554       0.98680482346855658        0.059665109828629541       0.98504668418750163       0.056519816109971387      -0.29507987886649922      -0.27214958849936338      
182277847     -0.18478670803002117       -0.37864751936119467       0.98617023605964294        0.060898229631090289       0.98448417152901535       0.05709938202111655       -0.33579326976218965      -0.28521675628738985      
184774718     -0.20108541940296953       -0.37130424425276215       0.98867935475598645        0.058956176113443941       0.98277406659539723       0.053818401771248102      -0.3520072404929932       -0.30062036328104375      
187271589     -0.20775007171226006       -0.36345664641989511       0.98400318581736335        0.058786541379129177       0.98311725736845013       0.055317241916332534      -0.36200592540725368      -0.3049720236592921       
189768460     -0.2420462861144749        -0.36373076617471123       0.98411281583157939        0.057008259475291215       0.98568713956023002       0.052231431947963806      -0.39426838872724679      -0.31007148980610294      
192265331     -0.24318719262900845       -0.35669584253803033       0.98341258641448503        0.05646978263594158        0.98652098931162613       0.051032870971694393      -0.41646095060180627      -0.31730765181449522      
194762202     -0.2734894612483672        -0.36214840508684287       0.98432692316615544        0.055062122929236249       0.98383136362934498       0.052988889914718777      -0.43327943061649965      -0.32187160463157838      
197259073     -0.29437405868961664       -0.35392910072710376       0.985701939278541          0.060186478382587782       0.98335994503512325       0.049601374768080631      -0.43927779383567045      -0.33613000211224486      
199755944     -0.31230071179546731       -0.344193333145492         0.98333432909409735        0.052802294973504499       0.98603154062511833       0.052954772044515021      -0.47083466726008849      -0.34883242788414309      
202252815     -0.32327680887264193       -0.33652830742267253       0.98086670383152663        0.053325028772132819       0.98625504857770419       0.05306856374821485       -0.46972027566699964      -0.3524300428618104       
204749687     -0.32791257684817238       -0.32909357206751561       0.98257231516817489        0.05261935499068518        0.98911578004051726       0.044242528987645913      -0.48505509153890436      -0.35027791678296949      
207246558     -0.35795264282946226       -0.31678483412965602       0.98872393991049168        0.050925404093371679       0.9881169706463534        0.044295300172675404      -0.49115237918435434      -0.35893224874418456      
209743429     -0.37188943402258778       -0.33324098076354164       0.98697329355716623        0.048343541261342791       0.98804742667168999       0.04662816225827373       -0.49615807668162643      -0.36102367516160816      
212240300     -0.39529412600487518       -0.29552138578763332       0.98374009386311478        0.048553192516175007       0.99151106013546675       0.050650771134703676      -0.5083413290719565       -0.37708029731374421      
214737171     -0.39961971119825362       -0.29618724818496439       0.98752661416427945        0.043639824756456169       0.99224197359763899       0.046799577874410865      -0.51564369571648638      -0.37565210343491762      
217234042     -0.4163895293064131        -0.29279938186057836       0.98813278581631059        0.04514090351415008        0.99020629764163381       0.046304284812422609      -0.5108532671628031       -0.38145061923483314      
