# Hz S RI R 50
! CMT, SC5090, 20109241, 21.3.2/2
! Date: 11/4/2021 12:48:17 PM
! Data: Format (Calibration Info)
! Freq	S11:Re/Im(F1)
1.00000000000E+06	-9.95833634196E-01	1.50730328485E-03
1.22487500000E+07	-9.95567807506E-01	1.82178431555E-02
2.34975000000E+07	-9.95019205826E-01	3.46279053378E-02
3.47462500000E+07	-9.93680091609E-01	5.14094817052E-02
4.59950000000E+07	-9.92616757604E-01	6.81464370987E-02
5.72437500000E+07	-9.91143296795E-01	8.41941258945E-02
6.84925000000E+07	-9.89305808150E-01	1.00428757730E-01
7.97412500000E+07	-9.87447504250E-01	1.16625797396E-01
9.09900000000E+07	-9.85154292380E-01	1.32978379344E-01
1.02238750000E+08	-9.82637824444E-01	1.48926943887E-01
1.13487500000E+08	-9.79722781598E-01	1.65025939873E-01
1.24736250000E+08	-9.76850011585E-01	1.80904513397E-01
1.35985000000E+08	-9.73580959627E-01	1.96965050426E-01
1.47233750000E+08	-9.70358130150E-01	2.12568954196E-01
1.58482500000E+08	-9.66432493145E-01	2.27962297392E-01
1.69731250000E+08	-9.62228303996E-01	2.44140371498E-01
1.80980000000E+08	-9.58089085963E-01	2.59208228633E-01
1.92228750000E+08	-9.53653012839E-01	2.74764556249E-01
2.03477500000E+08	-9.48556653000E-01	2.90177322365E-01
2.14726250000E+08	-9.44052175339E-01	3.05457882164E-01
2.25975000000E+08	-9.38367519406E-01	3.20701757958E-01
2.37223750000E+08	-9.33276551510E-01	3.35729152368E-01
2.48472500000E+08	-9.27361390344E-01	3.50552899838E-01
2.59721250000E+08	-9.21536404380E-01	3.65569322670E-01
2.70970000000E+08	-9.15412552590E-01	3.80624825522E-01
2.82218750000E+08	-9.08803841928E-01	3.95137427783E-01
2.93467500000E+08	-9.02060412597E-01	4.09649647010E-01
3.04716250000E+08	-8.95478096180E-01	4.24106569551E-01
3.15965000000E+08	-8.88218028566E-01	4.38217511014E-01
3.27213750000E+08	-8.81016527593E-01	4.52771921091E-01
3.38462500000E+08	-8.73617747027E-01	4.66402939979E-01
3.49711250000E+08	-8.65668755405E-01	4.80622770223E-01
3.60960000000E+08	-8.57773141850E-01	4.94597232889E-01
3.72208750000E+08	-8.49552437279E-01	5.08160358251E-01
3.83457500000E+08	-8.40885457760E-01	5.21723279276E-01
3.94706250000E+08	-8.32387363544E-01	5.35136806510E-01
4.05955000000E+08	-8.23543738479E-01	5.48383143403E-01
4.17203750000E+08	-8.14523378926E-01	5.61847358984E-01
4.28452500000E+08	-8.05206311895E-01	5.74701778923E-01
4.39701250000E+08	-7.95986910973E-01	5.87433070128E-01
4.50950000000E+08	-7.86051964462E-01	5.99949670581E-01
4.62198750000E+08	-7.76422603657E-01	6.12729256572E-01
4.73447500000E+08	-7.66184502239E-01	6.24765444039E-01
4.84696250000E+08	-7.56204867269E-01	6.36787099013E-01
4.95945000000E+08	-7.45737196506E-01	6.49116096803E-01
5.07193750000E+08	-7.35089075944E-01	6.60923368069E-01
5.18442500000E+08	-7.24656712460E-01	6.72780595909E-01
5.29691250000E+08	-7.13825962150E-01	6.84194497519E-01
5.40940000000E+08	-7.02233433211E-01	6.95091194906E-01
5.52188750000E+08	-6.91131324741E-01	7.06221659032E-01
5.63437500000E+08	-6.79775763460E-01	7.16890830936E-01
5.74686250000E+08	-6.68188460694E-01	7.27801008174E-01
5.85935000000E+08	-6.56724873452E-01	7.38611854649E-01
5.97183750000E+08	-6.44913630509E-01	7.48744652399E-01
6.08432500000E+08	-6.32875415947E-01	7.58834416480E-01
6.19681250000E+08	-6.20581342036E-01	7.68579129976E-01
6.30930000000E+08	-6.08133705442E-01	7.78435797291E-01
6.42178750000E+08	-5.95772464336E-01	7.87954750510E-01
6.53427500000E+08	-5.83119893063E-01	7.97158811805E-01
6.64676250000E+08	-5.70026952781E-01	8.06236787226E-01
6.75925000000E+08	-5.57334465730E-01	8.15690021070E-01
6.87173750000E+08	-5.44243876406E-01	8.24360221511E-01
6.98422500000E+08	-5.30565831452E-01	8.32847628885E-01
7.09671250000E+08	-5.17533532081E-01	8.41188542934E-01
7.20920000000E+08	-5.04187730206E-01	8.49750760454E-01
7.32168750000E+08	-4.90842830163E-01	8.57493865983E-01
7.43417500000E+08	-4.77078804778E-01	8.65414104406E-01
7.54666250000E+08	-4.63431610910E-01	8.72962124474E-01
7.65915000000E+08	-4.49486825119E-01	8.80408934421E-01
7.77163750000E+08	-4.35437539600E-01	8.87489585714E-01
7.88412500000E+08	-4.21384969775E-01	8.94411900553E-01
7.99661250000E+08	-4.07459030223E-01	9.00801104710E-01
8.10910000000E+08	-3.92855834767E-01	9.07189409570E-01
8.22158750000E+08	-3.78860043207E-01	9.12946244287E-01
8.33407500000E+08	-3.64335929105E-01	9.19126886262E-01
8.44656250000E+08	-3.49277571682E-01	9.24831875370E-01
8.55905000000E+08	-3.35173182683E-01	9.29662517005E-01
8.67153750000E+08	-3.20736927036E-01	9.35138481529E-01
8.78402500000E+08	-3.06198014715E-01	9.40282093688E-01
8.89651250000E+08	-2.91435775476E-01	9.45163955912E-01
9.00900000000E+08	-2.76919798797E-01	9.49887989493E-01
9.12148750000E+08	-2.62088999577E-01	9.53906599127E-01
9.23397500000E+08	-2.46876428297E-01	9.57998385134E-01
9.34646250000E+08	-2.32155836772E-01	9.61637575858E-01
9.45895000000E+08	-2.17190229533E-01	9.65400620074E-01
9.57143750000E+08	-2.02036424709E-01	9.68641830983E-01
9.68392500000E+08	-1.87043910860E-01	9.71250798407E-01
9.79641250000E+08	-1.71675413829E-01	9.74114280809E-01
9.90890000000E+08	-1.56361358589E-01	9.76780244294E-01
1.00213875000E+09	-1.41216736598E-01	9.78792151927E-01
1.01338750000E+09	-1.25862013765E-01	9.80671134001E-01
1.02463625000E+09	-1.10351311530E-01	9.82558635043E-01
1.03588500000E+09	-9.52511947525E-02	9.84083887819E-01
1.04713375000E+09	-7.98654224900E-02	9.85512477120E-01
1.05838250000E+09	-6.45507971004E-02	9.86737915553E-01
1.06963125000E+09	-4.88794709568E-02	9.87542615598E-01
1.08088000000E+09	-3.33990147277E-02	9.88298613106E-01
1.09212875000E+09	-1.80560563714E-02	9.88598115877E-01
1.10337750000E+09	-3.20675499278E-03	9.88663473852E-01
1.11462625000E+09	1.23109036456E-02	9.88635103700E-01
1.12587500000E+09	2.73451452417E-02	9.88422209773E-01
1.13712375000E+09	4.24921378416E-02	9.87615119276E-01
1.14837250000E+09	5.80321381888E-02	9.87005194816E-01
1.15962125000E+09	7.33618485102E-02	9.85964623355E-01
1.17087000000E+09	8.87184623671E-02	9.84648576868E-01
1.18211875000E+09	1.03816140141E-01	9.83202392426E-01
1.19336750000E+09	1.18971491180E-01	9.81883570533E-01
1.20461625000E+09	1.33890672390E-01	9.79662411802E-01
1.21586500000E+09	1.48886355428E-01	9.77707802204E-01
1.22711375000E+09	1.63977470968E-01	9.75041844351E-01
1.23836250000E+09	1.79238301229E-01	9.72111879620E-01
1.24961125000E+09	1.94108862804E-01	9.69787742120E-01
1.26086000000E+09	2.08692426324E-01	9.66631226149E-01
1.27210875000E+09	2.23465096981E-01	9.63653254355E-01
1.28335750000E+09	2.38134247368E-01	9.60008330156E-01
1.29460625000E+09	2.52508222639E-01	9.56017577593E-01
1.30585500000E+09	2.67654359560E-01	9.51991872807E-01
1.31710375000E+09	2.81993465390E-01	9.47912037566E-01
1.32835250000E+09	2.96680484855E-01	9.43596330270E-01
1.33960125000E+09	3.11270801994E-01	9.39217701258E-01
1.35085000000E+09	3.25419355492E-01	9.34586103801E-01
1.36209875000E+09	3.39439925385E-01	9.29459610220E-01
1.37334750000E+09	3.53453879958E-01	9.23899812767E-01
1.38459625000E+09	3.67693010413E-01	9.18493916921E-01
1.39584500000E+09	3.81617983803E-01	9.12909052009E-01
1.40709375000E+09	3.94888081120E-01	9.06952699029E-01
1.41834250000E+09	4.09315640724E-01	9.01130765900E-01
1.42959125000E+09	4.22844518734E-01	8.94790508340E-01
1.44084000000E+09	4.36126302548E-01	8.88057063071E-01
1.45208875000E+09	4.50280541240E-01	8.81377839929E-01
1.46333750000E+09	4.63295448753E-01	8.74266999914E-01
1.47458625000E+09	4.76190097016E-01	8.67111794509E-01
1.48583500000E+09	4.89744954606E-01	8.59718663187E-01
1.49708375000E+09	5.02929358400E-01	8.52356931574E-01
1.50833250000E+09	5.15820188668E-01	8.44960147636E-01
1.51958125000E+09	5.28587583733E-01	8.37161014966E-01
1.53083000000E+09	5.41260478147E-01	8.29147978002E-01
1.54207875000E+09	5.53800317783E-01	8.20827767338E-01
1.55332750000E+09	5.66377256782E-01	8.12431636592E-01
1.56457625000E+09	5.78470879402E-01	8.04108620967E-01
1.57582500000E+09	5.90918619510E-01	7.95191942094E-01
1.58707375000E+09	6.03036056300E-01	7.86182440225E-01
1.59832250000E+09	6.15069008041E-01	7.77131304236E-01
1.60957125000E+09	6.26617612555E-01	7.67140217078E-01
1.62082000000E+09	6.38434706245E-01	7.57571436521E-01
1.63206875000E+09	6.49700474053E-01	7.47845105377E-01
1.64331750000E+09	6.61316870261E-01	7.38070092885E-01
1.65456625000E+09	6.72365372616E-01	7.27985973168E-01
1.66581500000E+09	6.83587366575E-01	7.18037008513E-01
1.67706375000E+09	6.94644227896E-01	7.07900459506E-01
1.68831250000E+09	7.05665130867E-01	6.96962555115E-01
1.69956125000E+09	7.15945165977E-01	6.86792936224E-01
1.71081000000E+09	7.26744837476E-01	6.75967028017E-01
1.72205875000E+09	7.37192910536E-01	6.65386866956E-01
1.73330750000E+09	7.47047850781E-01	6.54029046119E-01
1.74455625000E+09	7.57078395906E-01	6.42664655950E-01
1.75580500000E+09	7.66679962523E-01	6.31347100352E-01
1.76705375000E+09	7.75828037683E-01	6.19443248362E-01
1.77830250000E+09	7.85452368078E-01	6.07482153577E-01
1.78955125000E+09	7.94357947799E-01	5.95877571092E-01
1.80080000000E+09	8.03306890730E-01	5.84130231468E-01
1.81204875000E+09	8.11995287331E-01	5.72178402307E-01
1.82329750000E+09	8.20452931695E-01	5.59741456723E-01
1.83454625000E+09	8.28931811174E-01	5.47537181045E-01
1.84579500000E+09	8.37375716456E-01	5.34787253100E-01
1.85704375000E+09	8.45550571195E-01	5.22363247145E-01
1.86829250000E+09	8.53045376489E-01	5.09406600709E-01
1.87954125000E+09	8.60404836343E-01	4.96393032674E-01
1.89079000000E+09	8.68395977725E-01	4.83492808527E-01
1.90203875000E+09	8.75514815534E-01	4.70354819359E-01
1.91328750000E+09	8.81904422553E-01	4.57457399236E-01
1.92453625000E+09	8.88779306529E-01	4.44095271930E-01
1.93578500000E+09	8.95688332727E-01	4.31264331689E-01
1.94703375000E+09	9.02302867159E-01	4.17533429924E-01
1.95828250000E+09	9.08457794715E-01	4.04163253586E-01
1.96953125000E+09	9.14580757430E-01	3.90753567197E-01
1.98078000000E+09	9.20433551354E-01	3.76462752872E-01
1.99202875000E+09	9.26088107004E-01	3.62729017973E-01
2.00327750000E+09	9.31331230536E-01	3.48855490930E-01
2.01452625000E+09	9.36402503286E-01	3.34525729685E-01
2.02577500000E+09	9.41199182275E-01	3.20397932575E-01
2.03702375000E+09	9.46443010236E-01	3.05963572428E-01
2.04827250000E+09	9.50132542941E-01	2.91622477915E-01
2.05952125000E+09	9.54183886723E-01	2.77470169005E-01
2.07077000000E+09	9.58207205009E-01	2.62864133255E-01
2.08201875000E+09	9.62560311307E-01	2.48411779322E-01
2.09326750000E+09	9.66038522566E-01	2.34319026456E-01
2.10451625000E+09	9.69657045142E-01	2.19413819074E-01
2.11576500000E+09	9.73176949294E-01	2.04658529394E-01
2.12701375000E+09	9.76315294348E-01	1.89953776727E-01
2.13826250000E+09	9.78948726896E-01	1.75803409920E-01
2.14951125000E+09	9.81411786080E-01	1.60878224247E-01
2.16076000000E+09	9.83564947838E-01	1.46128502650E-01
2.17200875000E+09	9.85906621716E-01	1.31289664577E-01
2.18325750000E+09	9.87299599379E-01	1.16801757408E-01
2.19450625000E+09	9.88654336676E-01	1.01928044648E-01
2.20575500000E+09	9.90383401303E-01	8.70991623962E-02
2.21700375000E+09	9.91352902027E-01	7.23277988801E-02
2.22825250000E+09	9.92636351287E-01	5.71228494993E-02
2.23950125000E+09	9.93330222405E-01	4.21515651425E-02
2.25075000000E+09	9.94039140707E-01	2.72609882997E-02
2.26199875000E+09	9.94563384271E-01	1.23172210297E-02
2.27324750000E+09	9.94738735924E-01	-2.48114948804E-03
2.28449625000E+09	9.94385803145E-01	-1.75257605905E-02
2.29574500000E+09	9.94292280057E-01	-3.27796634712E-02
2.30699375000E+09	9.93654998916E-01	-4.77804237955E-02
2.31824250000E+09	9.92676893983E-01	-6.26764323327E-02
2.32949125000E+09	9.91876392535E-01	-7.81653015576E-02
2.34074000000E+09	9.90528549535E-01	-9.29223904453E-02
2.35198875000E+09	9.89072554325E-01	-1.08339524077E-01
2.36323750000E+09	9.87510880491E-01	-1.22903730296E-01
2.37448625000E+09	9.85245023544E-01	-1.38201084048E-01
2.38573500000E+09	9.83266878005E-01	-1.53622469495E-01
2.39698375000E+09	9.80686491540E-01	-1.68835320715E-01
2.40823250000E+09	9.77954940553E-01	-1.83538014833E-01
2.41948125000E+09	9.75128288689E-01	-1.98688236810E-01
2.43073000000E+09	9.72092767186E-01	-2.13798493795E-01
2.44197875000E+09	9.68438498027E-01	-2.28723782956E-01
2.45322750000E+09	9.64323581331E-01	-2.43544553210E-01
2.46447625000E+09	9.60243454163E-01	-2.58746883261E-01
2.47572500000E+09	9.56616250812E-01	-2.73235532537E-01
2.48697375000E+09	9.52070876385E-01	-2.88581923038E-01
2.49822250000E+09	9.47250427234E-01	-3.03209058702E-01
2.50947125000E+09	9.42581702698E-01	-3.18151334580E-01
2.52072000000E+09	9.37590083118E-01	-3.32773157978E-01
2.53196875000E+09	9.32596241269E-01	-3.47642896087E-01
2.54321750000E+09	9.27025515171E-01	-3.62665085290E-01
2.55446625000E+09	9.21218792361E-01	-3.76966542400E-01
2.56571500000E+09	9.15458157990E-01	-3.91243842605E-01
2.57696375000E+09	9.09155493221E-01	-4.05384620414E-01
2.58821250000E+09	9.03004148953E-01	-4.19785662637E-01
2.59946125000E+09	8.95581348263E-01	-4.34055581343E-01
2.61071000000E+09	8.88630901551E-01	-4.48210527512E-01
2.62195875000E+09	8.81340524133E-01	-4.62280097198E-01
2.63320750000E+09	8.73587956703E-01	-4.76247791817E-01
2.64445625000E+09	8.65749358218E-01	-4.90359910518E-01
2.65570500000E+09	8.57883626201E-01	-5.04783146548E-01
2.66695375000E+09	8.49441136316E-01	-5.18710920645E-01
2.67820250000E+09	8.40576397978E-01	-5.32475967359E-01
2.68945125000E+09	8.32053192329E-01	-5.46640647222E-01
2.70070000000E+09	8.22682115765E-01	-5.59853890576E-01
2.71194875000E+09	8.13628413492E-01	-5.73569428667E-01
2.72319750000E+09	8.04269318335E-01	-5.86737090828E-01
2.73444625000E+09	7.94622453115E-01	-6.00072837674E-01
2.74569500000E+09	7.84192712406E-01	-6.13124488116E-01
2.75694375000E+09	7.74268480658E-01	-6.26070327098E-01
2.76819250000E+09	7.63640025979E-01	-6.38747759812E-01
2.77944125000E+09	7.52928890086E-01	-6.51212782996E-01
2.79069000000E+09	7.41840295699E-01	-6.64157283052E-01
2.80193875000E+09	7.30269426648E-01	-6.77087330803E-01
2.81318750000E+09	7.18756882392E-01	-6.89542047392E-01
2.82443625000E+09	7.06678609553E-01	-7.01754259416E-01
2.83568500000E+09	6.94099059228E-01	-7.13540934433E-01
2.84693375000E+09	6.82055408849E-01	-7.25214815859E-01
2.85818250000E+09	6.69490264239E-01	-7.37149910021E-01
2.86943125000E+09	6.56883703517E-01	-7.48583093239E-01
2.88068000000E+09	6.43941963642E-01	-7.60045326071E-01
2.89192875000E+09	6.30679062110E-01	-7.71082442131E-01
2.90317750000E+09	6.17193359622E-01	-7.81948023942E-01
2.91442625000E+09	6.03863601356E-01	-7.92573698374E-01
2.92567500000E+09	5.89863888798E-01	-8.03086883895E-01
2.93692375000E+09	5.75079229687E-01	-8.13571556506E-01
2.94817250000E+09	5.61092678318E-01	-8.23287054159E-01
2.95942125000E+09	5.46321878484E-01	-8.33472475336E-01
2.97067000000E+09	5.31599435992E-01	-8.42652615902E-01
2.98191875000E+09	5.15883130277E-01	-8.51866812947E-01
2.99316750000E+09	5.00346174965E-01	-8.61336255317E-01
3.00441625000E+09	4.85370715199E-01	-8.70303304481E-01
3.01566500000E+09	4.69380187721E-01	-8.79450525624E-01
3.02691375000E+09	4.53185837735E-01	-8.87493022303E-01
3.03816250000E+09	4.37424981494E-01	-8.96128714616E-01
3.04941125000E+09	4.20802125149E-01	-9.04018780907E-01
3.06066000000E+09	4.03789750424E-01	-9.11682041609E-01
3.07190875000E+09	3.87333128286E-01	-9.18857912376E-01
3.08315750000E+09	3.69076329178E-01	-9.26089381626E-01
3.09440625000E+09	3.51425362738E-01	-9.33074503195E-01
3.10565500000E+09	3.33228383701E-01	-9.39447297599E-01
3.11690375000E+09	3.14871448910E-01	-9.46003457606E-01
3.12815250000E+09	2.96168611747E-01	-9.52382413436E-01
3.13940125000E+09	2.76869247203E-01	-9.58132122488E-01
3.15065000000E+09	2.57913354199E-01	-9.63580307799E-01
3.16189875000E+09	2.38651024243E-01	-9.68651467312E-01
3.17314750000E+09	2.18313508547E-01	-9.72863271571E-01
3.18439625000E+09	1.98492584740E-01	-9.77427678871E-01
3.19564500000E+09	1.77533265672E-01	-9.81806775757E-01
3.20689375000E+09	1.56316354735E-01	-9.85145429215E-01
3.21814250000E+09	1.35204567502E-01	-9.88206791620E-01
3.22939125000E+09	1.13073059081E-01	-9.91285083873E-01
3.24064000000E+09	9.11252638805E-02	-9.93015076864E-01
3.25188875000E+09	6.87951532191E-02	-9.94125033249E-01
3.26313750000E+09	4.60095893057E-02	-9.95825900198E-01
3.27438625000E+09	2.29781351909E-02	-9.96076721105E-01
3.28563500000E+09	-5.13884944536E-04	-9.96487444655E-01
3.29688375000E+09	-2.42312936581E-02	-9.96484500503E-01
3.30813250000E+09	-4.82828522353E-02	-9.95546144995E-01
3.31938125000E+09	-7.27203056819E-02	-9.93814333790E-01
3.33063000000E+09	-9.73748128011E-02	-9.91906617573E-01
3.34187875000E+09	-1.22658427749E-01	-9.89445460910E-01
3.35312750000E+09	-1.48166085857E-01	-9.85192425264E-01
3.36437625000E+09	-1.73453219256E-01	-9.82024428443E-01
3.37562500000E+09	-1.99398190486E-01	-9.76280536411E-01
3.38687375000E+09	-2.25767160609E-01	-9.70362143666E-01
3.39812250000E+09	-2.52309747991E-01	-9.63673313364E-01
3.40937125000E+09	-2.79179174365E-01	-9.56205145201E-01
3.42062000000E+09	-3.06654555254E-01	-9.47182168946E-01
3.43186875000E+09	-3.34183308506E-01	-9.38146794053E-01
3.44311750000E+09	-3.62496006191E-01	-9.27349203661E-01
3.45436625000E+09	-3.91166899518E-01	-9.16011679503E-01
3.46561500000E+09	-4.19828736214E-01	-9.02363103042E-01
3.47686375000E+09	-4.49532920621E-01	-8.88440323952E-01
3.48811250000E+09	-4.79231772897E-01	-8.72248847591E-01
3.49936125000E+09	-5.08729278532E-01	-8.55258887131E-01
3.51061000000E+09	-5.39199651210E-01	-8.35986610029E-01
3.52185875000E+09	-5.68974094113E-01	-8.15148756374E-01
3.53310750000E+09	-5.99783969750E-01	-7.92924342013E-01
3.54435625000E+09	-6.30356479002E-01	-7.68151162044E-01
3.55560500000E+09	-6.60976656769E-01	-7.41543462717E-01
3.56685375000E+09	-6.91321710043E-01	-7.11993709672E-01
3.57810250000E+09	-7.21863005724E-01	-6.80724726158E-01
3.58935125000E+09	-7.52175790282E-01	-6.46144337451E-01
3.60060000000E+09	-7.81736115543E-01	-6.08709786329E-01
3.61184875000E+09	-8.11067997174E-01	-5.67728823299E-01
3.62309750000E+09	-8.39472415026E-01	-5.23033356344E-01
3.63434625000E+09	-8.65976324704E-01	-4.74877546182E-01
3.64559500000E+09	-8.91904203014E-01	-4.22099768798E-01
3.65684375000E+09	-9.15641611345E-01	-3.65095187550E-01
3.66809250000E+09	-9.35871720437E-01	-3.03622442002E-01
3.67934125000E+09	-9.53594487217E-01	-2.35819582261E-01
3.69059000000E+09	-9.67005689913E-01	-1.62807141726E-01
3.70183875000E+09	-9.74670705378E-01	-8.29970553678E-02
3.71308750000E+09	-9.75321845280E-01	3.10122429071E-03
3.72433625000E+09	-9.67275403284E-01	9.64297959101E-02
3.73558500000E+09	-9.49089437522E-01	1.96762940690E-01
3.74683375000E+09	-9.15898474737E-01	3.02951905646E-01
3.75808250000E+09	-8.63800017282E-01	4.16613631822E-01
3.76933125000E+09	-7.89270677028E-01	5.34210823579E-01
3.78058000000E+09	-6.83593085690E-01	6.52595275682E-01
3.79182875000E+09	-5.38301283970E-01	7.64537945793E-01
3.80307750000E+09	-3.38643845966E-01	8.56682704567E-01
3.81432625000E+09	-6.78080552433E-02	8.97735675508E-01
3.82557500000E+09	3.00671271690E-01	7.97520723089E-01
3.83682375000E+09	3.48300032282E-01	1.19672328168E-01
3.84807250000E+09	5.83161881409E-01	4.69871579709E-01
3.85932125000E+09	6.19881288682E-01	-3.60910184916E-01
3.87057000000E+09	-3.96275619602E-01	-5.39485696147E-01
3.88181875000E+09	-5.50908312748E-01	4.53400775906E-01
3.89306750000E+09	2.53798831880E-01	7.01615206906E-01
3.90431625000E+09	7.50380396681E-01	1.01478161937E-01
3.91556500000E+09	4.41753305091E-01	-6.29498189939E-01
3.92681375000E+09	-3.66627685312E-01	-6.92838045302E-01
3.93806250000E+09	-7.88033655234E-01	-1.66003972592E-02
3.94931125000E+09	-4.10863677922E-01	6.58882685448E-01
3.96056000000E+09	3.60688528115E-01	6.69233343211E-01
3.97180875000E+09	7.54861920588E-01	-2.43501888296E-02
3.98305750000E+09	2.88411021085E-01	-7.11185794661E-01
