# Hz S RI R 50
! CMT, SC5090, 20109241, 21.3.2/2
! Date: 11/4/2021 12:46:57 PM
! Data: Format (Calibration Info)
! Freq	S11:Re/Im(--)
1.00000000000E+06	3.47857685559E-03	1.41717420087E-03
1.22487500000E+07	6.55024971967E-03	-6.26363961692E-04
2.34975000000E+07	7.25131283920E-03	-3.99697880325E-03
3.47462500000E+07	6.75316143612E-03	-7.64132374498E-03
4.59950000000E+07	4.96682554384E-03	-1.12254734381E-02
5.72437500000E+07	1.98334389241E-03	-1.43349969232E-02
6.84925000000E+07	-1.80035811241E-03	-1.64782768325E-02
7.97412500000E+07	-6.19173055149E-03	-1.75686577577E-02
9.09900000000E+07	-1.09409467793E-02	-1.74049281162E-02
1.02238750000E+08	-1.56120883366E-02	-1.59615991203E-02
1.13487500000E+08	-1.95972298384E-02	-1.33541725626E-02
1.24736250000E+08	-2.29285006199E-02	-9.79170127339E-03
1.35985000000E+08	-2.51821016947E-02	-5.57034217085E-03
1.47233750000E+08	-2.63573560243E-02	-9.32628438881E-04
1.58482500000E+08	-2.64472640452E-02	3.78723293605E-03
1.69731250000E+08	-2.54568851914E-02	8.21923127962E-03
1.80980000000E+08	-2.36213543447E-02	1.21931376817E-02
1.92228750000E+08	-2.11602183003E-02	1.54844320972E-02
2.03477500000E+08	-1.82023937609E-02	1.81106456374E-02
2.14726250000E+08	-1.49738102769E-02	1.99866847684E-02
2.25975000000E+08	-1.17757341830E-02	2.11355996709E-02
2.37223750000E+08	-8.70633751951E-03	2.15437206256E-02
2.48472500000E+08	-5.86974259550E-03	2.15574803615E-02
2.59721250000E+08	-3.42531345129E-03	2.10641268317E-02
2.70970000000E+08	-1.30154318803E-03	2.02342710371E-02
2.82218750000E+08	3.00251405675E-04	1.91720879790E-02
2.93467500000E+08	1.53498334648E-03	1.81391057836E-02
3.04716250000E+08	2.40292417342E-03	1.71577212196E-02
3.15965000000E+08	2.85748144259E-03	1.62067795316E-02
3.27213750000E+08	2.93923913437E-03	1.54892275231E-02
3.38462500000E+08	2.82231477402E-03	1.49206282597E-02
3.49711250000E+08	2.51764928401E-03	1.48417395459E-02
3.60960000000E+08	2.10766285301E-03	1.50522563819E-02
3.72208750000E+08	1.72896491505E-03	1.56385924093E-02
3.83457500000E+08	1.52754620740E-03	1.66205740116E-02
3.94706250000E+08	1.51731406328E-03	1.80132413084E-02
4.05955000000E+08	2.00520675948E-03	1.96167383205E-02
4.17203750000E+08	2.84915174108E-03	2.13257639714E-02
4.28452500000E+08	4.42618862570E-03	2.30426744843E-02
4.39701250000E+08	6.50456835581E-03	2.44596397617E-02
4.50950000000E+08	8.97483373949E-03	2.54256665977E-02
4.62198750000E+08	1.18088132952E-02	2.58443456335E-02
4.73447500000E+08	1.48260541828E-02	2.56216508165E-02
4.84696250000E+08	1.77896943291E-02	2.45405651815E-02
4.95945000000E+08	2.02750299586E-02	2.28814589013E-02
5.07193750000E+08	2.23505302755E-02	2.04549596125E-02
5.18442500000E+08	2.37119673898E-02	1.77753092898E-02
5.29691250000E+08	2.41937771819E-02	1.49338393985E-02
5.40940000000E+08	2.38805969819E-02	1.21014944678E-02
5.52188750000E+08	2.28071172686E-02	9.88038130307E-03
5.63437500000E+08	2.11649172367E-02	8.20541893392E-03
5.74686250000E+08	1.93725711250E-02	7.38313070238E-03
5.85935000000E+08	1.75815650026E-02	7.40272930316E-03
5.97183750000E+08	1.61679475445E-02	8.23432113432E-03
6.08432500000E+08	1.54821949369E-02	9.69548423603E-03
6.19681250000E+08	1.57193076432E-02	1.13611392035E-02
6.30930000000E+08	1.70572156683E-02	1.30832066137E-02
6.42178750000E+08	1.93830753832E-02	1.43123320808E-02
6.53427500000E+08	2.24507276175E-02	1.46979821749E-02
6.64676250000E+08	2.61122433346E-02	1.39687726158E-02
6.75925000000E+08	2.98846410442E-02	1.18474078495E-02
6.87173750000E+08	3.32966240848E-02	8.31402676948E-03
6.98422500000E+08	3.58682534458E-02	3.64017409711E-03
7.09671250000E+08	3.73127924129E-02	-2.03117561046E-03
7.20920000000E+08	3.70915845563E-02	-8.17396840997E-03
7.32168750000E+08	3.53376293038E-02	-1.45637041879E-02
7.43417500000E+08	3.20242431558E-02	-2.02680584000E-02
7.54666250000E+08	2.72518481436E-02	-2.49069139657E-02
7.65915000000E+08	2.14596502832E-02	-2.83006329116E-02
7.77163750000E+08	1.52186258666E-02	-2.99276217380E-02
7.88412500000E+08	9.03756738524E-03	-2.99604462667E-02
7.99661250000E+08	3.51250713542E-03	-2.81666367127E-02
8.10910000000E+08	-9.28970867917E-04	-2.52309736636E-02
8.22158750000E+08	-3.80725138964E-03	-2.13773602255E-02
8.33407500000E+08	-4.99792191203E-03	-1.72046418384E-02
8.44656250000E+08	-4.68611578026E-03	-1.34002383196E-02
8.55905000000E+08	-2.74830139191E-03	-1.05102595973E-02
8.67153750000E+08	1.38158377596E-04	-8.86021052522E-03
8.78402500000E+08	3.58063304887E-03	-8.87045363587E-03
8.89651250000E+08	6.84439810071E-03	-1.05146338398E-02
9.00900000000E+08	9.39947449118E-03	-1.38848214264E-02
9.12148750000E+08	1.07010176869E-02	-1.82793397680E-02
9.23397500000E+08	1.01885213836E-02	-2.33290005295E-02
9.34646250000E+08	8.01515720671E-03	-2.85500544604E-02
9.45895000000E+08	3.84015373686E-03	-3.30497270167E-02
9.57143750000E+08	-1.70102917343E-03	-3.63563470646E-02
9.68392500000E+08	-8.46100882257E-03	-3.79184197249E-02
9.79641250000E+08	-1.56658908925E-02	-3.73694863952E-02
9.90890000000E+08	-2.25645803496E-02	-3.46064892206E-02
1.00213875000E+09	-2.86431070432E-02	-2.97791580993E-02
1.01338750000E+09	-3.30996685400E-02	-2.32158149456E-02
1.02463625000E+09	-3.54298522744E-02	-1.55211603460E-02
1.03588500000E+09	-3.54358677910E-02	-7.39187571658E-03
1.04713375000E+09	-3.30367687572E-02	4.80998345762E-04
1.05838250000E+09	-2.84147441804E-02	7.30094248481E-03
1.06963125000E+09	-2.19498934103E-02	1.25077577059E-02
1.08088000000E+09	-1.43764846841E-02	1.55196250283E-02
1.09212875000E+09	-6.21349345360E-03	1.62359737651E-02
1.10337750000E+09	1.47506915928E-03	1.45341217883E-02
1.11462625000E+09	8.18162032845E-03	1.06331942031E-02
1.12587500000E+09	1.30714318971E-02	5.18209051821E-03
1.13712375000E+09	1.60231875015E-02	-1.40824344676E-03
1.14837250000E+09	1.66542691040E-02	-8.22506232312E-03
1.15962125000E+09	1.49362124760E-02	-1.46213237483E-02
1.17087000000E+09	1.12499503091E-02	-1.98989885665E-02
1.18211875000E+09	6.16314777335E-03	-2.33709375144E-02
1.19336750000E+09	2.20954845393E-04	-2.47561183028E-02
1.20461625000E+09	-5.80189311420E-03	-2.39401506258E-02
1.21586500000E+09	-1.12531122629E-02	-2.09696756351E-02
1.22711375000E+09	-1.54138531496E-02	-1.61005419509E-02
1.23836250000E+09	-1.78443768193E-02	-1.01000618292E-02
1.24961125000E+09	-1.81167106909E-02	-3.50870053859E-03
1.26086000000E+09	-1.64032965378E-02	3.07857410229E-03
1.27210875000E+09	-1.27738987264E-02	8.91094158147E-03
1.28335750000E+09	-7.44095037078E-03	1.33111199243E-02
1.29460625000E+09	-1.07405370515E-03	1.60185823513E-02
1.30585500000E+09	5.56746276390E-03	1.66756631666E-02
1.31710375000E+09	1.19244463627E-02	1.53474061317E-02
1.32835250000E+09	1.74228477214E-02	1.23388110426E-02
1.33960125000E+09	2.13568413700E-02	7.94654403735E-03
1.35085000000E+09	2.34523961478E-02	2.82143214130E-03
1.36209875000E+09	2.37371359960E-02	-2.39271314383E-03
1.37334750000E+09	2.21403604174E-02	-7.11349771462E-03
1.38459625000E+09	1.90550793664E-02	-1.06589110431E-02
1.39584500000E+09	1.48467724188E-02	-1.26480285041E-02
1.40709375000E+09	1.03461343506E-02	-1.28741349570E-02
1.41834250000E+09	5.86960057265E-03	-1.12052438939E-02
1.42959125000E+09	2.36078631572E-03	-7.92841925058E-03
1.44084000000E+09	1.62535010745E-04	-3.41004343308E-03
1.45208875000E+09	-3.42920596699E-04	1.83956609719E-03
1.46333750000E+09	9.18241253242E-04	7.07518509277E-03
1.47458625000E+09	4.19102903124E-03	1.18999854947E-02
1.48583500000E+09	8.83678859084E-03	1.54772505460E-02
1.49708375000E+09	1.47035461109E-02	1.74412285002E-02
1.50833250000E+09	2.09158822202E-02	1.74995716577E-02
1.51958125000E+09	2.70240075185E-02	1.55010610897E-02
1.53083000000E+09	3.23316571017E-02	1.16691302263E-02
1.54207875000E+09	3.63458172611E-02	6.23422564651E-03
1.55332750000E+09	3.85139855737E-02	-3.06649968633E-04
1.56457625000E+09	3.87691019370E-02	-7.22953317531E-03
1.57582500000E+09	3.68679655409E-02	-1.41255549354E-02
1.58707375000E+09	3.30753061760E-02	-2.02362874558E-02
1.59832250000E+09	2.77920784574E-02	-2.50613498290E-02
1.60957125000E+09	2.13856203266E-02	-2.82948987000E-02
1.62082000000E+09	1.45245408755E-02	-2.96704104067E-02
1.63206875000E+09	7.72817115729E-03	-2.91899683389E-02
1.64331750000E+09	1.56115034088E-03	-2.70114804448E-02
1.65456625000E+09	-3.48664985910E-03	-2.36872010779E-02
1.66581500000E+09	-7.33755837452E-03	-1.92637026634E-02
1.67706375000E+09	-9.42276180430E-03	-1.45816849159E-02
1.68831250000E+09	-1.02283309134E-02	-9.93147365232E-03
1.69956125000E+09	-9.67549450275E-03	-5.90952185507E-03
1.71081000000E+09	-8.14663997125E-03	-2.86379392619E-03
1.72205875000E+09	-5.98837923987E-03	-7.82006183459E-04
1.73330750000E+09	-3.59918723408E-03	6.62028400074E-05
1.74455625000E+09	-1.40535874124E-03	-1.57452733991E-04
1.75580500000E+09	8.18398607718E-05	-1.34507743945E-03
1.76705375000E+09	9.17158652412E-04	-3.24990508394E-03
1.77830250000E+09	1.16132972136E-03	-5.38798325034E-03
1.78955125000E+09	3.64786258308E-04	-7.59928998804E-03
1.80080000000E+09	-1.28528794131E-03	-9.55208721033E-03
1.81204875000E+09	-3.36999634347E-03	-1.11680414214E-02
1.82329750000E+09	-5.82749373180E-03	-1.19950455723E-02
1.83454625000E+09	-8.53917143516E-03	-1.22133904439E-02
1.84579500000E+09	-1.11741075547E-02	-1.18646251700E-02
1.85704375000E+09	-1.34356979359E-02	-1.09340327243E-02
1.86829250000E+09	-1.55454720300E-02	-9.58285574545E-03
1.87954125000E+09	-1.69730591034E-02	-7.95233645783E-03
1.89079000000E+09	-1.79483072412E-02	-6.20731905490E-03
1.90203875000E+09	-1.83076856235E-02	-4.60377123385E-03
1.91328750000E+09	-1.85178156837E-02	-2.94445914696E-03
1.92453625000E+09	-1.82453303963E-02	-1.55437088216E-03
1.93578500000E+09	-1.76908861060E-02	-6.04338855926E-04
1.94703375000E+09	-1.69444575351E-02	3.28346029255E-04
1.95828250000E+09	-1.60529502881E-02	8.26053070158E-04
1.96953125000E+09	-1.51451652043E-02	1.10038212175E-03
1.98078000000E+09	-1.41289278733E-02	1.07958823680E-03
1.99202875000E+09	-1.31983656956E-02	7.92794801753E-04
2.00327750000E+09	-1.23900912724E-02	2.18407668274E-04
2.01452625000E+09	-1.17207855118E-02	-6.55667240093E-04
2.02577500000E+09	-1.13020282083E-02	-1.73579635977E-03
2.03702375000E+09	-1.12761879941E-02	-2.77386193007E-03
2.04827250000E+09	-1.15939102398E-02	-3.84076190960E-03
2.05952125000E+09	-1.23118141561E-02	-4.84901648659E-03
2.07077000000E+09	-1.33163831856E-02	-5.72969379948E-03
2.08201875000E+09	-1.47031708555E-02	-5.81507053238E-03
2.09326750000E+09	-1.61853965726E-02	-5.38636133788E-03
2.10451625000E+09	-1.74861181192E-02	-4.35896820048E-03
2.11576500000E+09	-1.84701785849E-02	-2.50924459630E-03
2.12701375000E+09	-1.90926232710E-02	4.08074616567E-05
2.13826250000E+09	-1.86848818635E-02	2.99548173885E-03
2.14951125000E+09	-1.71977890439E-02	6.12811779069E-03
2.16076000000E+09	-1.45325755731E-02	9.09529450109E-03
2.17200875000E+09	-1.09260211992E-02	1.15527555787E-02
2.18325750000E+09	-6.17900520152E-03	1.31632500418E-02
2.19450625000E+09	-7.68309920608E-04	1.35133549652E-02
2.20575500000E+09	4.81123600144E-03	1.23780576608E-02
2.21700375000E+09	1.01993556301E-02	9.74977251980E-03
2.22825250000E+09	1.47723880451E-02	5.52700644670E-03
2.23950125000E+09	1.82639387636E-02	2.11188663782E-04
2.25075000000E+09	2.01175168084E-02	-5.77628716682E-03
2.26199875000E+09	1.99989715671E-02	-1.21253000181E-02
2.27324750000E+09	1.81984007583E-02	-1.79988444464E-02
2.28449625000E+09	1.46179014352E-02	-2.29290078409E-02
2.29574500000E+09	9.77404170972E-03	-2.63848494904E-02
2.30699375000E+09	4.15503433257E-03	-2.78504863651E-02
2.31824250000E+09	-1.47174834642E-03	-2.73299951598E-02
2.32949125000E+09	-6.33204070851E-03	-2.46873758958E-02
2.34074000000E+09	-1.00920551722E-02	-2.04990192454E-02
2.35198875000E+09	-1.20632452294E-02	-1.50047340375E-02
2.36323750000E+09	-1.18478590849E-02	-9.03713710214E-03
2.37448625000E+09	-9.44682921457E-03	-3.33763254610E-03
2.38573500000E+09	-5.13669366899E-03	1.26834728004E-03
2.39698375000E+09	7.10716691739E-04	4.38032607920E-03
2.40823250000E+09	7.32933354741E-03	5.38539858361E-03
2.41948125000E+09	1.41659045977E-02	4.04430559997E-03
2.43073000000E+09	2.00089673501E-02	4.90950409717E-04
2.44197875000E+09	2.44883738980E-02	-4.84481225283E-03
2.45322750000E+09	2.71003990603E-02	-1.14734215490E-02
2.46447625000E+09	2.72152150281E-02	-1.85304968163E-02
2.47572500000E+09	2.49763378633E-02	-2.51856385929E-02
2.48697375000E+09	2.07019781788E-02	-3.04868840231E-02
2.49822250000E+09	1.48125197774E-02	-3.41385251659E-02
2.50947125000E+09	7.96024655320E-03	-3.54015250031E-02
2.52072000000E+09	1.12699489998E-03	-3.42019206555E-02
2.53196875000E+09	-4.78344421339E-03	-3.08307324563E-02
2.54321750000E+09	-9.09948628123E-03	-2.55636867078E-02
2.55446625000E+09	-1.11906029622E-02	-1.91465076280E-02
2.56571500000E+09	-1.08211706770E-02	-1.25089333777E-02
2.57696375000E+09	-7.99810906713E-03	-6.36439912508E-03
2.58821250000E+09	-3.26087100438E-03	-1.80012929277E-03
2.59946125000E+09	3.00913584591E-03	7.47347124497E-04
2.61071000000E+09	9.81477150900E-03	5.75473512842E-04
2.62195875000E+09	1.61631747783E-02	-1.99444899444E-03
2.63320750000E+09	2.12320965208E-02	-7.17950199449E-03
2.64445625000E+09	2.43416235641E-02	-1.40167716172E-02
2.65570500000E+09	2.48061455568E-02	-2.18470295275E-02
2.66695375000E+09	2.25166275728E-02	-2.96696430944E-02
2.67820250000E+09	1.73319905683E-02	-3.67452518092E-02
2.68945125000E+09	1.00940586783E-02	-4.19387336563E-02
2.70070000000E+09	1.24231815559E-03	-4.48171745156E-02
2.71194875000E+09	-8.26380988332E-03	-4.48599777616E-02
2.72319750000E+09	-1.75641329925E-02	-4.20539917086E-02
2.73444625000E+09	-2.54390009978E-02	-3.66547897465E-02
2.74569500000E+09	-3.13626018717E-02	-2.92050532058E-02
2.75694375000E+09	-3.46897420020E-02	-2.05537396714E-02
2.76819250000E+09	-3.53060409497E-02	-1.15526975207E-02
2.77944125000E+09	-3.31860079824E-02	-3.28765857735E-03
2.79069000000E+09	-2.87760185800E-02	3.48000547574E-03
2.80193875000E+09	-2.27426058824E-02	8.11338060718E-03
2.81318750000E+09	-1.60361330399E-02	1.01921845286E-02
2.82443625000E+09	-9.32741644942E-03	9.78577899188E-03
2.83568500000E+09	-3.66833622009E-03	7.07944298123E-03
2.84693375000E+09	1.69989691392E-04	2.57602872197E-03
2.85818250000E+09	1.86751088644E-03	-3.01829482245E-03
2.86943125000E+09	1.20013430888E-03	-8.86008937965E-03
2.88068000000E+09	-1.64552093643E-03	-1.40053748200E-02
2.89192875000E+09	-6.38097087342E-03	-1.77604760073E-02
2.90317750000E+09	-1.23388070116E-02	-1.97137641591E-02
2.91442625000E+09	-1.87238310906E-02	-1.94155890364E-02
2.92567500000E+09	-2.47931079924E-02	-1.68833063089E-02
2.93692375000E+09	-2.99312260112E-02	-1.24595436119E-02
2.94817250000E+09	-3.34154626785E-02	-6.55146064091E-03
2.95942125000E+09	-3.46744893899E-02	2.03587878304E-04
2.97067000000E+09	-3.39004710534E-02	7.09140267493E-03
2.98191875000E+09	-3.10805593193E-02	1.32923977235E-02
2.99316750000E+09	-2.65391671137E-02	1.84002870277E-02
3.00441625000E+09	-2.07835820501E-02	2.16824853281E-02
3.01566500000E+09	-1.43743853277E-02	2.30393816540E-02
3.02691375000E+09	-8.22149958666E-03	2.24197268943E-02
3.03816250000E+09	-2.71911522709E-03	1.98625592749E-02
3.04941125000E+09	1.41559999184E-03	1.60662603286E-02
3.06066000000E+09	4.12141032281E-03	1.13280163992E-02
3.07190875000E+09	5.17987143536E-03	6.24777986712E-03
3.08315750000E+09	4.29952945388E-03	1.31731200083E-03
3.09440625000E+09	2.21713312596E-03	-2.61689274326E-03
3.10565500000E+09	-1.08449585581E-03	-5.51018480215E-03
3.11690375000E+09	-4.98276785906E-03	-7.17124684849E-03
3.12815250000E+09	-8.91225354691E-03	-7.33442807250E-03
3.13940125000E+09	-1.26262770732E-02	-5.95901525441E-03
3.15065000000E+09	-1.53723570764E-02	-3.50301913901E-03
3.16189875000E+09	-1.70984158342E-02	-1.05976888863E-04
3.17314750000E+09	-1.75805409936E-02	3.57291186333E-03
3.18439625000E+09	-1.68818882308E-02	7.10752738937E-03
3.19564500000E+09	-1.50400741845E-02	1.03740197455E-02
3.20689375000E+09	-1.23382454771E-02	1.30227842975E-02
3.21814250000E+09	-9.10822037281E-03	1.47055666601E-02
3.22939125000E+09	-5.46090648825E-03	1.54057811823E-02
3.24064000000E+09	-1.95553554416E-03	1.50456617458E-02
3.25188875000E+09	1.21904517817E-03	1.39154403079E-02
3.26313750000E+09	3.74697928176E-03	1.19336979862E-02
3.27438625000E+09	5.67822954663E-03	9.49951866660E-03
3.28563500000E+09	6.81786098263E-03	6.94176017417E-03
3.29688375000E+09	6.97870903890E-03	4.30494434546E-03
3.30813250000E+09	6.39958339579E-03	1.98597483408E-03
3.31938125000E+09	5.24954976200E-03	1.65944781207E-04
3.33063000000E+09	3.72747365251E-03	-9.09847697768E-04
3.34187875000E+09	2.08493864851E-03	-1.41714251473E-03
3.35312750000E+09	3.21610403952E-04	-1.06264803701E-03
3.36437625000E+09	-1.00890494947E-03	-1.22042961679E-04
3.37562500000E+09	-1.75495155608E-03	1.37393500212E-03
3.38687375000E+09	-1.98142223299E-03	3.25485372321E-03
3.39812250000E+09	-1.48542418950E-03	5.43900211969E-03
3.40937125000E+09	-3.78586919116E-04	7.54879914182E-03
3.42062000000E+09	1.59568871344E-03	9.37997579519E-03
3.43186875000E+09	4.24548672048E-03	1.06036839198E-02
3.44311750000E+09	7.32801087282E-03	1.10273643901E-02
3.45436625000E+09	1.05454138653E-02	1.06556253123E-02
3.46561500000E+09	1.39042969046E-02	9.29086790352E-03
3.47686375000E+09	1.68928060340E-02	7.09362487090E-03
3.48811250000E+09	1.94809036009E-02	3.96888410675E-03
3.49936125000E+09	2.14615307422E-02	1.84855193382E-04
3.51061000000E+09	2.23648918749E-02	-3.99578377504E-03
3.52185875000E+09	2.20960577725E-02	-8.35813658739E-03
3.53310750000E+09	2.06964695517E-02	-1.25437655629E-02
3.54435625000E+09	1.83375556482E-02	-1.62171893044E-02
3.55560500000E+09	1.50797099578E-02	-1.91144238820E-02
3.56685375000E+09	1.11521010695E-02	-2.10194219773E-02
3.57810250000E+09	7.06233411474E-03	-2.18957444112E-02
3.58935125000E+09	3.06944799587E-03	-2.16542395178E-02
3.60060000000E+09	-5.43807398088E-04	-2.03893830954E-02
3.61184875000E+09	-3.41155517133E-03	-1.82271044191E-02
3.62309750000E+09	-5.42110183434E-03	-1.53402768631E-02
3.63434625000E+09	-6.31643056945E-03	-1.23717123242E-02
3.64559500000E+09	-6.04014575152E-03	-9.30198818032E-03
3.65684375000E+09	-4.80308054811E-03	-6.77805931701E-03
3.66809250000E+09	-2.68374487237E-03	-4.91800806851E-03
3.67934125000E+09	-9.09038361516E-05	-4.09362144957E-03
3.69059000000E+09	2.75696756476E-03	-4.20522623714E-03
3.70183875000E+09	5.46901818716E-03	-5.29142878797E-03
3.71308750000E+09	7.83328289916E-03	-7.37700201256E-03
3.72433625000E+09	9.60077159914E-03	-1.01653342665E-02
3.73558500000E+09	1.04261557545E-02	-1.36413489130E-02
3.74683375000E+09	1.01911544716E-02	-1.73049386460E-02
3.75808250000E+09	9.07630471127E-03	-2.08657027250E-02
3.76933125000E+09	7.05927828639E-03	-2.39718590288E-02
3.78058000000E+09	4.22254098922E-03	-2.66139494665E-02
3.79182875000E+09	9.91479729034E-04	-2.82139555660E-02
3.80307750000E+09	-2.40785995337E-03	-2.91186545674E-02
3.81432625000E+09	-5.67168780789E-03	-2.91398156199E-02
3.82557500000E+09	-8.69366789461E-03	-2.84119614373E-02
3.83682375000E+09	-1.11440096208E-02	-2.70335014127E-02
3.84807250000E+09	-1.29703273311E-02	-2.53772995715E-02
3.85932125000E+09	-1.41248839588E-02	-2.33817545925E-02
3.87057000000E+09	-1.44415650955E-02	-2.15509287070E-02
3.88181875000E+09	-1.42969714340E-02	-2.00126807353E-02
3.89306750000E+09	-1.36386322301E-02	-1.90319485907E-02
3.90431625000E+09	-1.27067785065E-02	-1.84264259919E-02
3.91556500000E+09	-1.16989949232E-02	-1.83718667722E-02
3.92681375000E+09	-1.08811794326E-02	-1.89491861336E-02
3.93806250000E+09	-1.03337961680E-02	-2.00192174408E-02
3.94931125000E+09	-1.01798040370E-02	-2.11993968580E-02
3.96056000000E+09	-1.05517799707E-02	-2.26088134969E-02
3.97180875000E+09	-1.15953300749E-02	-2.39663708184E-02
