# Hz S RI R 50
! CMT, SC5090, 20109241, 21.3.2/2
! Date: 11/4/2021 12:49:09 PM
! Data: Format (Calibration Info)
! Freq	S11:Re/Im(--)
1.00000000000E+06	-9.80467080070E-01	2.82344382367E-02
1.22487500000E+07	-8.87433789513E-01	4.25041951469E-01
2.34975000000E+07	-6.43567663898E-01	7.33333949880E-01
3.47462500000E+07	-3.04476839827E-01	9.22511681878E-01
4.59950000000E+07	8.17744787324E-02	9.66251669300E-01
5.72437500000E+07	4.55284273142E-01	8.55508004029E-01
6.84925000000E+07	7.57005528930E-01	6.06033360142E-01
7.97412500000E+07	9.36490401562E-01	2.56271960073E-01
9.09900000000E+07	9.62563767376E-01	-1.37616635625E-01
1.02238750000E+08	8.29355375399E-01	-5.09639903222E-01
1.13487500000E+08	5.59637304957E-01	-7.97007751010E-01
1.24736250000E+08	1.99811217978E-01	-9.52878952471E-01
1.35985000000E+08	-1.88869624646E-01	-9.53533409455E-01
1.47233750000E+08	-5.43162256136E-01	-8.03812331102E-01
1.58482500000E+08	-8.08357716169E-01	-5.31360455498E-01
1.69731250000E+08	-9.47021993360E-01	-1.81931367233E-01
1.80980000000E+08	-9.42352981305E-01	1.89939287502E-01
1.92228750000E+08	-7.99118247506E-01	5.30098423081E-01
2.03477500000E+08	-5.39419458099E-01	7.90402003403E-01
2.14726250000E+08	-2.01043387759E-01	9.34114554300E-01
2.25975000000E+08	1.67678485864E-01	9.40464517857E-01
2.37223750000E+08	5.14140965187E-01	8.05343560255E-01
2.48472500000E+08	7.85478386174E-01	5.45067414516E-01
2.59721250000E+08	9.37016396563E-01	1.95759850064E-01
2.70970000000E+08	9.39284650005E-01	-1.89984891084E-01
2.82218750000E+08	7.86071629034E-01	-5.49160678531E-01
2.93467500000E+08	4.98866469594E-01	-8.18705804684E-01
3.04716250000E+08	1.25602935899E-01	-9.49466275147E-01
3.15965000000E+08	-2.68234132180E-01	-9.17008137938E-01
3.27213750000E+08	-6.13046296763E-01	-7.29229808544E-01
3.38462500000E+08	-8.50258402805E-01	-4.22610898150E-01
3.49711250000E+08	-9.44815044812E-01	-5.26863071154E-02
3.60960000000E+08	-8.88281076847E-01	3.18554608240E-01
3.72208750000E+08	-6.96466738476E-01	6.34179082812E-01
3.83457500000E+08	-4.03415246861E-01	8.49788933188E-01
3.94706250000E+08	-5.43147805864E-02	9.38819317280E-01
4.05955000000E+08	3.01116317689E-01	8.91306171550E-01
4.17203750000E+08	6.13633200041E-01	7.14972264260E-01
4.28452500000E+08	8.38922391274E-01	4.32253422637E-01
4.39701250000E+08	9.41786856754E-01	8.10925489400E-02
4.50950000000E+08	9.01385459278E-01	-2.88603543057E-01
4.62198750000E+08	7.16896323651E-01	-6.18861361243E-01
4.73447500000E+08	4.11078392812E-01	-8.52609301188E-01
4.84696250000E+08	3.19384469222E-02	-9.44564018535E-01
4.95945000000E+08	-3.54300003804E-01	-8.73641964353E-01
5.07193750000E+08	-6.78151673953E-01	-6.50610032195E-01
5.18442500000E+08	-8.81603062111E-01	-3.16954330563E-01
5.29691250000E+08	-9.31757258989E-01	6.57722184738E-02
5.40940000000E+08	-8.26441659056E-01	4.30409915912E-01
5.52188750000E+08	-5.91014188903E-01	7.18959449838E-01
5.63437500000E+08	-2.68141292099E-01	8.90941699345E-01
5.74686250000E+08	9.02543985636E-02	9.26763017177E-01
5.85935000000E+08	4.32342972242E-01	8.26280740226E-01
5.97183750000E+08	7.10788087766E-01	6.06146892616E-01
6.08432500000E+08	8.87359271777E-01	2.98072004420E-01
6.19681250000E+08	9.35790311348E-01	-5.62453196799E-02
6.30930000000E+08	8.46024953799E-01	-4.06371295386E-01
6.42178750000E+08	6.26314656340E-01	-6.99404599897E-01
6.53427500000E+08	3.05225451576E-01	-8.87050545876E-01
6.64676250000E+08	-6.91344897303E-02	-9.34086974892E-01
6.75925000000E+08	-4.35243380860E-01	-8.26756686549E-01
6.87173750000E+08	-7.29467278971E-01	-5.78826518751E-01
6.98422500000E+08	-8.98589581400E-01	-2.32083306781E-01
7.09671250000E+08	-9.12207034431E-01	1.52928329831E-01
7.20920000000E+08	-7.69770504288E-01	5.08605244541E-01
7.32168750000E+08	-4.98681548655E-01	7.74099597401E-01
7.43417500000E+08	-1.47601073421E-01	9.08354891191E-01
7.54666250000E+08	2.23511403165E-01	8.92867543374E-01
7.65915000000E+08	5.55202235692E-01	7.35333895694E-01
7.77163750000E+08	7.98054797563E-01	4.64204196207E-01
7.88412500000E+08	9.16906166639E-01	1.22877057199E-01
7.99661250000E+08	8.97152651447E-01	-2.35790015072E-01
8.10910000000E+08	7.42856220694E-01	-5.59403446352E-01
8.22158750000E+08	4.77130094240E-01	-8.00613442821E-01
8.33407500000E+08	1.38873318167E-01	-9.22749974443E-01
8.44656250000E+08	-2.22013724211E-01	-9.06699677269E-01
8.55905000000E+08	-5.50824927889E-01	-7.52422913552E-01
8.67153750000E+08	-7.96675216565E-01	-4.81424823365E-01
8.78402500000E+08	-9.18201030725E-01	-1.33504283801E-01
8.89651250000E+08	-8.93621992955E-01	2.36231190977E-01
9.00900000000E+08	-7.23718705804E-01	5.68605539529E-01
9.12148750000E+08	-4.34838722748E-01	8.06770249522E-01
9.23397500000E+08	-7.41155891842E-02	9.10155523649E-01
9.34646250000E+08	2.97669754855E-01	8.60989099143E-01
9.45895000000E+08	6.18413552854E-01	6.68657406698E-01
9.57143750000E+08	8.35105143276E-01	3.66140054926E-01
9.68392500000E+08	9.14630380420E-01	4.86241781403E-03
9.79641250000E+08	8.46393198152E-01	-3.56370631974E-01
9.90890000000E+08	6.44004272170E-01	-6.60434913370E-01
1.00213875000E+09	3.41013097483E-01	-8.61226531134E-01
1.01338750000E+09	-1.44953264186E-02	-9.29041223002E-01
1.02463625000E+09	-3.67650042518E-01	-8.55160104326E-01
1.03588500000E+09	-6.65118755445E-01	-6.51421914001E-01
1.04713375000E+09	-8.60875630022E-01	-3.49352344321E-01
1.05838250000E+09	-9.25889856849E-01	4.65445961471E-03
1.06963125000E+09	-8.49355719312E-01	3.56922330520E-01
1.08088000000E+09	-6.43262514989E-01	6.52780792980E-01
1.09212875000E+09	-3.39242180443E-01	8.46601304364E-01
1.10337750000E+09	1.57461090005E-02	9.08314318053E-01
1.11462625000E+09	3.66565120333E-01	8.28935542360E-01
1.12587500000E+09	6.59999651074E-01	6.20947136777E-01
1.13712375000E+09	8.50906910154E-01	3.16419227548E-01
1.14837250000E+09	9.10014806235E-01	-3.78418033585E-02
1.15962125000E+09	8.28467297061E-01	-3.88100048910E-01
1.17087000000E+09	6.17582180558E-01	-6.80639508415E-01
1.18211875000E+09	3.09379788319E-01	-8.69425877758E-01
1.19336750000E+09	-4.94570167554E-02	-9.24084054480E-01
1.20461625000E+09	-4.02524388753E-01	-8.34528741190E-01
1.21586500000E+09	-6.93860411418E-01	-6.13097139702E-01
1.22711375000E+09	-8.75307933406E-01	-2.94914943895E-01
1.23836250000E+09	-9.17256647783E-01	6.90362503646E-02
1.24961125000E+09	-8.13776277536E-01	4.19859411494E-01
1.26086000000E+09	-5.82823671836E-01	7.00710347028E-01
1.27210875000E+09	-2.63205696908E-01	8.68721366662E-01
1.28335750000E+09	9.36469284266E-02	9.00315170385E-01
1.29460625000E+09	4.32826980022E-01	7.93504304943E-01
1.30585500000E+09	7.04395357491E-01	5.67313809047E-01
1.31710375000E+09	8.69095487641E-01	2.55550718178E-01
1.32835250000E+09	9.03822738652E-01	-9.53095904551E-02
1.33960125000E+09	8.01718721453E-01	-4.35046252719E-01
1.35085000000E+09	5.75470897054E-01	-7.11762717991E-01
1.36209875000E+09	2.56406196198E-01	-8.81338486686E-01
1.37334750000E+09	-1.08252089839E-01	-9.12979311961E-01
1.38459625000E+09	-4.59200997285E-01	-7.96475959977E-01
1.39584500000E+09	-7.37634621583E-01	-5.47182539309E-01
1.40709375000E+09	-8.92759877305E-01	-2.05939154232E-01
1.41834250000E+09	-8.97532263354E-01	1.68027657046E-01
1.42959125000E+09	-7.53404603543E-01	5.09775276957E-01
1.44084000000E+09	-4.88570346556E-01	7.63749274723E-01
1.45208875000E+09	-1.51378249518E-01	8.91821191037E-01
1.46333750000E+09	2.03243491314E-01	8.80047734306E-01
1.47458625000E+09	5.22443421437E-01	7.36516523208E-01
1.48583500000E+09	7.62197324716E-01	4.85881697751E-01
1.49708375000E+09	8.90240179544E-01	1.65418096624E-01
1.50833250000E+09	8.89442675261E-01	-1.79572305228E-01
1.51958125000E+09	7.58634501292E-01	-5.01464354011E-01
1.53083000000E+09	5.12339138110E-01	-7.53024625375E-01
1.54207875000E+09	1.84152339919E-01	-8.92885791149E-01
1.55332750000E+09	-1.77914023930E-01	-8.94082768593E-01
1.56457625000E+09	-5.16091229173E-01	-7.50243455428E-01
1.57582500000E+09	-7.71580297451E-01	-4.80769996066E-01
1.58707375000E+09	-8.97968167662E-01	-1.28804513677E-01
1.59832250000E+09	-8.70756772332E-01	2.44896199678E-01
1.60957125000E+09	-6.95568158966E-01	5.75145695881E-01
1.62082000000E+09	-4.04173907285E-01	8.05098455931E-01
1.63206875000E+09	-4.85991176836E-02	8.98312564972E-01
1.64331750000E+09	3.11463046452E-01	8.43650304474E-01
1.65456625000E+09	6.18013768897E-01	6.53456103948E-01
1.66581500000E+09	8.24181365156E-01	3.61129650175E-01
1.67706375000E+09	9.00215585976E-01	1.35151034074E-02
1.68831250000E+09	8.36299438350E-01	-3.34906029871E-01
1.69956125000E+09	6.44046976831E-01	-6.31223233363E-01
1.71081000000E+09	3.52868865076E-01	-8.30554672208E-01
1.72205875000E+09	7.33674445570E-03	-9.03215204966E-01
1.73330750000E+09	-3.39842618896E-01	-8.37885104467E-01
1.74455625000E+09	-6.36302968814E-01	-6.43504205862E-01
1.75580500000E+09	-8.35861641739E-01	-3.48578472693E-01
1.76705375000E+09	-9.06759432011E-01	1.90424770988E-03
1.77830250000E+09	-8.35725560232E-01	3.52109300690E-01
1.78955125000E+09	-6.32877670739E-01	6.49826931185E-01
1.80080000000E+09	-3.27767200212E-01	8.44770303368E-01
1.81204875000E+09	3.11432425179E-02	9.03946103002E-01
1.82329750000E+09	3.84658344141E-01	8.15996506175E-01
1.83454625000E+09	6.74394849507E-01	5.95196374354E-01
1.84579500000E+09	8.52265969335E-01	2.78211320072E-01
1.85704375000E+09	8.89985511529E-01	-8.13635756456E-02
1.86829250000E+09	7.85188302628E-01	-4.24346489817E-01
1.87954125000E+09	5.56690956573E-01	-6.97200842099E-01
1.89079000000E+09	2.43686792320E-01	-8.59358560070E-01
1.90203875000E+09	-1.04785508706E-01	-8.89880382487E-01
1.91328750000E+09	-4.37550396072E-01	-7.85326247751E-01
1.92453625000E+09	-7.05733851541E-01	-5.62675460972E-01
1.93578500000E+09	-8.69637751530E-01	-2.54286490862E-01
1.94703375000E+09	-9.03600779091E-01	9.53420659161E-02
1.95828250000E+09	-7.99540072291E-01	4.33449573987E-01
1.96953125000E+09	-5.70761994599E-01	7.06843793070E-01
1.98078000000E+09	-2.50790463870E-01	8.70348756859E-01
1.99202875000E+09	1.09470095536E-01	8.94394707588E-01
2.00327750000E+09	4.50720641552E-01	7.74582398486E-01
2.01452625000E+09	7.16864375864E-01	5.29454414753E-01
2.02577500000E+09	8.63396955527E-01	2.00764838335E-01
2.03702375000E+09	8.70106844444E-01	-1.56555758630E-01
2.04827250000E+09	7.37857096884E-01	-4.86083075932E-01
2.05952125000E+09	4.89636515249E-01	-7.37336919703E-01
2.07077000000E+09	1.65619750611E-01	-8.72708270168E-01
2.08201875000E+09	-1.84677428084E-01	-8.73345089264E-01
2.09326750000E+09	-5.07422462980E-01	-7.39966031884E-01
2.10451625000E+09	-7.54736153199E-01	-4.92599800793E-01
2.11576500000E+09	-8.88203455847E-01	-1.67949461257E-01
2.12701375000E+09	-8.85778950901E-01	1.85110499386E-01
2.13826250000E+09	-7.45825206193E-01	5.10717553034E-01
2.14951125000E+09	-4.89644052491E-01	7.56983463452E-01
2.16076000000E+09	-1.57517340315E-01	8.83831283946E-01
2.17200875000E+09	1.97059820457E-01	8.71394965040E-01
2.18325750000E+09	5.18172744061E-01	7.23391167775E-01
2.19450625000E+09	7.55751197254E-01	4.64310177647E-01
2.20575500000E+09	8.74759437553E-01	1.35999196155E-01
2.21700375000E+09	8.59811790207E-01	-2.10910474182E-01
2.22825250000E+09	7.14082314092E-01	-5.24838768156E-01
2.23950125000E+09	4.60579288783E-01	-7.59515329009E-01
2.25075000000E+09	1.36293225323E-01	-8.80132100031E-01
2.26199875000E+09	-2.11332655336E-01	-8.67330108851E-01
2.27324750000E+09	-5.28873373544E-01	-7.20867472645E-01
2.28449625000E+09	-7.66943546362E-01	-4.61180465108E-01
2.29574500000E+09	-8.85618255295E-01	-1.25005540745E-01
2.30699375000E+09	-8.62068286119E-01	2.33303069220E-01
2.31824250000E+09	-6.96958966787E-01	5.55258418309E-01
2.32949125000E+09	-4.15811051134E-01	7.85876177166E-01
2.34074000000E+09	-6.74470100267E-02	8.84834942153E-01
2.35198875000E+09	2.90037320928E-01	8.37162535786E-01
2.36323750000E+09	5.97292051249E-01	6.53388572236E-01
2.37448625000E+09	8.05595120555E-01	3.67610910655E-01
2.38573500000E+09	8.85843747235E-01	2.71389307781E-02
2.39698375000E+09	8.29416735743E-01	-3.14494537684E-01
2.40823250000E+09	6.47853644075E-01	-6.06045193512E-01
2.41948125000E+09	3.70666000124E-01	-8.06635278345E-01
2.43073000000E+09	3.79113894778E-02	-8.86754937530E-01
2.44197875000E+09	-3.01540420783E-01	-8.33373365787E-01
2.45322750000E+09	-5.97197113880E-01	-6.53379142093E-01
2.46447625000E+09	-8.02855213634E-01	-3.69312364780E-01
2.47572500000E+09	-8.81765787260E-01	-2.33496324704E-02
2.48697375000E+09	-8.17056930389E-01	3.29452185180E-01
2.49822250000E+09	-6.14904466926E-01	6.30238314974E-01
2.50947125000E+09	-3.06923328594E-01	8.24893121416E-01
2.52072000000E+09	5.24063240457E-02	8.79269732243E-01
2.53196875000E+09	4.01534361624E-01	7.85310596548E-01
2.54321750000E+09	6.81486546445E-01	5.62073826188E-01
2.55446625000E+09	8.48313157685E-01	2.49520095741E-01
2.56571500000E+09	8.79380037314E-01	-9.89949440645E-02
2.57696375000E+09	7.74313804689E-01	-4.28004038180E-01
2.58821250000E+09	5.53837802573E-01	-6.89030511577E-01
2.59946125000E+09	2.52648542658E-01	-8.45750350117E-01
2.61071000000E+09	-8.41294987215E-02	-8.76816694930E-01
2.62195875000E+09	-4.08489848401E-01	-7.78015638395E-01
2.63320750000E+09	-6.72901993341E-01	-5.62096539645E-01
2.64445625000E+09	-8.36000657682E-01	-2.58249024076E-01
2.65570500000E+09	-8.69072387393E-01	8.96926333210E-02
2.66695375000E+09	-7.61226910877E-01	4.27499511945E-01
2.67820250000E+09	-5.25336302128E-01	6.97061550169E-01
2.68945125000E+09	-1.97641197404E-01	8.50765488157E-01
2.70070000000E+09	1.66595670313E-01	8.58705046001E-01
2.71194875000E+09	5.02974287219E-01	7.16926641587E-01
2.72319750000E+09	7.51858678865E-01	4.51315819519E-01
2.73444625000E+09	8.70422004826E-01	1.10020669808E-01
2.74569500000E+09	8.42268340628E-01	-2.46202416453E-01
2.75694375000E+09	6.76703603840E-01	-5.57773515459E-01
2.76819250000E+09	4.06245986869E-01	-7.75907089239E-01
2.77944125000E+09	7.69632532032E-02	-8.70921248633E-01
2.79069000000E+09	-2.59192324523E-01	-8.33511864167E-01
2.80193875000E+09	-5.53630379390E-01	-6.72917353257E-01
2.81318750000E+09	-7.65536089351E-01	-4.14503006436E-01
2.82443625000E+09	-8.65118078425E-01	-9.54680781773E-02
2.83568500000E+09	-8.37482626940E-01	2.39700596791E-01
2.84693375000E+09	-6.82845758296E-01	5.41616926384E-01
2.85818250000E+09	-4.20881704142E-01	7.64620573063E-01
2.86943125000E+09	-8.78650727671E-02	8.69533808283E-01
2.88068000000E+09	2.64417275898E-01	8.33710473581E-01
2.89192875000E+09	5.76704032230E-01	6.58143154270E-01
2.90317750000E+09	7.92984330040E-01	3.68867450874E-01
2.91442625000E+09	8.73622751351E-01	1.59690392904E-02
2.92567500000E+09	8.03877256078E-01	-3.37509805655E-01
2.93692375000E+09	5.99154161146E-01	-6.30797569386E-01
2.94817250000E+09	2.99256116181E-01	-8.15374158038E-01
2.95942125000E+09	-4.44519843319E-02	-8.66709832331E-01
2.97067000000E+09	-3.76227699580E-01	-7.80626836405E-01
2.98191875000E+09	-6.46825964723E-01	-5.77166827729E-01
2.99316750000E+09	-8.18359970842E-01	-2.88464346502E-01
3.00441625000E+09	-8.68093633211E-01	4.31007725364E-02
3.01566500000E+09	-7.89288482022E-01	3.68579162771E-01
3.02691375000E+09	-5.90808441895E-01	6.41773834038E-01
3.03816250000E+09	-3.00527023906E-01	8.19981682776E-01
3.04941125000E+09	3.93645750343E-02	8.72642007696E-01
3.06066000000E+09	3.76517269807E-01	7.87949082305E-01
3.07190875000E+09	6.55259997364E-01	5.75384597257E-01
3.08315750000E+09	8.27708488807E-01	2.68057624381E-01
3.09440625000E+09	8.63588672442E-01	-8.30559272967E-02
3.10565500000E+09	7.57129406319E-01	-4.19822015580E-01
3.11690375000E+09	5.25838790576E-01	-6.85473038564E-01
3.12815250000E+09	2.09666117597E-01	-8.36748871515E-01
3.13940125000E+09	-1.36399241529E-01	-8.51300542163E-01
3.15065000000E+09	-4.58409942757E-01	-7.30222784579E-01
3.16189875000E+09	-7.06328454764E-01	-4.95167205334E-01
3.17314750000E+09	-8.43433485010E-01	-1.83040094412E-01
3.18439625000E+09	-8.48853552405E-01	1.57237765697E-01
3.19564500000E+09	-7.22309818621E-01	4.73153008418E-01
3.20689375000E+09	-4.82875506947E-01	7.15639596701E-01
3.21814250000E+09	-1.67580902287E-01	8.46750709994E-01
3.22939125000E+09	1.75287818070E-01	8.44607279597E-01
3.24064000000E+09	4.91673107989E-01	7.08309370173E-01
3.25188875000E+09	7.30526388494E-01	4.57651679305E-01
3.26313750000E+09	8.51513535030E-01	1.31230643905E-01
3.27438625000E+09	8.33304445808E-01	-2.17677506213E-01
3.28563500000E+09	6.77561302891E-01	-5.31730243364E-01
3.29688375000E+09	4.08383730393E-01	-7.58492433253E-01
3.30813250000E+09	6.99295772585E-02	-8.58268476339E-01
3.31938125000E+09	-2.79896234466E-01	-8.13863320350E-01
3.33063000000E+09	-5.82109416784E-01	-6.32273820044E-01
3.34187875000E+09	-7.85470948300E-01	-3.45570795919E-01
3.35312750000E+09	-8.56578634378E-01	-2.95394190527E-03
3.36437625000E+09	-7.85511242543E-01	3.38701146499E-01
3.37562500000E+09	-5.84691214105E-01	6.22541795354E-01
3.38687375000E+09	-2.89303652577E-01	8.03345749588E-01
3.39812250000E+09	5.21720475666E-02	8.53617266368E-01
3.40937125000E+09	3.85684771706E-01	7.64089965155E-01
3.42062000000E+09	6.57574665837E-01	5.50505444586E-01
3.43186875000E+09	8.23817713156E-01	2.44711256737E-01
3.44311750000E+09	8.54898217795E-01	-1.03225050580E-01
3.45436625000E+09	7.43249036280E-01	-4.35930785156E-01
3.46561500000E+09	5.05151293612E-01	-6.97166174138E-01
3.47686375000E+09	1.79476078901E-01	-8.40220805329E-01
3.48811250000E+09	-1.77950244589E-01	-8.37467323893E-01
3.49936125000E+09	-5.04074283311E-01	-6.87157705115E-01
3.51061000000E+09	-7.39430341931E-01	-4.14565847343E-01
3.52185875000E+09	-8.41055204308E-01	-7.00673983027E-02
3.53310750000E+09	-7.90791864474E-01	2.86557579525E-01
3.54435625000E+09	-5.96185737186E-01	5.90780527814E-01
3.55560500000E+09	-2.91986351893E-01	7.86601130620E-01
3.56685375000E+09	6.68584490171E-02	8.37895220370E-01
3.57810250000E+09	4.15240009325E-01	7.33944941874E-01
3.58935125000E+09	6.87991353373E-01	4.92172864471E-01
3.60060000000E+09	8.33739241508E-01	1.57416945316E-01
3.61184875000E+09	8.24277154483E-01	-2.07974996524E-01
3.62309750000E+09	6.61090756295E-01	-5.35012472235E-01
3.63434625000E+09	3.75357190971E-01	-7.62164874148E-01
3.64559500000E+09	1.92645441632E-02	-8.46900380551E-01
3.65684375000E+09	-3.39623747626E-01	-7.72114982749E-01
3.66809250000E+09	-6.33763470199E-01	-5.50321483933E-01
3.67934125000E+09	-8.05050657704E-01	-2.19358191243E-01
3.69059000000E+09	-8.14651665949E-01	1.57849351153E-01
3.70183875000E+09	-6.52693885853E-01	5.06115491992E-01
3.71308750000E+09	-3.44832991253E-01	7.47977894399E-01
3.72433625000E+09	4.73690428479E-02	8.20754916473E-01
3.73558500000E+09	4.34326166900E-01	6.98116150781E-01
3.74683375000E+09	7.19093326397E-01	3.99447177169E-01
3.75808250000E+09	8.22841849905E-01	-6.41751219231E-03
3.76933125000E+09	7.08700363182E-01	-4.16294767812E-01
3.78058000000E+09	3.95530014576E-01	-7.16655853818E-01
3.79182875000E+09	-4.16454098567E-02	-8.10715135017E-01
3.80307750000E+09	-4.80188289677E-01	-6.39152913328E-01
3.81432625000E+09	-7.50963988650E-01	-2.03249858449E-01
3.82557500000E+09	-6.21475462064E-01	3.82250639758E-01
3.83682375000E+09	8.45982185049E-02	2.74425774004E-01
3.84807250000E+09	2.07460718045E-01	5.94860785778E-01
3.85932125000E+09	5.59108285407E-01	-2.60343512630E-01
3.87057000000E+09	-4.41034775823E-01	-3.86306807715E-01
3.88181875000E+09	-1.91445793823E-01	5.66806146946E-01
3.89306750000E+09	6.19402526837E-01	1.29171097860E-01
3.90431625000E+09	1.87241848239E-01	-6.35681539176E-01
3.91556500000E+09	-6.06928106140E-01	-2.81926159661E-01
3.92681375000E+09	-3.40925735878E-01	5.63522905262E-01
3.93806250000E+09	5.35836978908E-01	3.80375012801E-01
3.94931125000E+09	4.55482429271E-01	-4.90168144714E-01
3.96056000000E+09	-3.96556606797E-01	-5.38443807224E-01
3.97180875000E+09	-5.62252512425E-01	3.21517426326E-01
