# Hz S RI R 50
! CMT, SC5090, 20109241, 21.3.2/2
! Date: 11/4/2021 12:44:39 PM
! Data: Format (Calibration Info)
! Freq	S11:Re/Im(--)
1.00000000000E+06	9.89034294156E-01	-2.30558821918E-02
1.22487500000E+07	9.13704924607E-01	-4.16095885805E-01
2.34975000000E+07	6.81176210846E-01	-7.31673366010E-01
3.47462500000E+07	3.50522713359E-01	-9.33311875367E-01
4.59950000000E+07	-2.92101108557E-02	-9.93764298297E-01
5.72437500000E+07	-4.01142610463E-01	-9.06452110849E-01
6.84925000000E+07	-7.09600611396E-01	-6.86958175027E-01
7.97412500000E+07	-9.11339502980E-01	-3.70380975808E-01
9.09900000000E+07	-9.79450110349E-01	-3.68240692136E-03
1.02238750000E+08	-9.07067795671E-01	3.59911077250E-01
1.13487500000E+08	-7.05267301716E-01	6.70008020281E-01
1.24736250000E+08	-4.02646889644E-01	8.83278913697E-01
1.35985000000E+08	-4.05479151958E-02	9.68506391653E-01
1.47233750000E+08	3.29441806069E-01	9.11201835929E-01
1.58482500000E+08	6.53172964310E-01	7.16480052634E-01
1.69731250000E+08	8.79477876001E-01	4.09507814959E-01
1.80980000000E+08	9.70532429041E-01	3.54951392912E-02
1.92228750000E+08	9.08307982013E-01	-3.47452520370E-01
2.03477500000E+08	6.99637340132E-01	-6.76815103776E-01
2.14726250000E+08	3.77329163574E-01	-8.96797297248E-01
2.25975000000E+08	-4.10436271501E-03	-9.72163042138E-01
2.37223750000E+08	-3.81686630970E-01	-8.91730592060E-01
2.48472500000E+08	-6.94636710969E-01	-6.73613130080E-01
2.59721250000E+08	-8.96667359033E-01	-3.56011165722E-01
2.70970000000E+08	-9.61818002412E-01	9.29197872567E-03
2.82218750000E+08	-8.86268237268E-01	3.66922785475E-01
2.93467500000E+08	-6.86298115186E-01	6.67558846189E-01
3.04716250000E+08	-3.92521147573E-01	8.72038412471E-01
3.15965000000E+08	-4.68484341431E-02	9.55136174900E-01
3.27213750000E+08	3.06212648251E-01	9.06350315142E-01
3.38462500000E+08	6.18600986592E-01	7.31538029068E-01
3.49711250000E+08	8.46700315260E-01	4.51578842371E-01
3.60960000000E+08	9.56114494411E-01	1.02448349585E-01
3.72208750000E+08	9.25122160749E-01	-2.68348478039E-01
3.83457500000E+08	7.52031932474E-01	-6.03596126849E-01
3.94706250000E+08	4.57522060755E-01	-8.48976549853E-01
4.05955000000E+08	8.69936836985E-02	-9.59249741232E-01
4.17203750000E+08	-2.98949619504E-01	-9.13731392184E-01
4.28452500000E+08	-6.34081268063E-01	-7.19112813776E-01
4.39701250000E+08	-8.62999976556E-01	-4.09998204501E-01
4.50950000000E+08	-9.51466784917E-01	-4.12663324664E-02
4.62198750000E+08	-8.91985622098E-01	3.26284916839E-01
4.73447500000E+08	-7.00627018240E-01	6.38405245666E-01
4.84696250000E+08	-4.11897328735E-01	8.52685328362E-01
4.95945000000E+08	-6.97229867578E-02	9.44232844887E-01
5.07193750000E+08	2.78932127852E-01	9.05679932559E-01
5.18442500000E+08	5.88734844490E-01	7.44530451578E-01
5.29691250000E+08	8.19801112760E-01	4.81837427455E-01
5.40940000000E+08	9.40828712683E-01	1.50662418184E-01
5.52188750000E+08	9.31782787333E-01	-2.06264341560E-01
5.63437500000E+08	7.88270566523E-01	-5.39165362364E-01
5.74686250000E+08	5.25479919370E-01	-7.97552530709E-01
5.85935000000E+08	1.78112480573E-01	-9.37402697322E-01
5.97183750000E+08	-2.00707734682E-01	-9.30934720310E-01
6.08432500000E+08	-5.49609255979E-01	-7.74617471757E-01
6.19681250000E+08	-8.08980530791E-01	-4.92006929775E-01
6.30930000000E+08	-9.34798261527E-01	-1.31089443876E-01
6.42178750000E+08	-9.08280010810E-01	2.46417035848E-01
6.53427500000E+08	-7.38710027652E-01	5.80175179579E-01
6.64676250000E+08	-4.57678913436E-01	8.19083312167E-01
6.75925000000E+08	-1.12182513536E-01	9.31244370353E-01
6.87173750000E+08	2.45249633937E-01	9.05952865400E-01
6.98422500000E+08	5.64335544618E-01	7.51789933474E-01
7.09671250000E+08	8.02499232658E-01	4.92791584311E-01
7.20920000000E+08	9.28802135882E-01	1.66193005498E-01
7.32168750000E+08	9.27603174844E-01	-1.83570963176E-01
7.43417500000E+08	7.98187035607E-01	-5.10137469421E-01
7.54666250000E+08	5.57052531680E-01	-7.67510831433E-01
7.65915000000E+08	2.35859347009E-01	-9.19428685417E-01
7.77163750000E+08	-1.22077250923E-01	-9.41204177719E-01
7.88412500000E+08	-4.65239067808E-01	-8.25900687790E-01
7.99661250000E+08	-7.41160061689E-01	-5.87739744894E-01
8.10910000000E+08	-9.06640478164E-01	-2.59870651885E-01
8.22158750000E+08	-9.33798463544E-01	1.08924813895E-01
8.33407500000E+08	-8.15667261944E-01	4.60512257879E-01
8.44656250000E+08	-5.70632429436E-01	7.38707200045E-01
8.55905000000E+08	-2.36869646162E-01	9.00189587730E-01
8.67153750000E+08	1.32139457262E-01	9.19432883443E-01
8.78402500000E+08	4.78250895179E-01	7.95651381428E-01
8.89651250000E+08	7.48442356344E-01	5.50135394279E-01
9.00900000000E+08	9.03701367230E-01	2.22556399715E-01
9.12148750000E+08	9.23366419129E-01	-1.36590567798E-01
9.23397500000E+08	8.07574823373E-01	-4.74269152281E-01
9.34646250000E+08	5.75143439878E-01	-7.43045711549E-01
9.45895000000E+08	2.61235260055E-01	-9.05775216709E-01
9.57143750000E+08	-8.99625797175E-02	-9.40071976739E-01
9.68392500000E+08	-4.28689260200E-01	-8.42482422974E-01
9.79641250000E+08	-7.06983573157E-01	-6.26427109735E-01
9.90890000000E+08	-8.86079778538E-01	-3.21896378523E-01
1.00213875000E+09	-9.39049443866E-01	2.88083182490E-02
1.01338750000E+09	-8.56713337187E-01	3.74918324787E-01
1.02463625000E+09	-6.49792591743E-01	6.66180473598E-01
1.03588500000E+09	-3.47220940237E-01	8.58427442399E-01
1.04713375000E+09	5.98891180793E-03	9.22717025556E-01
1.05838250000E+09	3.57914521842E-01	8.47794022113E-01
1.06963125000E+09	6.55392101448E-01	6.45465220871E-01
1.08088000000E+09	8.53901124830E-01	3.45017947153E-01
1.09212875000E+09	9.23416018430E-01	-8.13128780171E-03
1.10337750000E+09	8.53908646036E-01	-3.61314714897E-01
1.11462625000E+09	6.55347119141E-01	-6.61249633180E-01
1.12587500000E+09	3.56998515333E-01	-8.63841061164E-01
1.13712375000E+09	4.09347705628E-03	-9.37504724786E-01
1.14837250000E+09	-3.51002029810E-01	-8.70689201519E-01
1.15962125000E+09	-6.54492593500E-01	-6.72911366984E-01
1.17087000000E+09	-8.58956249424E-01	-3.73233924469E-01
1.18211875000E+09	-9.33006673130E-01	-1.82600877900E-02
1.19336750000E+09	-8.65571761976E-01	3.37368873482E-01
1.20461625000E+09	-6.67524159026E-01	6.39336461737E-01
1.21586500000E+09	-3.70811864855E-01	8.42045305451E-01
1.22711375000E+09	-2.13334500924E-02	9.16490821702E-01
1.23836250000E+09	3.27894148631E-01	8.53835251307E-01
1.24961125000E+09	6.27088777516E-01	6.65013678247E-01
1.26086000000E+09	8.32704772136E-01	3.79391197878E-01
1.27210875000E+09	9.16053686027E-01	3.84821194104E-02
1.28335750000E+09	8.66165719398E-01	-3.10398785946E-01
1.29460625000E+09	6.87904463855E-01	-6.15724954671E-01
1.30585500000E+09	4.05343778917E-01	-8.33169472079E-01
1.31710375000E+09	5.81775263959E-02	-9.26831034367E-01
1.32835250000E+09	-3.01650805772E-01	-8.79310408733E-01
1.33960125000E+09	-6.17720790418E-01	-6.94308483746E-01
1.35085000000E+09	-8.36950545990E-01	-3.99807588739E-01
1.36209875000E+09	-9.23432550849E-01	-4.26706893253E-02
1.37334750000E+09	-8.64264803490E-01	3.18099793349E-01
1.38459625000E+09	-6.71538178745E-01	6.24676506662E-01
1.39584500000E+09	-3.79026663528E-01	8.31407869169E-01
1.40709375000E+09	-3.47931156352E-02	9.10032888689E-01
1.41834250000E+09	3.08520940374E-01	8.55377325900E-01
1.42959125000E+09	6.04222563517E-01	6.79163996147E-01
1.44084000000E+09	8.12903239363E-01	4.09295941718E-01
1.45208875000E+09	9.07841462782E-01	8.25401470412E-02
1.46333750000E+09	8.76680433323E-01	-2.57378000027E-01
1.47458625000E+09	7.21337587230E-01	-5.64421900085E-01
1.48583500000E+09	4.59223607474E-01	-7.94589075682E-01
1.49708375000E+09	1.25046945702E-01	-9.10184202638E-01
1.50833250000E+09	-2.33572030475E-01	-8.88584223464E-01
1.51958125000E+09	-5.59940310945E-01	-7.27809357591E-01
1.53083000000E+09	-7.99303355610E-01	-4.48470242298E-01
1.54207875000E+09	-9.09101453347E-01	-9.58812919305E-02
1.55332750000E+09	-8.70265861105E-01	2.70744440861E-01
1.56457625000E+09	-6.91576230795E-01	5.90387352593E-01
1.57582500000E+09	-4.04762938936E-01	8.11744951770E-01
1.58707375000E+09	-5.87155189696E-02	9.04204431202E-01
1.59832250000E+09	2.91472007672E-01	8.57498158705E-01
1.60957125000E+09	5.94266668413E-01	6.83809019651E-01
1.62082000000E+09	8.07866610166E-01	4.11627194098E-01
1.63206875000E+09	9.04072871771E-01	8.20130062596E-02
1.64331750000E+09	8.71431390018E-01	-2.58435632782E-01
1.65456625000E+09	7.15201691050E-01	-5.62430347555E-01
1.66581500000E+09	4.57377874856E-01	-7.87458437331E-01
1.67706375000E+09	1.33416919725E-01	-9.01656212071E-01
1.68831250000E+09	-2.11024799829E-01	-8.87109259467E-01
1.69956125000E+09	-5.26877448242E-01	-7.44660703281E-01
1.71081000000E+09	-7.67252025711E-01	-4.93423816405E-01
1.72205875000E+09	-8.96490878259E-01	-1.68528178565E-01
1.73330750000E+09	-8.93479574424E-01	1.82374795263E-01
1.74455625000E+09	-7.56940374115E-01	5.07714916206E-01
1.75580500000E+09	-5.05703258248E-01	7.57447429982E-01
1.76705375000E+09	-1.76979982988E-01	8.92305055763E-01
1.77830250000E+09	1.77505726325E-01	8.90235411888E-01
1.78955125000E+09	5.04771569995E-01	7.51954953220E-01
1.80080000000E+09	7.53169282063E-01	4.99056260238E-01
1.81204875000E+09	8.84684595374E-01	1.71569775322E-01
1.82329750000E+09	8.81238771893E-01	-1.79312069224E-01
1.83454625000E+09	7.46140530721E-01	-5.00486043284E-01
1.84579500000E+09	5.01674650254E-01	-7.45138209351E-01
1.85704375000E+09	1.85536094383E-01	-8.79854182900E-01
1.86829250000E+09	-1.56196031175E-01	-8.87194203892E-01
1.87954125000E+09	-4.75606783635E-01	-7.68254992127E-01
1.89079000000E+09	-7.28029048150E-01	-5.39912194571E-01
1.90203875000E+09	-8.78718649284E-01	-2.34006777160E-01
1.91328750000E+09	-9.04464271916E-01	1.08110619163E-01
1.92453625000E+09	-7.99800371276E-01	4.37396323328E-01
1.93578500000E+09	-5.76552807038E-01	7.04975938449E-01
1.94703375000E+09	-2.66074081294E-01	8.68441087979E-01
1.95828250000E+09	8.49075493611E-02	9.00676858799E-01
1.96953125000E+09	4.22314683533E-01	7.94867228225E-01
1.98078000000E+09	6.92646982634E-01	5.66965234857E-01
1.99202875000E+09	8.53920062111E-01	2.54221048788E-01
2.00327750000E+09	8.83290381002E-01	-9.51047934287E-02
2.01452625000E+09	7.78006826608E-01	-4.26712076090E-01
2.02577500000E+09	5.57082769075E-01	-6.91734743706E-01
2.03702375000E+09	2.55040058027E-01	-8.53692500290E-01
2.04827250000E+09	-8.41230326979E-02	-8.90496192192E-01
2.05952125000E+09	-4.12443159797E-01	-7.98334219033E-01
2.07077000000E+09	-6.83287560789E-01	-5.90525689833E-01
2.08201875000E+09	-8.56672899073E-01	-2.95090083862E-01
2.09326750000E+09	-9.06600160887E-01	4.43603264589E-02
2.10451625000E+09	-8.24938506856E-01	3.78896998545E-01
2.11576500000E+09	-6.21895071714E-01	6.58933389529E-01
2.12701375000E+09	-3.26379028482E-01	8.41508851440E-01
2.13826250000E+09	1.61608467900E-02	8.98667611847E-01
2.14951125000E+09	3.54765913831E-01	8.21378464903E-01
2.16076000000E+09	6.37450774090E-01	6.22349336343E-01
2.17200875000E+09	8.23465383053E-01	3.32655746400E-01
2.18325750000E+09	8.86662963924E-01	-4.27841243446E-03
2.19450625000E+09	8.19398444471E-01	-3.38482290481E-01
2.20575500000E+09	6.33039116424E-01	-6.22459128287E-01
2.21700375000E+09	3.54055964541E-01	-8.16312597802E-01
2.22825250000E+09	2.26531561532E-02	-8.91714326052E-01
2.23950125000E+09	-3.14616114034E-01	-8.37293908321E-01
2.25075000000E+09	-6.08365679796E-01	-6.57572219070E-01
2.26199875000E+09	-8.12961632228E-01	-3.77599502861E-01
2.27324750000E+09	-8.95008266456E-01	-3.82188634912E-02
2.28449625000E+09	-8.40087008439E-01	3.08704769002E-01
2.29574500000E+09	-6.53285765742E-01	6.08752953986E-01
2.30699375000E+09	-3.64160878698E-01	8.12612472757E-01
2.31824250000E+09	-1.88014347202E-02	8.88669673363E-01
2.32949125000E+09	3.27364090383E-01	8.24541714548E-01
2.34074000000E+09	6.18718817583E-01	6.34474183983E-01
2.35198875000E+09	8.13703147983E-01	3.50579239727E-01
2.36323750000E+09	8.85922872197E-01	1.72986963722E-02
2.37448625000E+09	8.28722414022E-01	-3.15139898276E-01
2.38573500000E+09	6.53565238058E-01	-6.00547100376E-01
2.39698375000E+09	3.85801424873E-01	-7.99795294952E-01
2.40823250000E+09	6.36977046566E-02	-8.85404288875E-01
2.41948125000E+09	-2.69142840577E-01	-8.45954281914E-01
2.43073000000E+09	-5.65040456287E-01	-6.83285775050E-01
2.44197875000E+09	-7.80211781851E-01	-4.18772140849E-01
2.45322750000E+09	-8.79911628250E-01	-8.88576901885E-02
2.46447625000E+09	-8.44481414945E-01	2.58190660850E-01
2.47572500000E+09	-6.75843244314E-01	5.66972475371E-01
2.48697375000E+09	-3.98905530469E-01	7.86737645221E-01
2.49822250000E+09	-5.70748878699E-02	8.80442040210E-01
2.50947125000E+09	2.92288149178E-01	8.32841045570E-01
2.52072000000E+09	5.92943789646E-01	6.55195413044E-01
2.53196875000E+09	7.99642817864E-01	3.78579686203E-01
2.54321750000E+09	8.84175724668E-01	4.83792320794E-02
2.55446625000E+09	8.38710722365E-01	-2.85266035421E-01
2.56571500000E+09	6.73339190295E-01	-5.75035465413E-01
2.57696375000E+09	4.14350950902E-01	-7.81308123710E-01
2.58821250000E+09	9.93869889630E-02	-8.77319043761E-01
2.59946125000E+09	-2.29034316068E-01	-8.51059168470E-01
2.61071000000E+09	-5.25858424464E-01	-7.04728315241E-01
2.62195875000E+09	-7.49225913478E-01	-4.57595760226E-01
2.63320750000E+09	-8.64881852830E-01	-1.41001254906E-01
2.64445625000E+09	-8.52009670964E-01	1.99751838035E-01
2.65570500000E+09	-7.07718542364E-01	5.14291148155E-01
2.66695375000E+09	-4.49858989117E-01	7.50697488737E-01
2.67820250000E+09	-1.18202405264E-01	8.68106088205E-01
2.68945125000E+09	2.34967321797E-01	8.44899140455E-01
2.70070000000E+09	5.50312103782E-01	6.84680128268E-01
2.71194875000E+09	7.75974010448E-01	4.13836308466E-01
2.72319750000E+09	8.76434311926E-01	7.90092281478E-02
2.73444625000E+09	8.39388717723E-01	-2.64457527245E-01
2.74569500000E+09	6.75056970072E-01	-5.63289889367E-01
2.75694375000E+09	4.14135104112E-01	-7.74569447468E-01
2.76819250000E+09	9.68385688721E-02	-8.72005949331E-01
2.77944125000E+09	-2.29999814213E-01	-8.45121582365E-01
2.79069000000E+09	-5.21725299419E-01	-7.02284658685E-01
2.80193875000E+09	-7.40949360104E-01	-4.63316400903E-01
2.81318750000E+09	-8.58568985587E-01	-1.61487201573E-01
2.82443625000E+09	-8.58369212927E-01	1.64342496402E-01
2.83568500000E+09	-7.38003491252E-01	4.70219489083E-01
2.84693375000E+09	-5.09412143483E-01	7.12293585798E-01
2.85818250000E+09	-2.02441091636E-01	8.53309513395E-01
2.86943125000E+09	1.40253539097E-01	8.66547019598E-01
2.88068000000E+09	4.65231479341E-01	7.44962147337E-01
2.89192875000E+09	7.18881964618E-01	5.04085277158E-01
2.90317750000E+09	8.58375147588E-01	1.81377531960E-01
2.91442625000E+09	8.59711556226E-01	-1.69318700874E-01
2.92567500000E+09	7.24053521224E-01	-4.90370031704E-01
2.93692375000E+09	4.77282938344E-01	-7.30707553487E-01
2.94817250000E+09	1.61575055894E-01	-8.56346401624E-01
2.95942125000E+09	-1.73367460589E-01	-8.53416838985E-01
2.97067000000E+09	-4.79283172252E-01	-7.26806408688E-01
2.98191875000E+09	-7.14093712461E-01	-4.98603091094E-01
2.99316750000E+09	-8.48207580495E-01	-2.01921820159E-01
3.00441625000E+09	-8.64511428498E-01	1.23070674739E-01
3.01566500000E+09	-7.60845536387E-01	4.31556091896E-01
3.02691375000E+09	-5.49411850994E-01	6.82121258122E-01
3.03816250000E+09	-2.57372514054E-01	8.38086265068E-01
3.04941125000E+09	7.48582644086E-02	8.73637821728E-01
3.06066000000E+09	3.98781901916E-01	7.80529167906E-01
3.07190875000E+09	6.65140015518E-01	5.69348761308E-01
3.08315750000E+09	8.30826250123E-01	2.70187059498E-01
3.09440625000E+09	8.69032560304E-01	-6.93469066008E-02
3.10565500000E+09	7.73719288261E-01	-3.97499466628E-01
3.11690375000E+09	5.59687116958E-01	-6.63710042351E-01
3.12815250000E+09	2.61591908525E-01	-8.26744020687E-01
3.13940125000E+09	-7.21116855086E-02	-8.63610447658E-01
3.15065000000E+09	-3.92262042965E-01	-7.72431183553E-01
3.16189875000E+09	-6.53218776027E-01	-5.69249245383E-01
3.17314750000E+09	-8.18702329301E-01	-2.84542486825E-01
3.18439625000E+09	-8.66043217374E-01	4.09417325390E-02
3.19564500000E+09	-7.89409608574E-01	3.60019026285E-01
3.20689375000E+09	-5.99092416279E-01	6.27478354402E-01
3.21814250000E+09	-3.22461429733E-01	8.05487168377E-01
3.22939125000E+09	1.34008135601E-03	8.67659648105E-01
3.24064000000E+09	3.25682226882E-01	8.03788319715E-01
3.25188875000E+09	6.04126925430E-01	6.22140863965E-01
3.26313750000E+09	7.94829087851E-01	3.48590620238E-01
3.27438625000E+09	8.67085142609E-01	2.15317085257E-02
3.28563500000E+09	8.10204827673E-01	-3.09783137096E-01
3.29688375000E+09	6.31590958653E-01	-5.95395522871E-01
3.30813250000E+09	3.55899161699E-01	-7.91181138796E-01
3.31938125000E+09	2.64225030857E-02	-8.66751720152E-01
3.33063000000E+09	-3.06701571910E-01	-8.10312957117E-01
3.34187875000E+09	-5.92586235339E-01	-6.30026231746E-01
3.35312750000E+09	-7.86525368927E-01	-3.56054805058E-01
3.36437625000E+09	-8.61615141567E-01	-2.96892981735E-02
3.37562500000E+09	-8.06588210045E-01	2.99654589040E-01
3.38687375000E+09	-6.33093164019E-01	5.82172338906E-01
3.39812250000E+09	-3.67769995130E-01	7.77501911155E-01
3.40937125000E+09	-4.94877712638E-02	8.59629348636E-01
3.42062000000E+09	2.75677812367E-01	8.17150219385E-01
3.43186875000E+09	5.62500802736E-01	6.56534906940E-01
3.44311750000E+09	7.68701887091E-01	4.00745726428E-01
3.45436625000E+09	8.64223003963E-01	8.57856460076E-02
3.46561500000E+09	8.34931234894E-01	-2.42826753348E-01
3.47686375000E+09	6.83784189937E-01	-5.38299678296E-01
3.48811250000E+09	4.30825848595E-01	-7.55403054122E-01
3.49936125000E+09	1.13401865857E-01	-8.60205690318E-01
3.51061000000E+09	-2.20492820597E-01	-8.36161021869E-01
3.52185875000E+09	-5.19794240675E-01	-6.87214167776E-01
3.53310750000E+09	-7.39559316437E-01	-4.34889856867E-01
3.54435625000E+09	-8.46395219312E-01	-1.18180192452E-01
3.55560500000E+09	-8.24233525527E-01	2.15590955042E-01
3.56685375000E+09	-6.76378229854E-01	5.15993539856E-01
3.57810250000E+09	-4.25000259192E-01	7.36796768080E-01
3.58935125000E+09	-1.07509577266E-01	8.44653293951E-01
3.60060000000E+09	2.27148265098E-01	8.22666874929E-01
3.61184875000E+09	5.28121376629E-01	6.73969688148E-01
3.62309750000E+09	7.48662339664E-01	4.21773837316E-01
3.63434625000E+09	8.55265845034E-01	1.05079122402E-01
3.64559500000E+09	8.33247491393E-01	-2.27449429159E-01
3.65684375000E+09	6.87297201998E-01	-5.24916269032E-01
3.66809250000E+09	4.41097555145E-01	-7.43858475021E-01
3.67934125000E+09	1.32604405332E-01	-8.53840850435E-01
3.69059000000E+09	-1.93751901457E-01	-8.40183919798E-01
3.70183875000E+09	-4.90951019854E-01	-7.05581815950E-01
3.71308750000E+09	-7.16345203283E-01	-4.69709147506E-01
3.72433625000E+09	-8.37463098266E-01	-1.65513100085E-01
3.73558500000E+09	-8.35440880545E-01	1.63366173958E-01
3.74683375000E+09	-7.08012974832E-01	4.68642807972E-01
3.75808250000E+09	-4.71426960351E-01	7.04814940365E-01
3.76933125000E+09	-1.60000595516E-01	8.32698523062E-01
3.78058000000E+09	1.78480031726E-01	8.29887640297E-01
3.79182875000E+09	4.90216279747E-01	6.94866567279E-01
3.80307750000E+09	7.24636665456E-01	4.49456295339E-01
3.81432625000E+09	8.44984379881E-01	1.34028647597E-01
3.82557500000E+09	8.34136726356E-01	-2.00547940236E-01
3.83682375000E+09	6.98736746776E-01	-5.02230265783E-01
3.84807250000E+09	4.61998065629E-01	-7.28101202846E-01
3.85932125000E+09	1.61910226473E-01	-8.47307993734E-01
3.87057000000E+09	-1.58128583193E-01	-8.48467032466E-01
3.88181875000E+09	-4.54318211999E-01	-7.32488571350E-01
3.89306750000E+09	-6.87388757853E-01	-5.17138871138E-01
3.90431625000E+09	-8.26255541970E-01	-2.30602400693E-01
3.91556500000E+09	-8.50251076456E-01	8.94248101436E-02
3.92681375000E+09	-7.52552234079E-01	3.99465146760E-01
3.93806250000E+09	-5.42564106034E-01	6.53005418100E-01
3.94931125000E+09	-2.47102817360E-01	8.09466638204E-01
3.96056000000E+09	8.99293893151E-02	8.39907443491E-01
3.97180875000E+09	4.14750720503E-01	7.35527205830E-01
