# Hz S RI R 50
! CMT, SC5090, 20109241, 21.3.2/2
! Date: 11/4/2021 12:45:18 PM
! Data: Format (Calibration Info)
! Freq	S11:Re/Im(--)
1.00000000000E+06	-9.84490633909E-01	2.74576025313E-02
1.22487500000E+07	-8.96842290792E-01	4.14790262227E-01
2.34975000000E+07	-6.65720704875E-01	7.19474098064E-01
3.47462500000E+07	-3.41030492753E-01	9.14487965085E-01
4.59950000000E+07	3.26876276595E-02	9.73616341716E-01
5.72437500000E+07	4.02178393085E-01	8.86652437290E-01
6.84925000000E+07	7.12179503780E-01	6.64445605387E-01
7.97412500000E+07	9.14213249310E-01	3.39124315257E-01
9.09900000000E+07	9.76055530168E-01	-4.08507679605E-02
1.02238750000E+08	8.85244081550E-01	-4.15617571906E-01
1.13487500000E+08	6.56640979777E-01	-7.25839248274E-01
1.24736250000E+08	3.27314166649E-01	-9.22347259513E-01
1.35985000000E+08	-5.00828218269E-02	-9.76501531047E-01
1.47233750000E+08	-4.15753455964E-01	-8.82952351943E-01
1.58482500000E+08	-7.15417340345E-01	-6.60345631370E-01
1.69731250000E+08	-9.07604859882E-01	-3.45201834833E-01
1.80980000000E+08	-9.67729250721E-01	1.49427428887E-02
1.92228750000E+08	-8.92014385809E-01	3.68786477266E-01
2.03477500000E+08	-6.93428646232E-01	6.68687641379E-01
2.14726250000E+08	-3.99611457648E-01	8.74567190087E-01
2.25975000000E+08	-5.07251464643E-02	9.59733082710E-01
2.37223750000E+08	3.06981127807E-01	9.10846144584E-01
2.48472500000E+08	6.24080358831E-01	7.32145487398E-01
2.59721250000E+08	8.54107487723E-01	4.44623346370E-01
2.70970000000E+08	9.60501096423E-01	8.70291716781E-02
2.82218750000E+08	9.21372487184E-01	-2.88752969073E-01
2.93467500000E+08	7.37624433524E-01	-6.24103135948E-01
3.04716250000E+08	4.34765671069E-01	-8.62811669521E-01
3.15965000000E+08	6.07273594053E-02	-9.63066765818E-01
3.27213750000E+08	-3.21977931644E-01	-9.07332444737E-01
3.38462500000E+08	-6.49555221393E-01	-7.07128715125E-01
3.49711250000E+08	-8.70302231595E-01	-3.98072712190E-01
3.60960000000E+08	-9.53126853649E-01	-3.37478481946E-02
3.72208750000E+08	-8.92253416636E-01	3.28787487410E-01
3.83457500000E+08	-7.03447764663E-01	6.36886502447E-01
3.94706250000E+08	-4.18170257619E-01	8.50635663701E-01
4.05955000000E+08	-7.84621881358E-02	9.44140886267E-01
4.17203750000E+08	2.70400738449E-01	9.08618717658E-01
4.28452500000E+08	5.82359476019E-01	7.49287674345E-01
4.39701250000E+08	8.17117880840E-01	4.86433053158E-01
4.50950000000E+08	9.40530714385E-01	1.52036057192E-01
4.62198750000E+08	9.30982187241E-01	-2.09332832946E-01
4.73447500000E+08	7.83320586530E-01	-5.46713490074E-01
4.84696250000E+08	5.13047399834E-01	-8.05588818685E-01
4.95945000000E+08	1.58214596483E-01	-9.40986494147E-01
5.07193750000E+08	-2.25013184740E-01	-9.25181723637E-01
5.18442500000E+08	-5.71937520871E-01	-7.57830204412E-01
5.29691250000E+08	-8.23177730451E-01	-4.67328075376E-01
5.40940000000E+08	-9.37595589310E-01	-1.04619899761E-01
5.52188750000E+08	-9.01824016243E-01	2.68848006330E-01
5.63437500000E+08	-7.27429182932E-01	5.94075831916E-01
5.74686250000E+08	-4.48004384588E-01	8.24477566806E-01
5.85935000000E+08	-1.08287627934E-01	9.32121242359E-01
5.97183750000E+08	2.42670783051E-01	9.07597857794E-01
6.08432500000E+08	5.57444732482E-01	7.57914955186E-01
6.19681250000E+08	7.96052631877E-01	5.04901505442E-01
6.30930000000E+08	9.26739898892E-01	1.82238658010E-01
6.42178750000E+08	9.30884923232E-01	-1.68044836699E-01
6.53427500000E+08	8.04724145987E-01	-4.98705718135E-01
6.64676250000E+08	5.62158820353E-01	-7.62484173177E-01
6.75925000000E+08	2.33475652420E-01	-9.17480705691E-01
6.87173750000E+08	-1.34249471641E-01	-9.35756478523E-01
6.98422500000E+08	-4.84345860161E-01	-8.09477490725E-01
7.09671250000E+08	-7.59417981955E-01	-5.54561705836E-01
7.20920000000E+08	-9.13339065182E-01	-2.10786734383E-01
7.32168750000E+08	-9.19187570297E-01	1.65818127446E-01
7.43417500000E+08	-7.77163290223E-01	5.13416027212E-01
7.54666250000E+08	-5.11920820103E-01	7.75441347977E-01
7.65915000000E+08	-1.68854896250E-01	9.12415395524E-01
7.77163750000E+08	1.96943778961E-01	9.06179557955E-01
7.88412500000E+08	5.29330520133E-01	7.61859425131E-01
7.99661250000E+08	7.79747832988E-01	5.05158327505E-01
8.10910000000E+08	9.14036668206E-01	1.75704331582E-01
8.22158750000E+08	9.15971527553E-01	-1.78484042592E-01
8.33407500000E+08	7.86742563606E-01	-5.06111336142E-01
8.44656250000E+08	5.45482074230E-01	-7.62434835293E-01
8.55905000000E+08	2.26667390806E-01	-9.11400551710E-01
8.67153750000E+08	-1.25406152676E-01	-9.31809690545E-01
8.78402500000E+08	-4.60980368101E-01	-8.18979519177E-01
8.89651250000E+08	-7.31840635070E-01	-5.87487945539E-01
9.00900000000E+08	-8.96215844344E-01	-2.69072810683E-01
9.12148750000E+08	-9.28197598188E-01	9.02663418989E-02
9.23397500000E+08	-8.19554261469E-01	4.36253643455E-01
9.34646250000E+08	-5.84710135150E-01	7.15644772957E-01
9.45895000000E+08	-2.59199636486E-01	8.83000550340E-01
9.57143750000E+08	1.06665668026E-01	9.11000334716E-01
9.68392500000E+08	4.54243996829E-01	7.95249034016E-01
9.79641250000E+08	7.29291421304E-01	5.54034553916E-01
9.90890000000E+08	8.89255303762E-01	2.26322132402E-01
1.00213875000E+09	9.10466543987E-01	-1.36131584458E-01
1.01338750000E+09	7.91570918110E-01	-4.77248087464E-01
1.02463625000E+09	5.52526311017E-01	-7.45922240652E-01
1.03588500000E+09	2.30191197263E-01	-9.02722886165E-01
1.04713375000E+09	-1.25899606388E-01	-9.25681839235E-01
1.05838250000E+09	-4.63814464245E-01	-8.12119351944E-01
1.06963125000E+09	-7.33143190934E-01	-5.79701043759E-01
1.08088000000E+09	-8.94468379696E-01	-2.63035051009E-01
1.09212875000E+09	-9.24148033177E-01	9.13777632067E-02
1.10337750000E+09	-8.18072225750E-01	4.30073271425E-01
1.11462625000E+09	-5.92015469951E-01	7.03656553212E-01
1.12587500000E+09	-2.79795967245E-01	8.71489906927E-01
1.13712375000E+09	7.10741250405E-02	9.09327582773E-01
1.14837250000E+09	4.10169750023E-01	8.12700918990E-01
1.15962125000E+09	6.87457367818E-01	5.96630285836E-01
1.17087000000E+09	8.63427767232E-01	2.92923022674E-01
1.18211875000E+09	9.12879597282E-01	-5.45927362207E-02
1.19336750000E+09	8.28557191540E-01	-3.95409211836E-01
1.20461625000E+09	6.21947180929E-01	-6.80418088774E-01
1.21586500000E+09	3.22284679389E-01	-8.67372517672E-01
1.22711375000E+09	-2.74878438559E-02	-9.27271035743E-01
1.23836250000E+09	-3.75585768036E-01	-8.49414422185E-01
1.24961125000E+09	-6.69163896202E-01	-6.43411028638E-01
1.26086000000E+09	-8.61483810736E-01	-3.40110612906E-01
1.27210875000E+09	-9.23042647980E-01	1.36955182742E-02
1.28335750000E+09	-8.44232564366E-01	3.63213079031E-01
1.29460625000E+09	-6.39533078406E-01	6.54120723155E-01
1.30585500000E+09	-3.42519737706E-01	8.44671647405E-01
1.31710375000E+09	1.21186676971E-03	9.08891819829E-01
1.32835250000E+09	3.40777336168E-01	8.40883221375E-01
1.33960125000E+09	6.28785160047E-01	6.53742321672E-01
1.35085000000E+09	8.27044221506E-01	3.75030053378E-01
1.36209875000E+09	9.09243035245E-01	4.38415233418E-02
1.37334750000E+09	8.63853383833E-01	-2.95593935844E-01
1.38459625000E+09	6.94718081522E-01	-5.96895621607E-01
1.39584500000E+09	4.22349063400E-01	-8.15735677994E-01
1.40709375000E+09	8.29967423940E-02	-9.16871291048E-01
1.41834250000E+09	-2.73936425309E-01	-8.79740645891E-01
1.42959125000E+09	-5.92284790680E-01	-7.05353928342E-01
1.44084000000E+09	-8.18716622958E-01	-4.18346040166E-01
1.45208875000E+09	-9.14681627984E-01	-6.49721969761E-02
1.46333750000E+09	-8.64804378213E-01	2.95927601025E-01
1.47458625000E+09	-6.80367865723E-01	6.06078927374E-01
1.48583500000E+09	-3.94471308754E-01	8.18434216425E-01
1.49708375000E+09	-5.49923955160E-02	9.05301338852E-01
1.50833250000E+09	2.86776337477E-01	8.59550422103E-01
1.51958125000E+09	5.83896394305E-01	6.93525976065E-01
1.53083000000E+09	7.97976286468E-01	4.32310368788E-01
1.54207875000E+09	9.02182372977E-01	1.12978601296E-01
1.55332750000E+09	8.83119178355E-01	-2.22326275585E-01
1.56457625000E+09	7.43056610672E-01	-5.29072900846E-01
1.57582500000E+09	4.98594516620E-01	-7.65201039596E-01
1.58707375000E+09	1.80696034733E-01	-8.95737387633E-01
1.59832250000E+09	-1.67207740298E-01	-8.98382503343E-01
1.60957125000E+09	-4.94011671191E-01	-7.67998603549E-01
1.62082000000E+09	-7.48779687497E-01	-5.20398848263E-01
1.63206875000E+09	-8.89625997827E-01	-1.91615334959E-01
1.64331750000E+09	-8.92711064041E-01	1.67196374833E-01
1.65456625000E+09	-7.56318268003E-01	4.99364833676E-01
1.66581500000E+09	-5.01967042069E-01	7.52472887091E-01
1.67706375000E+09	-1.70496849116E-01	8.87031592983E-01
1.68831250000E+09	1.85356196819E-01	8.82971150976E-01
1.69956125000E+09	5.10296813997E-01	7.42913021139E-01
1.71081000000E+09	7.55083099282E-01	4.90063965434E-01
1.72205875000E+09	8.84379380666E-01	1.64698764560E-01
1.73330750000E+09	8.80055109548E-01	-1.83513544807E-01
1.74455625000E+09	7.45023189511E-01	-5.02653010837E-01
1.75580500000E+09	5.00466322703E-01	-7.47097298498E-01
1.76705375000E+09	1.82941118184E-01	-8.80687683324E-01
1.77830250000E+09	-1.58951590263E-01	-8.86476621731E-01
1.78955125000E+09	-4.79356095871E-01	-7.64064845119E-01
1.80080000000E+09	-7.31122966205E-01	-5.30755613376E-01
1.81204875000E+09	-8.78034360747E-01	-2.19752146441E-01
1.82329750000E+09	-8.97516041834E-01	1.25370936584E-01
1.83454625000E+09	-7.84706987963E-01	4.54476390260E-01
1.84579500000E+09	-5.53677650892E-01	7.17629949872E-01
1.85704375000E+09	-2.36836378879E-01	8.73357496855E-01
1.86829250000E+09	1.16972865079E-01	8.94900844518E-01
1.87954125000E+09	4.52293466422E-01	7.77049092139E-01
1.89079000000E+09	7.15403210989E-01	5.38206572642E-01
1.90203875000E+09	8.64923949401E-01	2.17030577045E-01
1.91328750000E+09	8.79431739638E-01	-1.33933760574E-01
1.92453625000E+09	7.58897691521E-01	-4.62040531757E-01
1.93578500000E+09	5.24779610985E-01	-7.17467658633E-01
1.94703375000E+09	2.14772330412E-01	-8.64697600977E-01
1.95828250000E+09	-1.26436666197E-01	-8.85294062082E-01
1.96953125000E+09	-4.49564078909E-01	-7.77639688562E-01
1.98078000000E+09	-7.09046879577E-01	-5.57798857458E-01
1.99202875000E+09	-8.68952013983E-01	-2.56318075426E-01
2.00327750000E+09	-9.03981880971E-01	8.51252141793E-02
2.01452625000E+09	-8.07198873201E-01	4.16523405913E-01
2.02577500000E+09	-5.90792865993E-01	6.88530588140E-01
2.03702375000E+09	-2.85048413601E-01	8.57719172547E-01
2.04827250000E+09	6.33138344042E-02	8.97348869014E-01
2.05952125000E+09	4.01169820172E-01	7.99369256080E-01
2.07077000000E+09	6.75560942516E-01	5.78537701826E-01
2.08201875000E+09	8.43189152055E-01	2.70880504306E-01
2.09326750000E+09	8.80381514785E-01	-7.50335994600E-02
2.10451625000E+09	7.83556813516E-01	-4.07099658946E-01
2.11576500000E+09	5.69888647631E-01	-6.76405909172E-01
2.12701375000E+09	2.70227440189E-01	-8.45174624044E-01
2.13826250000E+09	-7.01108787570E-02	-8.88147971645E-01
2.14951125000E+09	-4.01458405860E-01	-7.99311304462E-01
2.16076000000E+09	-6.75722697919E-01	-5.91278188592E-01
2.17200875000E+09	-8.51039428958E-01	-2.92798128047E-01
2.18325750000E+09	-8.98935057050E-01	5.12991207314E-02
2.19450625000E+09	-8.11092906545E-01	3.89219585684E-01
2.20575500000E+09	-6.00267180892E-01	6.67606775162E-01
2.21700375000E+09	-2.98643438016E-01	8.43702391084E-01
2.22825250000E+09	4.65568494150E-02	8.91049917287E-01
2.23950125000E+09	3.81981113007E-01	8.03223029972E-01
2.25075000000E+09	6.57203866144E-01	5.96535940364E-01
2.26199875000E+09	8.32501570582E-01	3.04096506612E-01
2.27324750000E+09	8.85873559736E-01	-2.97011752529E-02
2.28449625000E+09	8.12168499954E-01	-3.56609978324E-01
2.29574500000E+09	6.23951162863E-01	-6.32260152200E-01
2.30699375000E+09	3.47901722633E-01	-8.19385343983E-01
2.31824250000E+09	2.17285053335E-02	-8.91109443512E-01
2.32949125000E+09	-3.10328413335E-01	-8.36915498551E-01
2.34074000000E+09	-5.99744710101E-01	-6.61229852647E-01
2.35198875000E+09	-8.03960849999E-01	-3.86914756636E-01
2.36323750000E+09	-8.90007390587E-01	-5.25395447068E-02
2.37448625000E+09	-8.40870804260E-01	2.92887911297E-01
2.38573500000E+09	-6.61606380573E-01	5.94370448694E-01
2.39698375000E+09	-3.78006207308E-01	8.03709590705E-01
2.40823250000E+09	-3.61820139571E-02	8.87090752637E-01
2.41948125000E+09	3.09518473081E-01	8.31792274291E-01
2.43073000000E+09	6.04880581588E-01	6.49783959668E-01
2.44197875000E+09	8.06749640397E-01	3.72203081025E-01
2.45322750000E+09	8.88000098743E-01	4.29480090455E-02
2.46447625000E+09	8.41334742988E-01	-2.88927708760E-01
2.47572500000E+09	6.76870929552E-01	-5.77826248981E-01
2.48697375000E+09	4.18957211584E-01	-7.84793937477E-01
2.49822250000E+09	1.03709169215E-01	-8.82927545721E-01
2.50947125000E+09	-2.27071784279E-01	-8.58157408239E-01
2.52072000000E+09	-5.26855750567E-01	-7.12602658843E-01
2.53196875000E+09	-7.53420933724E-01	-4.64241745408E-01
2.54321750000E+09	-8.71717486743E-01	-1.45569918423E-01
2.55446625000E+09	-8.60037193284E-01	1.99282069694E-01
2.56571500000E+09	-7.15485568319E-01	5.16589509749E-01
2.57696375000E+09	-4.56689122838E-01	7.55279844284E-01
2.58821250000E+09	-1.24400393977E-01	8.74448801142E-01
2.59946125000E+09	2.27274705138E-01	8.54631029755E-01
2.61071000000E+09	5.42589418049E-01	7.00103982478E-01
2.62195875000E+09	7.71215028488E-01	4.38017886230E-01
2.63320750000E+09	8.80829054183E-01	1.12541484041E-01
2.64445625000E+09	8.58830231127E-01	-2.26507565899E-01
2.65570500000E+09	7.13135332255E-01	-5.28729595356E-01
2.66695375000E+09	4.68664346360E-01	-7.52698985817E-01
2.67820250000E+09	1.61771099402E-01	-8.70705633368E-01
2.68945125000E+09	-1.64893458314E-01	-8.68350932347E-01
2.70070000000E+09	-4.67652295288E-01	-7.48422029425E-01
2.71194875000E+09	-7.06987613278E-01	-5.25817300705E-01
2.72319750000E+09	-8.49099415304E-01	-2.29427710846E-01
2.73444625000E+09	-8.73577338123E-01	1.01039927955E-01
2.74569500000E+09	-7.72153288799E-01	4.20518935826E-01
2.75694375000E+09	-5.55022233613E-01	6.82016686499E-01
2.76819250000E+09	-2.50561628317E-01	8.43631932256E-01
2.77944125000E+09	9.69488825902E-02	8.76113185628E-01
2.79069000000E+09	4.32876726651E-01	7.68968373309E-01
2.80193875000E+09	7.00487063793E-01	5.37124675697E-01
2.81318750000E+09	8.55571482395E-01	2.18289849330E-01
2.82443625000E+09	8.71854578751E-01	-1.34445884988E-01
2.83568500000E+09	7.50141057807E-01	-4.62050381875E-01
2.84693375000E+09	5.13797825944E-01	-7.13732179959E-01
2.85818250000E+09	2.03847316923E-01	-8.54079844730E-01
2.86943125000E+09	-1.30832656635E-01	-8.66901897520E-01
2.88068000000E+09	-4.42524488196E-01	-7.56090269586E-01
2.89192875000E+09	-6.88700369254E-01	-5.39951946661E-01
2.90317750000E+09	-8.39170174732E-01	-2.51012486261E-01
2.91442625000E+09	-8.73681427425E-01	7.29662246077E-02
2.92567500000E+09	-7.86931453980E-01	3.89003315683E-01
2.93692375000E+09	-5.88583971782E-01	6.53070558912E-01
2.94817250000E+09	-3.02580208651E-01	8.27027584695E-01
2.95942125000E+09	3.28323507924E-02	8.81115320865E-01
2.97067000000E+09	3.67196797990E-01	8.01660299845E-01
2.98191875000E+09	6.48239938344E-01	5.96664959899E-01
2.99316750000E+09	8.28339702953E-01	2.96194916950E-01
3.00441625000E+09	8.76683389751E-01	-5.17667427102E-02
3.01566500000E+09	7.84741817594E-01	-3.89747202022E-01
3.02691375000E+09	5.68923970782E-01	-6.63005355907E-01
3.03816250000E+09	2.67190460413E-01	-8.30466889015E-01
3.04941125000E+09	-7.21847505746E-02	-8.67950515182E-01
3.06066000000E+09	-3.96844683629E-01	-7.75269532946E-01
3.07190875000E+09	-6.59943838239E-01	-5.68933534962E-01
3.08315750000E+09	-8.25728458403E-01	-2.80296542472E-01
3.09440625000E+09	-8.71960330318E-01	4.73564078589E-02
3.10565500000E+09	-7.92621359746E-01	3.69315258818E-01
3.11690375000E+09	-5.97566584709E-01	6.39741013249E-01
3.12815250000E+09	-3.12685651066E-01	8.17898032524E-01
3.13940125000E+09	1.85149604779E-02	8.75936763871E-01
3.15065000000E+09	3.48768931060E-01	8.03525723987E-01
3.16189875000E+09	6.27888080334E-01	6.09760906901E-01
3.17314750000E+09	8.12483435985E-01	3.23048039352E-01
3.18439625000E+09	8.73617610260E-01	-1.45285376910E-02
3.19564500000E+09	7.99724410591E-01	-3.49685309135E-01
3.20689375000E+09	6.03292594233E-01	-6.30583419440E-01
3.21814250000E+09	3.14223566912E-01	-8.13917356920E-01
3.22939125000E+09	-2.22437418411E-02	-8.71778696181E-01
3.24064000000E+09	-3.54335284308E-01	-7.96908043607E-01
3.25188875000E+09	-6.31362180471E-01	-6.01275131976E-01
3.26313750000E+09	-8.11798332698E-01	-3.16481133525E-01
3.27438625000E+09	-8.70880170421E-01	1.38000914597E-02
3.28563500000E+09	-8.00678611870E-01	3.41166470252E-01
3.29688375000E+09	-6.12977267528E-01	6.16899929635E-01
3.30813250000E+09	-3.37348123937E-01	8.02152331306E-01
3.31938125000E+09	-1.23127115181E-02	8.70123427927E-01
3.33063000000E+09	3.14602005505E-01	8.11482900835E-01
3.34187875000E+09	5.96976111818E-01	6.34711496592E-01
3.35312750000E+09	7.92460534384E-01	3.64085014724E-01
3.36437625000E+09	8.72514621538E-01	3.82427198309E-02
3.37562500000E+09	8.22816426273E-01	-2.95405162941E-01
3.38687375000E+09	6.49032231629E-01	-5.86062652989E-01
3.39812250000E+09	3.76886826349E-01	-7.88472715848E-01
3.40937125000E+09	4.71319110127E-02	-8.71113173620E-01
3.42062000000E+09	-2.89419017990E-01	-8.20715202641E-01
3.43186875000E+09	-5.80758155348E-01	-6.44714684374E-01
3.44311750000E+09	-7.81402199340E-01	-3.71029939091E-01
3.45436625000E+09	-8.61689116013E-01	-4.33825285770E-02
3.46561500000E+09	-8.10575648549E-01	2.88883028990E-01
3.47686375000E+09	-6.38083786225E-01	5.76065550143E-01
3.48811250000E+09	-3.69722169606E-01	7.76462044826E-01
3.49936125000E+09	-4.62012658554E-02	8.59672894733E-01
3.51061000000E+09	2.84209724329E-01	8.14991970249E-01
3.52185875000E+09	5.72509631993E-01	6.49885334784E-01
3.53310750000E+09	7.77406881109E-01	3.88605121669E-01
3.54435625000E+09	8.68844615337E-01	6.96006646573E-02
3.55560500000E+09	8.33995602939E-01	-2.60146974346E-01
3.56685375000E+09	6.77868781219E-01	-5.51915365407E-01
3.57810250000E+09	4.24573593941E-01	-7.63833997305E-01
3.58935125000E+09	1.10832575510E-01	-8.65152357823E-01
3.60060000000E+09	-2.17988826061E-01	-8.41930419427E-01
3.61184875000E+09	-5.13875448643E-01	-6.98189696591E-01
3.62309750000E+09	-7.34808751594E-01	-4.53922045918E-01
3.63434625000E+09	-8.48306061657E-01	-1.44102842619E-01
3.64559500000E+09	-8.37948439975E-01	1.86615182038E-01
3.65684375000E+09	-7.02708940271E-01	4.90247763038E-01
3.66809250000E+09	-4.61633724299E-01	7.20975727793E-01
3.67934125000E+09	-1.49469020827E-01	8.43773368995E-01
3.69059000000E+09	1.87355409050E-01	8.37555352677E-01
3.70183875000E+09	4.97181671934E-01	7.02455536124E-01
3.71308750000E+09	7.31076983759E-01	4.58757716939E-01
3.72433625000E+09	8.53466821440E-01	1.44814580872E-01
3.73558500000E+09	8.46989541848E-01	-1.89608910470E-01
3.74683375000E+09	7.15413900671E-01	-4.94012745378E-01
3.75808250000E+09	4.80795990952E-01	-7.25077254141E-01
3.76933125000E+09	1.79761245906E-01	-8.50809886643E-01
3.78058000000E+09	-1.44303391800E-01	-8.56532304700E-01
3.79182875000E+09	-4.46847506914E-01	-7.42927246850E-01
3.80307750000E+09	-6.85995665804E-01	-5.26078413437E-01
3.81432625000E+09	-8.29088051928E-01	-2.34819838572E-01
3.82557500000E+09	-8.54324652820E-01	9.09485390837E-02
3.83682375000E+09	-7.54346018084E-01	4.05769018588E-01
3.84807250000E+09	-5.39468482060E-01	6.62147182665E-01
3.85932125000E+09	-2.38923335521E-01	8.18403085145E-01
3.87057000000E+09	1.02470790573E-01	8.45787941207E-01
3.88181875000E+09	4.28955555928E-01	7.36481491499E-01
3.89306750000E+09	6.86406569876E-01	5.07458914123E-01
3.90431625000E+09	8.32506237919E-01	1.97009536376E-01
3.91556500000E+09	8.46212313990E-01	-1.42754711199E-01
3.92681375000E+09	7.29262909448E-01	-4.57676504434E-01
3.93806250000E+09	5.04598705416E-01	-7.00590339617E-01
3.94931125000E+09	2.09875646054E-01	-8.39258327693E-01
3.96056000000E+09	-1.11283180947E-01	-8.58767528557E-01
3.97180875000E+09	-4.14758386844E-01	-7.60143633359E-01
