! PocketVna 1.54  pocketvna.com
! Live measurements ((Reflection-S11) Linear 1000000-500000000/201 calibrated)
# MHz S DB R 50
! MHz                 dBS11                     <S11                    dBS21    <S21     dBS12                     <S12                    dBS22    <S22     
1                     5.2869388227983007        -0.47208634938297173    -inf                      0                       -inf     0        -inf     0        
3.4950000000000001    5.2587302019374151        -1.075539613890176      -inf                      0                       -inf     0        -inf     0        
5.9900000000000002    5.2414297408761925        -0.81205226950526155    -inf                      0                       -inf     0        -inf     0        
8.4849999999999994    5.2803357476244432        -1.4830050831058654     -inf                      0                       -inf     0        -inf     0        
10.98                 5.295051760599315         -2.4427774528038158     -inf                      0                       -inf     0        -inf     0        
13.475                5.3387523974000173        -3.177375874709508      -inf                      0                       -inf     0        -inf     0        
15.970000000000001    5.3184281380773086        -4.100789336093313      -inf                      0                       -inf     0        -inf     0        
18.465                5.3785877483117117        -4.3149521222333114     -inf                      0                       -inf     0        -inf     0        
20.960000000000001    5.4058846471787998        -4.7768641268473244     -inf                      0                       -inf     0        -inf     0        
23.454999999999998    5.3701718068866953        -4.9050246640404387     -inf                      0                       -inf     0        -inf     0        
25.949999999999999    5.3554828935753651        -5.1376294531402191     -inf                      0                       -inf     0        -inf     0        
28.445                5.3022692805469713        -5.3069572544102659     -inf                      0                       -inf     0        -inf     0        
30.940000000000001    5.2906351228087578        -6.1839276546835515     -inf                      0                       -inf     0        -inf     0        
33.435000000000002    5.2185795800016157        -6.8324837947053902     -inf                      0                       -inf     0        -inf     0        
35.93                 5.3023615325942561        -7.2325450166551146     -inf                      0                       -inf     0        -inf     0        
38.424999999999997    5.2707031026086701        -7.7007071854389864     -inf                      0                       -inf     0        -inf     0        
40.920000000000002    5.2791459889422763        -8.3523612401587783     -inf                      0                       -inf     0        -inf     0        
43.414999999999999    5.2269527839225134        -9.1330620944180367     -inf                      0                       -inf     0        -inf     0        
45.909999999999997    5.2548706599074704        -9.8148283961036373     -inf                      0                       -inf     0        -inf     0        
48.405000000000001    5.2665296370488424        -10.238500204515329     -inf                      0                       -inf     0        -inf     0        
50.899999999999999    5.2598300517030623        -11.005703297836806     -inf                      0                       -inf     0        -inf     0        
53.395000000000003    5.2149503692191725        -11.603892579786816     -inf                      0                       -inf     0        -inf     0        
55.890000000000001    5.2458754495832061        -12.098486710681971     -inf                      0                       -inf     0        -inf     0        
58.384999999999998    5.21663192017109          -12.251900594595005     -inf                      0                       -inf     0        -inf     0        
60.880000000000003    5.1944761347993289        -12.86447247583944      -inf                      0                       -inf     0        -inf     0        
63.375                5.2300881515103095        -13.488786065571524     -inf                      0                       -inf     0        -inf     0        
65.870000000000005    5.2171159156736104        -13.910650367423024     -inf                      0                       -inf     0        -inf     0        
68.364999999999995    5.1809658665152547        -14.278388474490148     -inf                      0                       -inf     0        -inf     0        
70.859999999999999    5.2255400523193005        -14.876511908500301     -inf                      0                       -inf     0        -inf     0        
73.355000000000004    5.2193383473353991        -15.457391332803267     -inf                      0                       -inf     0        -inf     0        
75.849999999999994    5.1879367786983321        -15.989277222666347     -inf                      0                       -inf     0        -inf     0        
78.344999999999999    5.1181490515626793        -16.529569767994452     -inf                      0                       -inf     0        -inf     0        
80.840000000000003    5.1008758247575683        -16.532160460809504     -inf                      0                       -inf     0        -inf     0        
83.334999999999994    5.0956511068994867        -17.011537340739054     -inf                      0                       -inf     0        -inf     0        
85.829999999999998    5.0872656573634458        -17.884554528320059     -inf                      0                       -inf     0        -inf     0        
88.325000000000003    5.0918235697885095        -18.935935601211369     -inf                      0                       -inf     0        -inf     0        
90.819999999999993    5.0894192855304423        -19.681277302281565     -inf                      0                       -inf     0        -inf     0        
93.314999999999998    5.0637079998100649        -19.652900733236823     -inf                      0                       -inf     0        -inf     0        
95.810000000000002    5.0298632561208114        -19.84429257535967      -inf                      0                       -inf     0        -inf     0        
98.305000000000007    5.0683786199881018        -19.958459652836929     -inf                      0                       -inf     0        -inf     0        
100.8                 4.9703055459829093        -20.786311572907589     -inf                      0                       -inf     0        -inf     0        
103.295               4.922940820102478         -21.273879898573931     -inf                      0                       -inf     0        -inf     0        
105.79000000000001    4.9014972101428222        -22.068123401003689     -inf                      0                       -inf     0        -inf     0        
108.285               4.9745222775110616        -22.646904366344891     -inf                      0                       -inf     0        -inf     0        
110.78                4.9721874795197412        -23.345742391139652     -inf                      0                       -inf     0        -inf     0        
113.27500000000001    4.8860205090861371        -23.952136379633096     -inf                      0                       -inf     0        -inf     0        
115.77                4.7887524456147803        -24.926468742163276     -inf                      0                       -inf     0        -inf     0        
118.265               4.7586846423523985        -25.588023722793277     -inf                      0                       -inf     0        -inf     0        
120.76000000000001    4.7438631966817573        -26.340382282542858     -inf                      0                       -inf     0        -inf     0        
123.255               4.7517758212247063        -26.875969759510976     -inf                      0                       -inf     0        -inf     0        
125.75                4.6622134942303903        -27.637498929191608     -inf                      0                       -inf     0        -inf     0        
128.245               4.6184751550853056        -28.463458823789118     -inf                      0                       -inf     0        -inf     0        
130.74000000000001    4.5056523203815999        -29.252542289346973     -inf                      0                       -inf     0        -inf     0        
133.23500000000001    4.4675000588408           -29.672771974199662     -inf                      0                       -inf     0        -inf     0        
135.72999999999999    4.4535382699049801        -30.846802979132285     -inf                      0                       -inf     0        -inf     0        
138.22499999999999    4.4659233641739604        -31.423214581615412     -inf                      0                       -inf     0        -inf     0        
140.72                4.40351396118447          -32.462886295986124     -inf                      0                       -inf     0        -inf     0        
143.215               4.3494349120308113        -32.649844659344268     -inf                      0                       -inf     0        -inf     0        
145.71000000000001    4.3075049969754629        -33.791022225721591     -inf                      0                       -inf     0        -inf     0        
148.20500000000001    4.3308177627380591        -34.499255757065917     -inf                      0                       -inf     0        -inf     0        
150.69999999999999    4.2832329150424533        -35.874491689621813     -inf                      0                       -inf     0        -inf     0        
153.19499999999999    4.3248643249022924        -37.217065235031775     -inf                      0                       -inf     0        -inf     0        
155.69                4.2991698425862772        -38.14131791793654      -inf                      0                       -inf     0        -inf     0        
158.185               4.2604995404918169        -38.607706047992941     -inf                      0                       -inf     0        -inf     0        
160.68000000000001    4.21721962219147          -38.443052247072387     -inf                      0                       -inf     0        -inf     0        
163.17500000000001    4.1995351044445854        -39.461486827828516     -inf                      0                       -inf     0        -inf     0        
165.66999999999999    4.1838803353268714        -39.95560219210919      -inf                      0                       -inf     0        -inf     0        
168.16499999999999    4.1239332973915994        -40.772469425035226     -inf                      0                       -inf     0        -inf     0        
170.66                4.040961785636517         -41.17328158839608      -inf                      0                       -inf     0        -inf     0        
173.155               4.039162135271531         -42.06751818015676      -inf                      0                       -inf     0        -inf     0        
175.65000000000001    4.062366699569413         -43.16520552083572      -inf                      0                       -inf     0        -inf     0        
178.14500000000001    4.1881932355462492        -44.259377810716856     -inf                      0                       -inf     0        -inf     0        
180.63999999999999    4.1326032209991741        -45.066471964531516     -inf                      0                       -inf     0        -inf     0        
183.13499999999999    4.0121622745183174        -45.228503135944258     -inf                      0                       -inf     0        -inf     0        
185.63                3.8342564542511641        -46.414265607672348     -inf                      0                       -inf     0        -inf     0        
188.125               3.6744430234114716        -47.150412389634141     -inf                      0                       -inf     0        -inf     0        
190.62                3.6051102084412601        -48.204258314708014     -inf                      0                       -inf     0        -inf     0        
193.11500000000001    3.4951076224924789        -49.024815301675666     -inf                      0                       -inf     0        -inf     0        
195.61000000000001    3.5020916220636966        -50.197082203260685     -inf                      0                       -inf     0        -inf     0        
198.10499999999999    3.4553013831031274        -50.544072849374302     -inf                      0                       -inf     0        -inf     0        
200.59999999999999    3.353078812369668         -51.338611268606869     -inf                      0                       -inf     0        -inf     0        
203.095               3.2440373195915835        -52.043912715240921     -inf                      0                       -inf     0        -inf     0        
205.59                3.1451275987328979        -53.441251580720142     -inf                      0                       -inf     0        -inf     0        
208.08500000000001    2.9793468294658902        -55.067799908845451     -inf                      0                       -inf     0        -inf     0        
210.58000000000001    2.8946339773398888        -56.123390992593791     -inf                      0                       -inf     0        -inf     0        
213.07499999999999    2.7890705080631299        -57.632406157036151     -inf                      0                       -inf     0        -inf     0        
215.56999999999999    2.8024050077716351        -59.072839941569939     -inf                      0                       -inf     0        -inf     0        
218.065               2.6326674192667685        -60.357569784505799     -inf                      0                       -inf     0        -inf     0        
220.56                2.4201836919607986        -61.824667913044486     -inf                      0                       -inf     0        -inf     0        
223.05500000000001    2.312781108040971         -63.201858966085254     -inf                      0                       -inf     0        -inf     0        
225.55000000000001    2.1937390201269067        -63.917767774105599     -inf                      0                       -inf     0        -inf     0        
228.04499999999999    2.0599730633597648        -65.198271538134122     -inf                      0                       -inf     0        -inf     0        
230.53999999999999    1.9299685064473662        -67.09480473843729      -inf                      0                       -inf     0        -inf     0        
233.035               1.8086678180320723        -69.005090158787553     -inf                      0                       -inf     0        -inf     0        
235.53                1.7317972788844169        -71.303861604530624     -inf                      0                       -inf     0        -inf     0        
238.02500000000001    1.7477139486005688        -72.628617100442895     -inf                      0                       -inf     0        -inf     0        
240.52000000000001    1.6095077203549943        -74.264014244076677     -inf                      0                       -inf     0        -inf     0        
243.01499999999999    1.3972234119789086        -75.703153682136303     -inf                      0                       -inf     0        -inf     0        
245.50999999999999    1.3114129629453972        -77.748291908676137     -inf                      0                       -inf     0        -inf     0        
248.005               1.2609751042519612        -79.487461184970769     -inf                      0                       -inf     0        -inf     0        
250.5                 1.1059807832101822        -80.93177374205365      -inf                      0                       -inf     0        -inf     0        
252.995               0.93622268984906831       -81.75595956211221      -inf                      0                       -inf     0        -inf     0        
255.49000000000001    0.91242820844621997       -84.485443605550017     -inf                      0                       -inf     0        -inf     0        
257.98500000000001    0.74602974885122253       -85.575070317128706     -inf                      0                       -inf     0        -inf     0        
260.48000000000002    0.48709104802136588       -88.578994507630071     -inf                      0                       -inf     0        -inf     0        
262.97500000000002    0.25411330479446609       -89.642691330549866     -inf                      0                       -inf     0        -inf     0        
265.47000000000003    -0.0096743705363982763    -91.117040581325014     -inf                      0                       -inf     0        -inf     0        
267.96499999999997    -0.024943098293213298     -93.138768201295719     -inf                      0                       -inf     0        -inf     0        
270.45999999999998    -0.30651355351554005      -95.740310851891209     -inf                      0                       -inf     0        -inf     0        
272.95499999999998    -0.33086751172112217      -98.131236629290015     -inf                      0                       -inf     0        -inf     0        
275.44999999999999    -0.6256508194745537       -100.07371048713416     -inf                      0                       -inf     0        -inf     0        
277.94499999999999    -0.84517208235029118      -103.07213929889969     -inf                      0                       -inf     0        -inf     0        
280.44                -1.1647286170345164       -105.32249215006277     -inf                      0                       -inf     0        -inf     0        
282.935               -1.5610787619145725       -107.7838397222329      -inf                      0                       -inf     0        -inf     0        
285.43000000000001    -1.767406954311983        -109.48820875679965     -inf                      0                       -inf     0        -inf     0        
287.92500000000001    -2.0241134836015915       -112.97016280372094     -inf                      0                       -inf     0        -inf     0        
290.42000000000002    -2.1645619136507417       -116.81282661599731     -inf                      0                       -inf     0        -inf     0        
292.91500000000002    -2.4985190298596702       -121.05559977362202     -inf                      0                       -inf     0        -inf     0        
295.41000000000003    -2.6763794375922685       -122.09611841720339     -inf                      0                       -inf     0        -inf     0        
297.90499999999997    -2.9540401739526008       -126.79565051629174     -inf                      0                       -inf     0        -inf     0        
300.39999999999998    -3.1178557921317758       -131.06491991570499     -inf                      0                       -inf     0        -inf     0        
302.89499999999998    -3.3685300166044314       -136.91998390751402     -inf                      0                       -inf     0        -inf     0        
305.38999999999999    -3.6291959709404487       -138.48913355329631     -inf                      0                       -inf     0        -inf     0        
