! PocketVna 1.54  pocketvna.com
! Live measurements ((Reflection-S11) Linear 1000000-500000000/201 calibrated)
# MHz S DB R 50
! MHz                 dBS11                   <S11                   dBS21    <S21     dBS12                   <S12                   dBS22    <S22     
1                     -17.530845919921116     179.82704529689357     -inf                    0                      -inf     0        -inf     0        
3.4950000000000001    -17.634658824493386     179.31018579192403     -inf                    0                      -inf     0        -inf     0        
5.9900000000000002    -17.666710258820913     179.2581521254863      -inf                    0                      -inf     0        -inf     0        
8.4849999999999994    -17.722234654456756     178.31553340872892     -inf                    0                      -inf     0        -inf     0        
10.98                 -17.722092570263726     177.35570383159032     -inf                    0                      -inf     0        -inf     0        
13.475                -17.612154273308164     176.6435195846617      -inf                    0                      -inf     0        -inf     0        
15.970000000000001    -17.625703547307968     176.00302718648561     -inf                    0                      -inf     0        -inf     0        
18.465                -17.531169682508786     175.53853030421388     -inf                    0                      -inf     0        -inf     0        
20.960000000000001    -17.670267488987438     174.78572282491831     -inf                    0                      -inf     0        -inf     0        
23.454999999999998    -17.749956878576619     174.65430679798061     -inf                    0                      -inf     0        -inf     0        
25.949999999999999    -17.741793004314662     173.81559225071305     -inf                    0                      -inf     0        -inf     0        
28.445                -17.645947854038234     173.39135832378551     -inf                    0                      -inf     0        -inf     0        
30.940000000000001    -17.569473450983306     172.66881492277616     -inf                    0                      -inf     0        -inf     0        
33.435000000000002    -17.556663624891932     172.42896032124503     -inf                    0                      -inf     0        -inf     0        
35.93                 -17.530020330820623     170.79587447382954     -inf                    0                      -inf     0        -inf     0        
38.424999999999997    -17.540068192192884     170.20746047823803     -inf                    0                      -inf     0        -inf     0        
40.920000000000002    -17.513434373336835     168.91744915107031     -inf                    0                      -inf     0        -inf     0        
43.414999999999999    -17.552327452945779     168.03814509422662     -inf                    0                      -inf     0        -inf     0        
45.909999999999997    -17.497917644805646     167.25636419894997     -inf                    0                      -inf     0        -inf     0        
48.405000000000001    -17.417554292633199     167.13121321566621     -inf                    0                      -inf     0        -inf     0        
50.899999999999999    -17.359008822535262     166.61687542407728     -inf                    0                      -inf     0        -inf     0        
53.395000000000003    -17.264524850378955     166.04122947926584     -inf                    0                      -inf     0        -inf     0        
55.890000000000001    -17.219593033030019     165.21165200844172     -inf                    0                      -inf     0        -inf     0        
58.384999999999998    -17.229405684468688     164.74566955248306     -inf                    0                      -inf     0        -inf     0        
60.880000000000003    -17.173898466996704     163.85231197673602     -inf                    0                      -inf     0        -inf     0        
63.375                -17.231106018973854     162.88951419681709     -inf                    0                      -inf     0        -inf     0        
65.870000000000005    -17.224704110733082     162.15146067085468     -inf                    0                      -inf     0        -inf     0        
68.364999999999995    -17.225573151803019     161.495869823774       -inf                    0                      -inf     0        -inf     0        
70.859999999999999    -17.146767406211133     161.36889909248339     -inf                    0                      -inf     0        -inf     0        
73.355000000000004    -17.045022296010558     160.97618649385075     -inf                    0                      -inf     0        -inf     0        
75.849999999999994    -17.095329068607398     160.05907364475306     -inf                    0                      -inf     0        -inf     0        
78.344999999999999    -17.096742321800299     158.95360814793813     -inf                    0                      -inf     0        -inf     0        
80.840000000000003    -17.079651705940812     158.60150966779509     -inf                    0                      -inf     0        -inf     0        
83.334999999999994    -16.944627576747553     158.24852198839591     -inf                    0                      -inf     0        -inf     0        
85.829999999999998    -16.814132087347215     157.38815653923018     -inf                    0                      -inf     0        -inf     0        
88.325000000000003    -16.804484367049785     156.47515667188947     -inf                    0                      -inf     0        -inf     0        
90.819999999999993    -16.786308911406952     156.08621191550529     -inf                    0                      -inf     0        -inf     0        
93.314999999999998    -16.832737270323772     155.87796109127615     -inf                    0                      -inf     0        -inf     0        
95.810000000000002    -16.776640454755519     155.36847578217271     -inf                    0                      -inf     0        -inf     0        
98.305000000000007    -16.713790824305722     154.31460777650329     -inf                    0                      -inf     0        -inf     0        
100.8                 -16.624588281091892     153.25834053471397     -inf                    0                      -inf     0        -inf     0        
103.295               -16.532764686811845     152.50741922465875     -inf                    0                      -inf     0        -inf     0        
105.79000000000001    -16.438793151565932     151.96536356895672     -inf                    0                      -inf     0        -inf     0        
108.285               -16.391104264681452     151.02656125308408     -inf                    0                      -inf     0        -inf     0        
110.78                -16.367771955704562     150.48645894279366     -inf                    0                      -inf     0        -inf     0        
113.27500000000001    -16.402377367321105     149.72520570701232     -inf                    0                      -inf     0        -inf     0        
115.77                -16.329686042755309     149.15975507794681     -inf                    0                      -inf     0        -inf     0        
118.265               -16.283271576784855     148.22417898020277     -inf                    0                      -inf     0        -inf     0        
120.76000000000001    -16.224046510169906     147.17096782665797     -inf                    0                      -inf     0        -inf     0        
123.255               -16.067439809574612     146.10171355484678     -inf                    0                      -inf     0        -inf     0        
125.75                -15.987777299200195     145.23669550189322     -inf                    0                      -inf     0        -inf     0        
128.245               -15.909481942678148     144.41530299047969     -inf                    0                      -inf     0        -inf     0        
130.74000000000001    -15.845580530718584     144.01661411504875     -inf                    0                      -inf     0        -inf     0        
133.23500000000001    -15.833099339994344     143.29481144955381     -inf                    0                      -inf     0        -inf     0        
135.72999999999999    -15.660392023509644     142.40396380974835     -inf                    0                      -inf     0        -inf     0        
138.22499999999999    -15.634187823397408     141.62011604909742     -inf                    0                      -inf     0        -inf     0        
140.72                -15.46920423586716      141.02227589900497     -inf                    0                      -inf     0        -inf     0        
143.215               -15.379688141351121     140.54864976462838     -inf                    0                      -inf     0        -inf     0        
145.71000000000001    -15.223613516614343     140.82938372846036     -inf                    0                      -inf     0        -inf     0        
148.20500000000001    -15.24576497903678      140.66457236103759     -inf                    0                      -inf     0        -inf     0        
150.69999999999999    -15.162312722130633     139.38210821545425     -inf                    0                      -inf     0        -inf     0        
153.19499999999999    -15.022429203501941     138.63294527623367     -inf                    0                      -inf     0        -inf     0        
155.69                -14.751503962051654     138.17199617596393     -inf                    0                      -inf     0        -inf     0        
158.185               -14.582233792248662     137.98128908879011     -inf                    0                      -inf     0        -inf     0        
160.68000000000001    -14.497395078576433     137.12510410695373     -inf                    0                      -inf     0        -inf     0        
163.17500000000001    -14.431527472828984     137.26452982092411     -inf                    0                      -inf     0        -inf     0        
165.66999999999999    -14.406844856218237     136.52329679396246     -inf                    0                      -inf     0        -inf     0        
168.16499999999999    -14.26962975609516      135.69364819639515     -inf                    0                      -inf     0        -inf     0        
170.66                -14.23741468927588      134.93901915552979     -inf                    0                      -inf     0        -inf     0        
173.155               -14.120354248727123     134.41155084714694     -inf                    0                      -inf     0        -inf     0        
175.65000000000001    -14.001677336134637     134.45199272185562     -inf                    0                      -inf     0        -inf     0        
178.14500000000001    -13.84760754738573      133.79257644138602     -inf                    0                      -inf     0        -inf     0        
180.63999999999999    -13.768247806186064     133.5039317858699      -inf                    0                      -inf     0        -inf     0        
183.13499999999999    -13.736288750417732     132.9470473753743      -inf                    0                      -inf     0        -inf     0        
185.63                -13.615539439776212     131.95488162437172     -inf                    0                      -inf     0        -inf     0        
188.125               -13.455638853202547     131.67201296700298     -inf                    0                      -inf     0        -inf     0        
190.62                -13.418432504151919     131.06131992003029     -inf                    0                      -inf     0        -inf     0        
193.11500000000001    -13.29584935395056      130.85676981937138     -inf                    0                      -inf     0        -inf     0        
195.61000000000001    -13.128743162357528     129.32816676941647     -inf                    0                      -inf     0        -inf     0        
198.10499999999999    -13.044097239767172     128.42867528230505     -inf                    0                      -inf     0        -inf     0        
200.59999999999999    -12.791501324428333     127.34479743334411     -inf                    0                      -inf     0        -inf     0        
203.095               -12.691984570240635     127.26929624829602     -inf                    0                      -inf     0        -inf     0        
205.59                -12.450197240317291     126.94557307805549     -inf                    0                      -inf     0        -inf     0        
208.08500000000001    -12.317691163063644     126.16930049581647     -inf                    0                      -inf     0        -inf     0        
210.58000000000001    -12.137657706062859     125.28196804131457     -inf                    0                      -inf     0        -inf     0        
213.07499999999999    -11.991159792143371     124.86998827224095     -inf                    0                      -inf     0        -inf     0        
215.56999999999999    -11.752131602322002     124.38149018328818     -inf                    0                      -inf     0        -inf     0        
218.065               -11.497325264507904     123.46726274639964     -inf                    0                      -inf     0        -inf     0        
220.56                -11.224483958338388     123.26471199030381     -inf                    0                      -inf     0        -inf     0        
223.05500000000001    -11.041955948213428     123.12138525202964     -inf                    0                      -inf     0        -inf     0        
225.55000000000001    -10.893820663108677     121.86081651890656     -inf                    0                      -inf     0        -inf     0        
228.04499999999999    -10.795911305828266     121.38898248904268     -inf                    0                      -inf     0        -inf     0        
230.53999999999999    -10.557502567060112     121.32950249043827     -inf                    0                      -inf     0        -inf     0        
233.035               -10.338903543440203     120.3682298896811      -inf                    0                      -inf     0        -inf     0        
235.53                -10.030342681883468     120.61862322161376     -inf                    0                      -inf     0        -inf     0        
238.02500000000001    -9.8221151387211947     119.8220850164244      -inf                    0                      -inf     0        -inf     0        
240.52000000000001    -9.5154089351014299     120.21092514102101     -inf                    0                      -inf     0        -inf     0        
243.01499999999999    -9.4007587979391047     120.09902355244722     -inf                    0                      -inf     0        -inf     0        
245.50999999999999    -9.1616650162341138     120.36189617344621     -inf                    0                      -inf     0        -inf     0        
248.005               -8.7357432935368564     120.1420527474979      -inf                    0                      -inf     0        -inf     0        
250.5                 -8.5358145877540483     119.93046072142938     -inf                    0                      -inf     0        -inf     0        
252.995               -8.1520000566838391     119.08670291769822     -inf                    0                      -inf     0        -inf     0        
255.49000000000001    -7.9433469807810919     118.84969352341108     -inf                    0                      -inf     0        -inf     0        
257.98500000000001    -7.687833946185485      119.20749277093317     -inf                    0                      -inf     0        -inf     0        
260.48000000000002    -7.4168543890839249     119.97633277640801     -inf                    0                      -inf     0        -inf     0        
262.97500000000002    -7.0236772734614039     120.18236052188969     -inf                    0                      -inf     0        -inf     0        
265.47000000000003    -6.7758184001520059     118.96329265264394     -inf                    0                      -inf     0        -inf     0        
267.96499999999997    -6.5544201551608481     119.04542839334846     -inf                    0                      -inf     0        -inf     0        
270.45999999999998    -6.3384825759972374     118.64548325035086     -inf                    0                      -inf     0        -inf     0        
272.95499999999998    -5.8866048134544897     118.81329483929869     -inf                    0                      -inf     0        -inf     0        
275.44999999999999    -5.4695418354905261     118.97338093524466     -inf                    0                      -inf     0        -inf     0        
277.94499999999999    -5.054366771390324      118.92069708764652     -inf                    0                      -inf     0        -inf     0        
280.44                -4.8954606792880657     118.84454943158393     -inf                    0                      -inf     0        -inf     0        
282.935               -4.157024260253718      119.86851405338558     -inf                    0                      -inf     0        -inf     0        
285.43000000000001    -3.7655642344765732     118.82273236466803     -inf                    0                      -inf     0        -inf     0        
287.92500000000001    -3.2432590396637648     118.20873524965839     -inf                    0                      -inf     0        -inf     0        
290.42000000000002    -3.0295737711511395     119.42545368486222     -inf                    0                      -inf     0        -inf     0        
292.91500000000002    -2.3677480137574221     120.94768299543067     -inf                    0                      -inf     0        -inf     0        
295.41000000000003    -1.9613999582528159     122.32681335026422     -inf                    0                      -inf     0        -inf     0        
297.90499999999997    -1.1022457563542045     122.94220751483945     -inf                    0                      -inf     0        -inf     0        
300.39999999999998    -0.26375729461247216    126.15780397986033     -inf                    0                      -inf     0        -inf     0        
302.89499999999998    0.373608019395133       128.18743481119529     -inf                    0                      -inf     0        -inf     0        
305.38999999999999    1.0571812785983068      132.05344224507783     -inf                    0                      -inf     0        -inf     0        
307.88499999999999    1.6465735352011268      130.95041861454632     -inf                    0                      -inf     0        -inf     0        
310.38                2.862018093723977       136.03280734013217     -inf                    0                      -inf     0        -inf     0        
312.875               3.5800334352769636      139.27995954981037     -inf                    0                      -inf     0        -inf     0        
315.37                4.56420985057159        146.78660666678218     -inf                    0                      -inf     0        -inf     0        
317.86500000000001    5.6655874742262977      151.19747573179416     -inf                    0                      -inf     0        -inf     0        
