! PocketVna 1.54  pocketvna.com
! Live measurements ((Reflection-S11) Linear 1000000-500000000/201 calibrated)
# MHz S DB R 50
! MHz                 dBS11                    <S11                    dBS21    <S21     dBS12                    <S12                    dBS22    <S22     
1                     5.2847013292602574       -0.42831401111718803    -inf                     0                       -inf     0        -inf     0        
3.4950000000000001    5.2801419399941629       -1.0944231882366096     -inf                     0                       -inf     0        -inf     0        
5.9900000000000002    5.2382244375461386       -1.1081401469948398     -inf                     0                       -inf     0        -inf     0        
8.4849999999999994    5.2723748045809362       -1.5025350270383604     -inf                     0                       -inf     0        -inf     0        
10.98                 5.2948684427499701       -2.5583963614412415     -inf                     0                       -inf     0        -inf     0        
13.475                5.3318612551208266       -3.1145618938886903     -inf                     0                       -inf     0        -inf     0        
15.970000000000001    5.3317160152433924       -4.3412128871971181     -inf                     0                       -inf     0        -inf     0        
18.465                5.3567886370679147       -4.4508061132332992     -inf                     0                       -inf     0        -inf     0        
20.960000000000001    5.3880004135881734       -4.7607037752719039     -inf                     0                       -inf     0        -inf     0        
23.454999999999998    5.3583461408611637       -4.931004281270658      -inf                     0                       -inf     0        -inf     0        
25.949999999999999    5.3464954144203292       -5.2618300436960581     -inf                     0                       -inf     0        -inf     0        
28.445                5.2850364957819727       -5.4179973111813835     -inf                     0                       -inf     0        -inf     0        
30.940000000000001    5.2564441502527348       -6.2087429939915575     -inf                     0                       -inf     0        -inf     0        
33.435000000000002    5.2097696711409149       -6.9821155275710565     -inf                     0                       -inf     0        -inf     0        
35.93                 5.2855902290304506       -7.4423640854579673     -inf                     0                       -inf     0        -inf     0        
38.424999999999997    5.2607559042971177       -7.9866255023643618     -inf                     0                       -inf     0        -inf     0        
40.920000000000002    5.2639033465423477       -8.4224915033405896     -inf                     0                       -inf     0        -inf     0        
43.414999999999999    5.1985929092250291       -9.2508427353596101     -inf                     0                       -inf     0        -inf     0        
45.909999999999997    5.2691589764860245       -9.8510950898679575     -inf                     0                       -inf     0        -inf     0        
48.405000000000001    5.2488265448659002       -10.280869390949222     -inf                     0                       -inf     0        -inf     0        
50.899999999999999    5.2323628828664575       -11.153785491718882     -inf                     0                       -inf     0        -inf     0        
53.395000000000003    5.1908560332715927       -11.812464553385967     -inf                     0                       -inf     0        -inf     0        
55.890000000000001    5.212907028144258        -12.318070916505459     -inf                     0                       -inf     0        -inf     0        
58.384999999999998    5.1840988500295815       -12.543766464854977     -inf                     0                       -inf     0        -inf     0        
60.880000000000003    5.1764030555135303       -12.950359893836628     -inf                     0                       -inf     0        -inf     0        
63.375                5.1829596631640928       -13.657758085071306     -inf                     0                       -inf     0        -inf     0        
65.870000000000005    5.1484875406487918       -14.154405749333865     -inf                     0                       -inf     0        -inf     0        
68.364999999999995    5.1547473487359632       -14.708449896476461     -inf                     0                       -inf     0        -inf     0        
70.859999999999999    5.1934363188827497       -14.988410807917782     -inf                     0                       -inf     0        -inf     0        
73.355000000000004    5.1654350304520626       -15.816709970296351     -inf                     0                       -inf     0        -inf     0        
75.849999999999994    5.1361293256505816       -15.953132875910047     -inf                     0                       -inf     0        -inf     0        
78.344999999999999    5.1047540111272935       -16.709760875862298     -inf                     0                       -inf     0        -inf     0        
80.840000000000003    5.0730529993555198       -16.77863053553337      -inf                     0                       -inf     0        -inf     0        
83.334999999999994    5.048466380889078        -17.212230304421187     -inf                     0                       -inf     0        -inf     0        
85.829999999999998    5.059278850068532        -18.109872725128042     -inf                     0                       -inf     0        -inf     0        
88.325000000000003    5.0770285465167113       -19.050315082403269     -inf                     0                       -inf     0        -inf     0        
90.819999999999993    5.0777658658630429       -19.853210103668392     -inf                     0                       -inf     0        -inf     0        
93.314999999999998    5.0230505372976655       -19.80092623295527      -inf                     0                       -inf     0        -inf     0        
95.810000000000002    4.9802631425442687       -19.988183584374084     -inf                     0                       -inf     0        -inf     0        
98.305000000000007    5.0313395603964857       -20.232926034695861     -inf                     0                       -inf     0        -inf     0        
100.8                 4.9366497930039834       -21.009877550637778     -inf                     0                       -inf     0        -inf     0        
103.295               4.8916890266606057       -21.411096161153623     -inf                     0                       -inf     0        -inf     0        
105.79000000000001    4.8503958620446115       -22.261124820684703     -inf                     0                       -inf     0        -inf     0        
108.285               4.9131556780040855       -22.782285259447246     -inf                     0                       -inf     0        -inf     0        
110.78                4.9141364910563983       -23.431327811656722     -inf                     0                       -inf     0        -inf     0        
113.27500000000001    4.8381495328636266       -24.279669892557749     -inf                     0                       -inf     0        -inf     0        
115.77                4.7593778379604812       -25.189896893749459     -inf                     0                       -inf     0        -inf     0        
118.265               4.7133865868769753       -25.805972100304967     -inf                     0                       -inf     0        -inf     0        
120.76000000000001    4.7019223105577481       -26.570246064807417     -inf                     0                       -inf     0        -inf     0        
123.255               4.7054912628477368       -27.198835328215619     -inf                     0                       -inf     0        -inf     0        
125.75                4.6420082684252497       -28.079036776652309     -inf                     0                       -inf     0        -inf     0        
128.245               4.56349587659252         -28.695279385682802     -inf                     0                       -inf     0        -inf     0        
130.74000000000001    4.463204492666625        -29.502634826083639     -inf                     0                       -inf     0        -inf     0        
133.23500000000001    4.4216111987460778       -30.042800737612733     -inf                     0                       -inf     0        -inf     0        
135.72999999999999    4.4210020952365667       -31.216398748673406     -inf                     0                       -inf     0        -inf     0        
138.22499999999999    4.4479171606253267       -31.892747479568389     -inf                     0                       -inf     0        -inf     0        
140.72                4.3563474183499116       -32.763704785267969     -inf                     0                       -inf     0        -inf     0        
143.215               4.3272490213989228       -33.13648959482709      -inf                     0                       -inf     0        -inf     0        
145.71000000000001    4.2693234584022353       -34.278051950023837     -inf                     0                       -inf     0        -inf     0        
148.20500000000001    4.2892057380011552       -35.186682647437166     -inf                     0                       -inf     0        -inf     0        
150.69999999999999    4.2886495284621784       -36.279775413381692     -inf                     0                       -inf     0        -inf     0        
153.19499999999999    4.2897791877497955       -37.632160585982369     -inf                     0                       -inf     0        -inf     0        
155.69                4.2579233999137616       -38.553971050773015     -inf                     0                       -inf     0        -inf     0        
158.185               4.2310095022262413       -39.166274126321952     -inf                     0                       -inf     0        -inf     0        
160.68000000000001    4.1949000591511414       -38.949211605273454     -inf                     0                       -inf     0        -inf     0        
163.17500000000001    4.1785173358206338       -39.810553519997619     -inf                     0                       -inf     0        -inf     0        
165.66999999999999    4.1479266857910524       -40.257973876135573     -inf                     0                       -inf     0        -inf     0        
168.16499999999999    4.1137780654978959       -41.223097329893619     -inf                     0                       -inf     0        -inf     0        
170.66                4.0125833735839533       -41.76327210352666      -inf                     0                       -inf     0        -inf     0        
173.155               4.0394828877635298       -42.618719577913417     -inf                     0                       -inf     0        -inf     0        
175.65000000000001    4.0737981708406048       -43.676534224169934     -inf                     0                       -inf     0        -inf     0        
178.14500000000001    4.1815277209359341       -44.529315723931155     -inf                     0                       -inf     0        -inf     0        
180.63999999999999    4.1310796006775732       -45.553637407551427     -inf                     0                       -inf     0        -inf     0        
183.13499999999999    4.0049540553218668       -45.845770438861855     -inf                     0                       -inf     0        -inf     0        
185.63                3.8107159669209985       -46.899261865841765     -inf                     0                       -inf     0        -inf     0        
188.125               3.6323288195591896       -47.702972217246142     -inf                     0                       -inf     0        -inf     0        
190.62                3.6049080860867884       -48.775194343200795     -inf                     0                       -inf     0        -inf     0        
193.11500000000001    3.5083404254620154       -49.601962500900783     -inf                     0                       -inf     0        -inf     0        
195.61000000000001    3.4532493283235195       -50.83379618725219      -inf                     0                       -inf     0        -inf     0        
198.10499999999999    3.4251098270986704       -50.916430656289108     -inf                     0                       -inf     0        -inf     0        
200.59999999999999    3.343960188159929        -51.92336076959505      -inf                     0                       -inf     0        -inf     0        
203.095               3.2330550318842799       -52.708412626286538     -inf                     0                       -inf     0        -inf     0        
205.59                3.1625764970661709       -54.017492536972838     -inf                     0                       -inf     0        -inf     0        
208.08500000000001    2.9828928814326816       -55.325630434890343     -inf                     0                       -inf     0        -inf     0        
210.58000000000001    2.9127872271603641       -56.843046206086314     -inf                     0                       -inf     0        -inf     0        
213.07499999999999    2.8129128500837646       -58.221994593332731     -inf                     0                       -inf     0        -inf     0        
215.56999999999999    2.8085694840984523       -59.603766763773848     -inf                     0                       -inf     0        -inf     0        
218.065               2.5833880860177247       -61.240866975978292     -inf                     0                       -inf     0        -inf     0        
220.56                2.4410722532924574       -62.44911674356355      -inf                     0                       -inf     0        -inf     0        
223.05500000000001    2.2778041626062819       -63.884216136425479     -inf                     0                       -inf     0        -inf     0        
225.55000000000001    2.2142506837694649       -64.860798526762778     -inf                     0                       -inf     0        -inf     0        
228.04499999999999    2.0693322902204407       -65.731829352311109     -inf                     0                       -inf     0        -inf     0        
230.53999999999999    1.9000108011127901       -67.947816433518526     -inf                     0                       -inf     0        -inf     0        
233.035               1.8159369252546196       -69.749250569832199     -inf                     0                       -inf     0        -inf     0        
235.53                1.8148621504133677       -72.068800913688776     -inf                     0                       -inf     0        -inf     0        
238.02500000000001    1.7454520001474318       -72.918148079489768     -inf                     0                       -inf     0        -inf     0        
240.52000000000001    1.6559304672616526       -75.148741347623343     -inf                     0                       -inf     0        -inf     0        
243.01499999999999    1.5127189992380354       -76.753317986671249     -inf                     0                       -inf     0        -inf     0        
245.50999999999999    1.3629740471670875       -79.00498727061597      -inf                     0                       -inf     0        -inf     0        
248.005               1.3639049547912161       -80.347201060274244     -inf                     0                       -inf     0        -inf     0        
250.5                 1.2308402627519781       -81.697804326842231     -inf                     0                       -inf     0        -inf     0        
252.995               1.0157353091605401       -82.755383891700561     -inf                     0                       -inf     0        -inf     0        
255.49000000000001    0.90860630933276987      -84.900478375078336     -inf                     0                       -inf     0        -inf     0        
257.98500000000001    0.80367650561366077      -87.262655818498772     -inf                     0                       -inf     0        -inf     0        
260.48000000000002    0.6482443361203456       -89.273616870802854     -inf                     0                       -inf     0        -inf     0        
262.97500000000002    0.35160473888413979      -90.630128315420521     -inf                     0                       -inf     0        -inf     0        
265.47000000000003    0.21199157696642257      -92.403945336940893     -inf                     0                       -inf     0        -inf     0        
267.96499999999997    0.06407447682757926      -93.960691346559983     -inf                     0                       -inf     0        -inf     0        
270.45999999999998    -0.042380681914651948    -95.878207256247649     -inf                     0                       -inf     0        -inf     0        
272.95499999999998    -0.25207538329137158     -98.562737978294777     -inf                     0                       -inf     0        -inf     0        
275.44999999999999    -0.56716734969371252     -101.63853850443732     -inf                     0                       -inf     0        -inf     0        
277.94499999999999    -0.699163036978381       -104.01300166148573     -inf                     0                       -inf     0        -inf     0        
280.44                -1.0111881335860649      -106.90915703621513     -inf                     0                       -inf     0        -inf     0        
282.935               -1.3558731524113043      -108.72893850251674     -inf                     0                       -inf     0        -inf     0        
285.43000000000001    -1.526008957414164       -110.42926120477927     -inf                     0                       -inf     0        -inf     0        
287.92500000000001    -2.0058198697864276      -113.68337607466665     -inf                     0                       -inf     0        -inf     0        
290.42000000000002    -2.1345005657748493      -117.58669122514571     -inf                     0                       -inf     0        -inf     0        
292.91500000000002    -2.2994355904533141      -120.84784589375091     -inf                     0                       -inf     0        -inf     0        
295.41000000000003    -2.4545735378891544      -123.70255204466815     -inf                     0                       -inf     0        -inf     0        
297.90499999999997    -2.6245324522930495      -126.73465896487757     -inf                     0                       -inf     0        -inf     0        
300.39999999999998    -3.0690238321530465      -132.12832833996745     -inf                     0                       -inf     0        -inf     0        
302.89499999999998    -3.5082564086965409      -136.55483283681338     -inf                     0                       -inf     0        -inf     0        
305.38999999999999    -3.4820597522609615      -139.39566486461459     -inf                     0                       -inf     0        -inf     0        
307.88499999999999    -3.9423670576157765      -145.11829243113195     -inf                     0                       -inf     0        -inf     0        
310.38                -3.7694634547649093      -146.81844652491219     -inf                     0                       -inf     0        -inf     0        
