! PocketVna 1.54  pocketvna.com
! Live measurements ((Reflection-S11) Linear 1000000-500000000/201 calibrated)
# MHz S DB R 50
! MHz                 dBS11                      <S11                      dBS21    <S21     dBS12                      <S12                      dBS22    <S22     
1                     -0.036993132628684693      -0.090835770068778007     -inf                       0                         -inf     0        -inf     0        
3.4950000000000001    -1.729186506108161         6.699368925947633         -inf                       0                         -inf     0        -inf     0        
5.9900000000000002    -0.26469670094120723       1.74312324766927          -inf                       0                         -inf     0        -inf     0        
8.4849999999999994    -0.16321544030185636       0.66707483945264345       -inf                       0                         -inf     0        -inf     0        
10.98                 -0.087040941912109843      0.86619881635930329       -inf                       0                         -inf     0        -inf     0        
13.475                -0.11850426985768729       0.44685374901705205       -inf                       0                         -inf     0        -inf     0        
15.970000000000001    -0.074985643968781504      0.28853867695058871       -inf                       0                         -inf     0        -inf     0        
18.465                -0.060941511779645491      0.051675181144250119      -inf                       0                         -inf     0        -inf     0        
20.960000000000001    -0.04133975921522038       0.31175642548177895       -inf                       0                         -inf     0        -inf     0        
23.454999999999998    -0.0095414894066093471     0.5977425265878068        -inf                       0                         -inf     0        -inf     0        
25.949999999999999    -0.010956236380882218      0.39608722561123605       -inf                       0                         -inf     0        -inf     0        
28.445                -0.020545219776922054      0.19428894472486316       -inf                       0                         -inf     0        -inf     0        
30.940000000000001    -0.062340703488434915      0.88623492791909719       -inf                       0                         -inf     0        -inf     0        
33.435000000000002    -0.065716145514267951      0.29665071762689854       -inf                       0                         -inf     0        -inf     0        
35.93                 0.045430766535262082       0.50797252999481202       -inf                       0                         -inf     0        -inf     0        
38.424999999999997    -0.079809625315042723      0.13516023605398991       -inf                       0                         -inf     0        -inf     0        
40.920000000000002    -0.097944939269700354      0.094147121308232176      -inf                       0                         -inf     0        -inf     0        
43.414999999999999    -0.05912892163260506       0.59170093233655585       -inf                       0                         -inf     0        -inf     0        
45.909999999999997    -0.062762575714326363      0.72855628040161347       -inf                       0                         -inf     0        -inf     0        
48.405000000000001    -0.028806577176048648      0.44633417527678615       -inf                       0                         -inf     0        -inf     0        
50.899999999999999    -0.019401097810430055      0.22016380311648409       -inf                       0                         -inf     0        -inf     0        
53.395000000000003    -0.029675623645592373      0.66574064189464177       -inf                       0                         -inf     0        -inf     0        
55.890000000000001    -0.035129210468294231      0.26889426032878083       -inf                       0                         -inf     0        -inf     0        
58.384999999999998    -0.076126594255953237      0.4546736071482822        -inf                       0                         -inf     0        -inf     0        
60.880000000000003    -0.058876881345371612      0.29190161498729894       -inf                       0                         -inf     0        -inf     0        
63.375                -0.066262866020023736      0.48478951959651168       -inf                       0                         -inf     0        -inf     0        
65.870000000000005    -0.072903169095933862      0.21336709336514378       -inf                       0                         -inf     0        -inf     0        
68.364999999999995    -0.0911398493501301        0.49866263953936574       -inf                       0                         -inf     0        -inf     0        
70.859999999999999    -0.043494065599075454      -0.0553065437409994       -inf                       0                         -inf     0        -inf     0        
73.355000000000004    -0.054158383951907203      0.1910270830214145        -inf                       0                         -inf     0        -inf     0        
75.849999999999994    -0.10554019457561256       0.092161458024940981      -inf                       0                         -inf     0        -inf     0        
78.344999999999999    -0.034946729951453759      0.72414117220037366       -inf                       0                         -inf     0        -inf     0        
80.840000000000003    -0.062839862246629574      0.68634078268013754       -inf                       0                         -inf     0        -inf     0        
83.334999999999994    -0.098183466365991012      0.30892544327035604       -inf                       0                         -inf     0        -inf     0        
85.829999999999998    -0.11858657424313157       0.44186348616515581       -inf                       0                         -inf     0        -inf     0        
88.325000000000003    -0.051639224636655504      0.11180391648475521       -inf                       0                         -inf     0        -inf     0        
90.819999999999993    -0.11388040842619017       0.26707374648948451       -inf                       0                         -inf     0        -inf     0        
93.314999999999998    -0.10853820843923392       0.24628790124065705       -inf                       0                         -inf     0        -inf     0        
95.810000000000002    -0.095480207997943198      0.49248419130257953       -inf                       0                         -inf     0        -inf     0        
98.305000000000007    -0.057897062633146951      -0.23932070227090227      -inf                       0                         -inf     0        -inf     0        
100.8                 -0.068177941055427169      0.31079105591832257       -inf                       0                         -inf     0        -inf     0        
103.295               -0.074134178931836617      0.16675115097487658       -inf                       0                         -inf     0        -inf     0        
105.79000000000001    -0.042306667430887929      0.20059438850210454       -inf                       0                         -inf     0        -inf     0        
108.285               -0.023866157109652435      0.62929781336666024       -inf                       0                         -inf     0        -inf     0        
110.78                -0.038447843286920511      0.50709208016176788       -inf                       0                         -inf     0        -inf     0        
113.27500000000001    -0.075811335929049553      0.67906959518079457       -inf                       0                         -inf     0        -inf     0        
115.77                -0.054497371412015737      0.57756951375540322       -inf                       0                         -inf     0        -inf     0        
118.265               -0.015459085690082313      0.37421484806178662       -inf                       0                         -inf     0        -inf     0        
120.76000000000001    -0.065631610652093997      0.32222546861660656       -inf                       0                         -inf     0        -inf     0        
123.255               -0.061369937120665644      0.28329280529991174       -inf                       0                         -inf     0        -inf     0        
125.75                -0.11102629603506885       0.17538452233761775       -inf                       0                         -inf     0        -inf     0        
128.245               -0.048736363900198219      0.05820131642632391       -inf                       0                         -inf     0        -inf     0        
130.74000000000001    -0.1437332303728634        0.17697429200215323       -inf                       0                         -inf     0        -inf     0        
133.23500000000001    -0.056311797805292843      0.017971503881997704      -inf                       0                         -inf     0        -inf     0        
135.72999999999999    -0.10941480780688786       0.12657450069093165       -inf                       0                         -inf     0        -inf     0        
138.22499999999999    -0.024628307757069465      -0.0056269342687686732    -inf                       0                         -inf     0        -inf     0        
140.72                -0.067593513582319714      0.17762241649868668       -inf                       0                         -inf     0        -inf     0        
143.215               -0.055151800139945625      0.17836946658137154       -inf                       0                         -inf     0        -inf     0        
145.71000000000001    -0.052047768674713571      0.0015111122851012753     -inf                       0                         -inf     0        -inf     0        
148.20500000000001    -0.069762389500737765      -0.29736870057741221      -inf                       0                         -inf     0        -inf     0        
150.69999999999999    -0.083239300771435334      -0.021993823437212269     -inf                       0                         -inf     0        -inf     0        
153.19499999999999    -0.11369229327729628       0.065913841925223426      -inf                       0                         -inf     0        -inf     0        
155.69                -0.10567398972073207       0.10332685538515059       -inf                       0                         -inf     0        -inf     0        
158.185               -0.074295038600643973      -0.016233637239719573     -inf                       0                         -inf     0        -inf     0        
160.68000000000001    -0.0093597484317449291     -0.18941109474073059      -inf                       0                         -inf     0        -inf     0        
163.17500000000001    -0.071295405324594871      -0.43083806356283533      -inf                       0                         -inf     0        -inf     0        
165.66999999999999    -0.10585745726041387       0.031384309140140079      -inf                       0                         -inf     0        -inf     0        
168.16499999999999    -0.043936658364168102      -0.093309232509408854     -inf                       0                         -inf     0        -inf     0        
170.66                -0.022854106085017846      0.13456136432837579       -inf                       0                         -inf     0        -inf     0        
173.155               -0.07147620564301875       0.16296970498542143       -inf                       0                         -inf     0        -inf     0        
175.65000000000001    -0.056743751253425789      -0.41292778447848344      -inf                       0                         -inf     0        -inf     0        
178.14500000000001    -0.074480692854844155      -0.21199743134047597      -inf                       0                         -inf     0        -inf     0        
180.63999999999999    -0.11297866887696843       -0.16388664347422124      -inf                       0                         -inf     0        -inf     0        
183.13499999999999    -0.066368143502977706      0.29251289397487634       -inf                       0                         -inf     0        -inf     0        
185.63                -0.17578440883662724       -0.12300213474794369      -inf                       0                         -inf     0        -inf     0        
188.125               -0.048526756003371176      -0.30154315250169206      -inf                       0                         -inf     0        -inf     0        
190.62                -0.062530427917191461      -0.033833192406878952     -inf                       0                         -inf     0        -inf     0        
193.11500000000001    -0.069820792572774112      -0.084242156005841742     -inf                       0                         -inf     0        -inf     0        
195.61000000000001    -0.12875519712959671       -0.27199544454308139      -inf                       0                         -inf     0        -inf     0        
198.10499999999999    -0.061255665287212879      -0.23003098285517001      -inf                       0                         -inf     0        -inf     0        
200.59999999999999    -0.0089179254247978377     0.10269158148390375       -inf                       0                         -inf     0        -inf     0        
203.095               -0.0036240482004843335     -0.16505576775250735      -inf                       0                         -inf     0        -inf     0        
205.59                -0.042983944653659262      0.44083357042114263       -inf                       0                         -inf     0        -inf     0        
208.08500000000001    -0.045190033076299277      -0.20376422807685343      -inf                       0                         -inf     0        -inf     0        
210.58000000000001    -0.082964345473239942      -0.11882953659780662      -inf                       0                         -inf     0        -inf     0        
213.07499999999999    -0.14151382457484191       0.15022783262757686       -inf                       0                         -inf     0        -inf     0        
215.56999999999999    -0.11115196358882433       0.20617986741586397       -inf                       0                         -inf     0        -inf     0        
218.065               -0.040452815603837622      0.2762287111238062        -inf                       0                         -inf     0        -inf     0        
220.56                -0.076848831737240372      -0.13017358600691942      -inf                       0                         -inf     0        -inf     0        
223.05500000000001    -0.10040004946784932       -0.34657413868151699      -inf                       0                         -inf     0        -inf     0        
225.55000000000001    -0.10260862437544248       -0.19674450886078057      -inf                       0                         -inf     0        -inf     0        
228.04499999999999    -0.096670418706265998      -0.24760416475525188      -inf                       0                         -inf     0        -inf     0        
230.53999999999999    -0.073226875408845885      -0.71589555482426803      -inf                       0                         -inf     0        -inf     0        
233.035               -0.095627794621546913      0.057875716128813336      -inf                       0                         -inf     0        -inf     0        
235.53                -0.11375901318435683       -0.32634214385531318      -inf                       0                         -inf     0        -inf     0        
238.02500000000001    -0.076494687514912396      0.030691514814710122      -inf                       0                         -inf     0        -inf     0        
240.52000000000001    -0.10937272605119584       0.1375583906228719        -inf                       0                         -inf     0        -inf     0        
243.01499999999999    -0.076921032011121451      -0.20056553080396031      -inf                       0                         -inf     0        -inf     0        
245.50999999999999    -0.082580439467236144      -0.82781079441530236      -inf                       0                         -inf     0        -inf     0        
248.005               -0.023415380346190756      -0.18699709113599344      -inf                       0                         -inf     0        -inf     0        
250.5                 -0.13829637386014962       -0.17078396176692856      -inf                       0                         -inf     0        -inf     0        
252.995               -0.13988672953426154       -0.043107911481671514     -inf                       0                         -inf     0        -inf     0        
255.49000000000001    -0.084621387890197186      -0.21686586584356946      -inf                       0                         -inf     0        -inf     0        
257.98500000000001    -0.057164115872235743      -0.35731745469582515      -inf                       0                         -inf     0        -inf     0        
260.48000000000002    -0.023131564748508915      -0.74231018041908681      -inf                       0                         -inf     0        -inf     0        
262.97500000000002    -0.027347527948251474      0.16825893260752015       -inf                       0                         -inf     0        -inf     0        
265.47000000000003    0.010899003047260597       -0.52518388013961659      -inf                       0                         -inf     0        -inf     0        
267.96499999999997    -0.088322258655637378      -0.10471545548470733      -inf                       0                         -inf     0        -inf     0        
270.45999999999998    -0.11658675201475781       -0.20459257554346591      -inf                       0                         -inf     0        -inf     0        
272.95499999999998    -0.16542379164160095       -0.45309942523355062      -inf                       0                         -inf     0        -inf     0        
275.44999999999999    -0.14748480074295797       -0.51658458254154815      -inf                       0                         -inf     0        -inf     0        
277.94499999999999    -0.098205426914696872      -0.61728773710873663      -inf                       0                         -inf     0        -inf     0        
280.44                -0.12744279315665599       -0.55787204310100302      -inf                       0                         -inf     0        -inf     0        
282.935               -0.13983439799678909       -0.49002713394881986      -inf                       0                         -inf     0        -inf     0        
285.43000000000001    -0.11146374350844283       -0.10008055292225067      -inf                       0                         -inf     0        -inf     0        
287.92500000000001    -0.12215255563127476       -0.46412429712284897      -inf                       0                         -inf     0        -inf     0        
290.42000000000002    -0.11950205417974662       -0.63717019101938743      -inf                       0                         -inf     0        -inf     0        
292.91500000000002    -0.14384866476165917       -0.43697197912812169      -inf                       0                         -inf     0        -inf     0        
295.41000000000003    -0.11987634365701105       -0.51384810929207148      -inf                       0                         -inf     0        -inf     0        
