! PocketVna 1.54  pocketvna.com
! Live measurements ((Reflection-S11) Linear 1000000-500000000/201 calibrated)
# MHz S DB R 50
! MHz                 dBS11                 <S11                    dBS21    <S21     dBS12                 <S12                    dBS22    <S22     
1                     5.2514979064211165    -0.22448622339153723    -inf                  0                       -inf     0        -inf     0        
3.4950000000000001    5.2734039217256736    -0.38089335377521466    -inf                  0                       -inf     0        -inf     0        
5.9900000000000002    5.2469061146957472    0.1233746545291018      -inf                  0                       -inf     0        -inf     0        
8.4849999999999994    5.2946770225115349    0.24559567488777231     -inf                  0                       -inf     0        -inf     0        
10.98                 5.3243119220898194    -0.31980775075794227    -inf                  0                       -inf     0        -inf     0        
13.475                5.3606670243191203    -0.5345815377395412     -inf                  0                       -inf     0        -inf     0        
15.970000000000001    5.3600386417748016    -1.0121841521219785     -inf                  0                       -inf     0        -inf     0        
18.465                5.3771258325929239    -0.6071722394369139     -inf                  0                       -inf     0        -inf     0        
20.960000000000001    5.4081498342028329    -0.52704673424491089    -inf                  0                       -inf     0        -inf     0        
23.454999999999998    5.3850660077301828    -0.11548395932748241    -inf                  0                       -inf     0        -inf     0        
25.949999999999999    5.3655423750785047    -0.10700089131293111    -inf                  0                       -inf     0        -inf     0        
28.445                5.342382594974878     0.066451870297207838    -inf                  0                       -inf     0        -inf     0        
30.940000000000001    5.2859435290512282    0.032984727023914751    -inf                  0                       -inf     0        -inf     0        
33.435000000000002    5.2721650000159137    -0.2611721607902473     -inf                  0                       -inf     0        -inf     0        
35.93                 5.3693464796743289    -0.31807043612586366    -inf                  0                       -inf     0        -inf     0        
38.424999999999997    5.3366666900758366    -0.32743938112591858    -inf                  0                       -inf     0        -inf     0        
40.920000000000002    5.3380442996608144    -0.20953648315697884    -inf                  0                       -inf     0        -inf     0        
43.414999999999999    5.327221629672775     -0.38948537185081394    -inf                  0                       -inf     0        -inf     0        
45.909999999999997    5.3598852229456391    -0.53988629251124542    -inf                  0                       -inf     0        -inf     0        
48.405000000000001    5.3745737525106128    -0.43894354983250994    -inf                  0                       -inf     0        -inf     0        
50.899999999999999    5.3659440907650442    -0.8702982322412699     -inf                  0                       -inf     0        -inf     0        
53.395000000000003    5.3262834321572932    -0.80461751953215321    -inf                  0                       -inf     0        -inf     0        
55.890000000000001    5.3423250988062847    -0.76865744475617592    -inf                  0                       -inf     0        -inf     0        
58.384999999999998    5.2992446633814119    -0.71741530040096424    -inf                  0                       -inf     0        -inf     0        
60.880000000000003    5.3080150593065394    -0.58362541515091737    -inf                  0                       -inf     0        -inf     0        
63.375                5.3046295682132811    -0.73545780225761226    -inf                  0                       -inf     0        -inf     0        
65.870000000000005    5.3045299750830202    -0.87965143363581522    -inf                  0                       -inf     0        -inf     0        
68.364999999999995    5.3416706154706839    -0.7888031215791389     -inf                  0                       -inf     0        -inf     0        
70.859999999999999    5.3472675741586917    -0.60745490826747839    -inf                  0                       -inf     0        -inf     0        
73.355000000000004    5.393983394856857     -0.82817065653433863    -inf                  0                       -inf     0        -inf     0        
75.849999999999994    5.3584471094770532    -0.80137488982504823    -inf                  0                       -inf     0        -inf     0        
78.344999999999999    5.3257510918064677    -0.85111916933677734    -inf                  0                       -inf     0        -inf     0        
80.840000000000003    5.2586390027903809    -0.59235063420874767    -inf                  0                       -inf     0        -inf     0        
83.334999999999994    5.2822853783130732    -0.5033853776162539     -inf                  0                       -inf     0        -inf     0        
85.829999999999998    5.2877017460941733    -0.83802628952376124    -inf                  0                       -inf     0        -inf     0        
88.325000000000003    5.3630599919292088    -1.2076204145344853     -inf                  0                       -inf     0        -inf     0        
90.819999999999993    5.395870646310045     -1.1633968869612819     -inf                  0                       -inf     0        -inf     0        
93.314999999999998    5.319231458450167     -0.67281246488670443    -inf                  0                       -inf     0        -inf     0        
95.810000000000002    5.3083671482382568    -0.60898609403713255    -inf                  0                       -inf     0        -inf     0        
98.305000000000007    5.3188548602812471    -0.16427098784823907    -inf                  0                       -inf     0        -inf     0        
100.8                 5.2718154906357881    -0.67404945420014317    -inf                  0                       -inf     0        -inf     0        
103.295               5.2643426048632227    -0.52278622995024693    -inf                  0                       -inf     0        -inf     0        
105.79000000000001    5.2937117720614371    -0.74191702688008654    -inf                  0                       -inf     0        -inf     0        
108.285               5.3609560737965314    -0.41231207450811619    -inf                  0                       -inf     0        -inf     0        
110.78                5.4106462093544385    -0.44738324709383209    -inf                  0                       -inf     0        -inf     0        
113.27500000000001    5.3838011743075462    -0.81134209424790327    -inf                  0                       -inf     0        -inf     0        
115.77                5.343158223917623     -1.022746975627256      -inf                  0                       -inf     0        -inf     0        
118.265               5.3403058002811612    -1.1357172155190698     -inf                  0                       -inf     0        -inf     0        
120.76000000000001    5.3563532126042857    -1.065396757883585      -inf                  0                       -inf     0        -inf     0        
123.255               5.3713354377669642    -0.7881574634519718     -inf                  0                       -inf     0        -inf     0        
125.75                5.332577166237602     -0.87748436595364587    -inf                  0                       -inf     0        -inf     0        
128.245               5.323792637794595     -1.0591775008132167     -inf                  0                       -inf     0        -inf     0        
130.74000000000001    5.2803092163829968    -1.382628399097289      -inf                  0                       -inf     0        -inf     0        
133.23500000000001    5.2488606025999838    -1.3914308423741708     -inf                  0                       -inf     0        -inf     0        
135.72999999999999    5.2987815087978838    -1.513191419263358      -inf                  0                       -inf     0        -inf     0        
138.22499999999999    5.3284410510436437    -1.3232628549509793     -inf                  0                       -inf     0        -inf     0        
140.72                5.3043859907251321    -1.8559283875655617     -inf                  0                       -inf     0        -inf     0        
143.215               5.2594416235510213    -1.4754138097894283     -inf                  0                       -inf     0        -inf     0        
145.71000000000001    5.2578802035214176    -1.9629231312226025     -inf                  0                       -inf     0        -inf     0        
148.20500000000001    5.266033805686348     -1.9115671233665219     -inf                  0                       -inf     0        -inf     0        
150.69999999999999    5.3443849437454469    -2.0740986153919456     -inf                  0                       -inf     0        -inf     0        
153.19499999999999    5.4298995181502754    -2.1323699430752958     -inf                  0                       -inf     0        -inf     0        
155.69                5.4351273153569739    -2.2459384140809839     -inf                  0                       -inf     0        -inf     0        
158.185               5.4156994443612962    -2.0701018495859427     -inf                  0                       -inf     0        -inf     0        
160.68000000000001    5.306072119620131     -1.8046337678743993     -inf                  0                       -inf     0        -inf     0        
163.17500000000001    5.3320247755556069    -1.7005603821586117     -inf                  0                       -inf     0        -inf     0        
165.66999999999999    5.3013292554554052    -1.5506582731136469     -inf                  0                       -inf     0        -inf     0        
168.16499999999999    5.3508033306051619    -1.9402171732038074     -inf                  0                       -inf     0        -inf     0        
170.66                5.3016770964511375    -2.1429508216205462     -inf                  0                       -inf     0        -inf     0        
173.155               5.345837476811556     -2.0067525449122185     -inf                  0                       -inf     0        -inf     0        
175.65000000000001    5.3794809449795142    -1.7196506495588806     -inf                  0                       -inf     0        -inf     0        
178.14500000000001    5.4421858165098342    -1.0419521725231486     -inf                  0                       -inf     0        -inf     0        
180.63999999999999    5.4731748957141342    -1.0043520851967276     -inf                  0                       -inf     0        -inf     0        
183.13499999999999    5.3883504792657337    -1.1731065616654062     -inf                  0                       -inf     0        -inf     0        
185.63                5.399100369370581     -1.6949819156941042     -inf                  0                       -inf     0        -inf     0        
188.125               5.3826208073025663    -2.2568015573847893     -inf                  0                       -inf     0        -inf     0        
190.62                5.3687428990721111    -2.0670234739955262     -inf                  0                       -inf     0        -inf     0        
193.11500000000001    5.3469719265767228    -2.0406053709581147     -inf                  0                       -inf     0        -inf     0        
195.61000000000001    5.3655887177607644    -1.8370426204083559     -inf                  0                       -inf     0        -inf     0        
198.10499999999999    5.3337293930362222    -1.8397158569147389     -inf                  0                       -inf     0        -inf     0        
200.59999999999999    5.2984294340547189    -1.6549767090377867     -inf                  0                       -inf     0        -inf     0        
203.095               5.3108503341359201    -1.6198393150506598     -inf                  0                       -inf     0        -inf     0        
205.59                5.3410124907368921    -1.4840382362512159     -inf                  0                       -inf     0        -inf     0        
208.08500000000001    5.3604705625618383    -1.8947545347712551     -inf                  0                       -inf     0        -inf     0        
210.58000000000001    5.3422441519818076    -1.8061467737130248     -inf                  0                       -inf     0        -inf     0        
213.07499999999999    5.3349539181707364    -1.6629359213385053     -inf                  0                       -inf     0        -inf     0        
215.56999999999999    5.3598932584047807    -1.293623791784154      -inf                  0                       -inf     0        -inf     0        
218.065               5.3637280462462869    -1.8370820825730059     -inf                  0                       -inf     0        -inf     0        
220.56                5.3448712743475557    -2.377234492487748      -inf                  0                       -inf     0        -inf     0        
223.05500000000001    5.3250637109203467    -2.4673515743454786     -inf                  0                       -inf     0        -inf     0        
225.55000000000001    5.2557874017989175    -2.3642215302055738     -inf                  0                       -inf     0        -inf     0        
228.04499999999999    5.2290664698946818    -2.7667175294816091     -inf                  0                       -inf     0        -inf     0        
230.53999999999999    5.2575601493568644    -2.7041598465760761     -inf                  0                       -inf     0        -inf     0        
233.035               5.2909038479441435    -2.5524761988802034     -inf                  0                       -inf     0        -inf     0        
235.53                5.3591054316804598    -2.4923574305093235     -inf                  0                       -inf     0        -inf     0        
238.02500000000001    5.3128967876952471    -2.0906556405739294     -inf                  0                       -inf     0        -inf     0        
240.52000000000001    5.30110037881962      -2.2915558082044614     -inf                  0                       -inf     0        -inf     0        
243.01499999999999    5.2880584357824523    -2.5598255196389235     -inf                  0                       -inf     0        -inf     0        
245.50999999999999    5.3490135807775889    -2.7409020580757919     -inf                  0                       -inf     0        -inf     0        
248.005               5.3641910671153248    -2.4685833638135395     -inf                  0                       -inf     0        -inf     0        
250.5                 5.2783217764992818    -2.5511555613415791     -inf                  0                       -inf     0        -inf     0        
252.995               5.2050262821136588    -2.8840631849595608     -inf                  0                       -inf     0        -inf     0        
255.49000000000001    5.2929258023549695    -2.8044091891076022     -inf                  0                       -inf     0        -inf     0        
257.98500000000001    5.2626994392789284    -2.8222292068488937     -inf                  0                       -inf     0        -inf     0        
260.48000000000002    5.3704719041124394    -3.2109263278532483     -inf                  0                       -inf     0        -inf     0        
262.97500000000002    5.297511785098421     -3.4602244091567886     -inf                  0                       -inf     0        -inf     0        
265.47000000000003    5.2788806493528622    -3.5232243147401574     -inf                  0                       -inf     0        -inf     0        
267.96499999999997    5.2169132167762955    -3.006328170317206      -inf                  0                       -inf     0        -inf     0        
270.45999999999998    5.3528007594646452    -3.4669409749067288     -inf                  0                       -inf     0        -inf     0        
272.95499999999998    5.3450157632758764    -3.2663401966227381     -inf                  0                       -inf     0        -inf     0        
275.44999999999999    5.3724293134144148    -3.6053371223501762     -inf                  0                       -inf     0        -inf     0        
277.94499999999999    5.3070045665469214    -3.5764928932449145     -inf                  0                       -inf     0        -inf     0        
280.44                5.3630177015677578    -4.3125423699520056     -inf                  0                       -inf     0        -inf     0        
282.935               5.324564926725504     -4.3400525263052652     -inf                  0                       -inf     0        -inf     0        
285.43000000000001    5.3448621251290014    -4.8348922153220979     -inf                  0                       -inf     0        -inf     0        
287.92500000000001    5.3542490642089753    -4.6005360686939563     -inf                  0                       -inf     0        -inf     0        
290.42000000000002    5.3531947145646006    -4.602547196750316      -inf                  0                       -inf     0        -inf     0        
292.91500000000002    5.3518842926216825    -4.1072374746996498     -inf                  0                       -inf     0        -inf     0        
295.41000000000003    5.2715100960509274    -3.7235788508185217     -inf                  0                       -inf     0        -inf     0        
297.90499999999997    5.3846795063781485    -3.1810170983207571     -inf                  0                       -inf     0        -inf     0        
300.39999999999998    5.4144049714670794    -3.4301727929150556     -inf                  0                       -inf     0        -inf     0        
302.89499999999998    5.5194251743749305    -4.0509357880385082     -inf                  0                       -inf     0        -inf     0        
305.38999999999999    5.3252429616092636    -4.1109751077766319     -inf                  0                       -inf     0        -inf     0        
307.88499999999999    5.2584512159492611    -3.6089229221631887     -inf                  0                       -inf     0        -inf     0        
310.38                5.2125130520723584    -3.4000300902477747     -inf                  0                       -inf     0        -inf     0        
312.875               5.369728926981864     -3.814749164091948      -inf                  0                       -inf     0        -inf     0        
315.37                5.4588174868090462    -4.3962101084623599     -inf                  0                       -inf     0        -inf     0        
317.86500000000001    5.3788079592220832    -4.4963954558340058     -inf                  0                       -inf     0        -inf     0        
320.36000000000001    5.3860641801676348    -4.2913437252505116     -inf                  0                       -inf     0        -inf     0        
322.85500000000002    5.3634099194602012    -4.4181062660381327     -inf                  0                       -inf     0        -inf     0        
