! PocketVna 1.54  pocketvna.com
! Live measurements ((Reflection-S11) Linear 1000000-500000000/201 calibrated)
# MHz S DB R 50
! MHz                 dBS11                  <S11                   dBS21    <S21     dBS12                  <S12                   dBS22    <S22     
1                     -21.885972869911082    166.32869402346654     -inf                   0                      -inf     0        -inf     0        
3.4950000000000001    -3.903098935639381     149.15821636506479     -inf                   0                      -inf     0        -inf     0        
5.9900000000000002    -15.132758586070576    145.03975651172567     -inf                   0                      -inf     0        -inf     0        
8.4849999999999994    -18.250433985567319    159.78551563509455     -inf                   0                      -inf     0        -inf     0        
10.98                 -20.038227403011422    153.74136293013959     -inf                   0                      -inf     0        -inf     0        
13.475                -19.25224873434103     158.41811772451209     -inf                   0                      -inf     0        -inf     0        
15.970000000000001    -19.891984662155828    158.08308365987185     -inf                   0                      -inf     0        -inf     0        
18.465                -20.170560696173197    165.76929672504289     -inf                   0                      -inf     0        -inf     0        
20.960000000000001    -20.493827186412457    163.62536505064131     -inf                   0                      -inf     0        -inf     0        
23.454999999999998    -21.01456943767058     169.10360858866866     -inf                   0                      -inf     0        -inf     0        
25.949999999999999    -21.071752144535552    175.02559252158156     -inf                   0                      -inf     0        -inf     0        
28.445                -21.433921178848216    172.10794715985475     -inf                   0                      -inf     0        -inf     0        
30.940000000000001    -20.570856528795826    162.52150681643269     -inf                   0                      -inf     0        -inf     0        
33.435000000000002    -21.631879406521971    165.23087078666254     -inf                   0                      -inf     0        -inf     0        
35.93                 -21.070059658649363    172.39971613599081     -inf                   0                      -inf     0        -inf     0        
38.424999999999997    -21.062695890980784    169.59581531933608     -inf                   0                      -inf     0        -inf     0        
40.920000000000002    -22.216420032729584    167.9868859466315      -inf                   0                      -inf     0        -inf     0        
43.414999999999999    -21.431293245815365    163.09929494949995     -inf                   0                      -inf     0        -inf     0        
45.909999999999997    -22.37212041442962     166.64516832161272     -inf                   0                      -inf     0        -inf     0        
48.405000000000001    -21.574787329426655    158.280058481894       -inf                   0                      -inf     0        -inf     0        
50.899999999999999    -20.518504686334452    164.70739894463529     -inf                   0                      -inf     0        -inf     0        
53.395000000000003    -20.771351463155831    162.32449440654185     -inf                   0                      -inf     0        -inf     0        
55.890000000000001    -21.084850507518791    166.99253425224404     -inf                   0                      -inf     0        -inf     0        
58.384999999999998    -21.588971818225549    162.97525536244734     -inf                   0                      -inf     0        -inf     0        
60.880000000000003    -21.199389045371575    162.09364052671688     -inf                   0                      -inf     0        -inf     0        
63.375                -20.926015273525302    158.34165993528637     -inf                   0                      -inf     0        -inf     0        
65.870000000000005    -21.366686589963741    168.72911957478354     -inf                   0                      -inf     0        -inf     0        
68.364999999999995    -20.339716808829564    166.86203817777289     -inf                   0                      -inf     0        -inf     0        
70.859999999999999    -20.933090576869308    169.07377642955959     -inf                   0                      -inf     0        -inf     0        
73.355000000000004    -20.369331456997166    168.59859788477013     -inf                   0                      -inf     0        -inf     0        
75.849999999999994    -20.427884060907374    167.88838501347348     -inf                   0                      -inf     0        -inf     0        
78.344999999999999    -20.819573466011793    165.91975956279521     -inf                   0                      -inf     0        -inf     0        
80.840000000000003    -21.058576743853873    164.51093719073228     -inf                   0                      -inf     0        -inf     0        
83.334999999999994    -21.525650165348537    166.31611800653565     -inf                   0                      -inf     0        -inf     0        
85.829999999999998    -20.101389974343775    167.8109959999498      -inf                   0                      -inf     0        -inf     0        
88.325000000000003    -20.185129724803868    168.29652867140766     -inf                   0                      -inf     0        -inf     0        
90.819999999999993    -20.03352946216296     169.08844780704266     -inf                   0                      -inf     0        -inf     0        
93.314999999999998    -20.579164124905127    165.33663265504461     -inf                   0                      -inf     0        -inf     0        
95.810000000000002    -21.260050024301083    176.27420903757488     -inf                   0                      -inf     0        -inf     0        
98.305000000000007    -20.561290224067061    174.49661957552027     -inf                   0                      -inf     0        -inf     0        
100.8                 -21.095851897728298    171.4697913860135      -inf                   0                      -inf     0        -inf     0        
103.295               -21.382044178019481    171.46886966290677     -inf                   0                      -inf     0        -inf     0        
105.79000000000001    -19.915842586087884    169.31746716051575     -inf                   0                      -inf     0        -inf     0        
108.285               -20.49545987215053     173.82870506664355     -inf                   0                      -inf     0        -inf     0        
110.78                -19.37068569264861     174.32386219138473     -inf                   0                      -inf     0        -inf     0        
113.27500000000001    -20.805184341663008    167.65328326988762     -inf                   0                      -inf     0        -inf     0        
115.77                -20.309782891443298    163.85074075408878     -inf                   0                      -inf     0        -inf     0        
118.265               -20.772721050817971    169.10387073640626     -inf                   0                      -inf     0        -inf     0        
120.76000000000001    -21.016078326055133    171.25490914315901     -inf                   0                      -inf     0        -inf     0        
123.255               -19.562228238371677    173.73266397225782     -inf                   0                      -inf     0        -inf     0        
125.75                -19.959231772641999    176.69618919239574     -inf                   0                      -inf     0        -inf     0        
128.245               -20.312926997702519    169.44675549507693     -inf                   0                      -inf     0        -inf     0        
130.74000000000001    -20.205663880742904    172.8926570074286      -inf                   0                      -inf     0        -inf     0        
133.23500000000001    -21.789318419170023    -179.55486606146027    -inf                   0                      -inf     0        -inf     0        
135.72999999999999    -20.070929017062639    173.95413123631496     -inf                   0                      -inf     0        -inf     0        
138.22499999999999    -20.464794511295029    173.20320120141713     -inf                   0                      -inf     0        -inf     0        
140.72                -20.556477530791874    176.03252860118781     -inf                   0                      -inf     0        -inf     0        
143.215               -21.111903981116008    176.51456373092898     -inf                   0                      -inf     0        -inf     0        
145.71000000000001    -20.951547178654735    174.24839798979812     -inf                   0                      -inf     0        -inf     0        
148.20500000000001    -21.617432625404078    177.63778226504414     -inf                   0                      -inf     0        -inf     0        
150.69999999999999    -22.341096932088213    172.43912094771719     -inf                   0                      -inf     0        -inf     0        
153.19499999999999    -20.918156712688393    171.76900703176665     -inf                   0                      -inf     0        -inf     0        
155.69                -20.427041589919227    179.13349644158581     -inf                   0                      -inf     0        -inf     0        
158.185               -21.04556162272468     -177.98993526218337    -inf                   0                      -inf     0        -inf     0        
160.68000000000001    -21.321329727715774    171.63266049435512     -inf                   0                      -inf     0        -inf     0        
163.17500000000001    -20.579240066433243    178.9721229316967      -inf                   0                      -inf     0        -inf     0        
165.66999999999999    -21.060078656106622    172.68346646994692     -inf                   0                      -inf     0        -inf     0        
168.16499999999999    -20.705082781802439    174.09354136920084     -inf                   0                      -inf     0        -inf     0        
170.66                -20.386646777233828    168.41073338146248     -inf                   0                      -inf     0        -inf     0        
173.155               -21.470935640220546    171.98339483821303     -inf                   0                      -inf     0        -inf     0        
175.65000000000001    -19.997654559478601    175.05142366543114     -inf                   0                      -inf     0        -inf     0        
178.14500000000001    -20.014484265169649    -177.07453923762384    -inf                   0                      -inf     0        -inf     0        
180.63999999999999    -20.145775276623212    -175.29054748417042    -inf                   0                      -inf     0        -inf     0        
183.13499999999999    -20.419515909652599    176.28870851054279     -inf                   0                      -inf     0        -inf     0        
185.63                -19.772225850379332    -175.88082645520061    -inf                   0                      -inf     0        -inf     0        
188.125               -20.662263916878363    179.11682940179381     -inf                   0                      -inf     0        -inf     0        
190.62                -19.388624143578447    177.1382551684591      -inf                   0                      -inf     0        -inf     0        
193.11500000000001    -20.9145820440406      -179.99078234779225    -inf                   0                      -inf     0        -inf     0        
195.61000000000001    -21.377427968710336    179.02282813099927     -inf                   0                      -inf     0        -inf     0        
198.10499999999999    -21.427347527617403    -176.16089789056406    -inf                   0                      -inf     0        -inf     0        
200.59999999999999    -20.679266715148668    179.41222619225931     -inf                   0                      -inf     0        -inf     0        
203.095               -22.544922669824615    -175.50808645569762    -inf                   0                      -inf     0        -inf     0        
205.59                -21.746327037120246    -177.99712289424517    -inf                   0                      -inf     0        -inf     0        
208.08500000000001    -21.350743105250466    176.33140346167107     -inf                   0                      -inf     0        -inf     0        
210.58000000000001    -21.44130316823211     -177.70635494047565    -inf                   0                      -inf     0        -inf     0        
213.07499999999999    -21.429126335409308    178.00934228826841     -inf                   0                      -inf     0        -inf     0        
215.56999999999999    -20.87325596262135     178.35274391623514     -inf                   0                      -inf     0        -inf     0        
218.065               -19.567223237090236    -177.79049264740019    -inf                   0                      -inf     0        -inf     0        
220.56                -20.451561578650221    -176.78250522630148    -inf                   0                      -inf     0        -inf     0        
223.05500000000001    -21.55585426996457     176.21089310165175     -inf                   0                      -inf     0        -inf     0        
225.55000000000001    -22.112705332876562    -176.96848479598282    -inf                   0                      -inf     0        -inf     0        
228.04499999999999    -22.962158016425395    172.02240062374082     -inf                   0                      -inf     0        -inf     0        
230.53999999999999    -21.948134826863285    175.80719210104834     -inf                   0                      -inf     0        -inf     0        
233.035               -20.859886323466235    -179.96405565269697    -inf                   0                      -inf     0        -inf     0        
235.53                -21.62798223366768     -177.97020244706582    -inf                   0                      -inf     0        -inf     0        
238.02500000000001    -21.03451231355789     -175.14451501657442    -inf                   0                      -inf     0        -inf     0        
240.52000000000001    -22.399195609478987    179.6152214076935      -inf                   0                      -inf     0        -inf     0        
243.01499999999999    -20.904525093259334    -174.48555739354529    -inf                   0                      -inf     0        -inf     0        
245.50999999999999    -21.486685647655186    174.35276446362798     -inf                   0                      -inf     0        -inf     0        
248.005               -20.363508500503684    -179.78957418865289    -inf                   0                      -inf     0        -inf     0        
250.5                 -20.242133717833436    -178.7685317180146     -inf                   0                      -inf     0        -inf     0        
252.995               -21.612476251528371    176.95165693760504     -inf                   0                      -inf     0        -inf     0        
255.49000000000001    -19.701541707448676    172.92849441237033     -inf                   0                      -inf     0        -inf     0        
257.98500000000001    -20.766044968058278    -179.62030878585713    -inf                   0                      -inf     0        -inf     0        
260.48000000000002    -21.319273667080839    -176.61272916195276    -inf                   0                      -inf     0        -inf     0        
262.97500000000002    -22.171218098483013    -179.9116834113654     -inf                   0                      -inf     0        -inf     0        
265.47000000000003    -21.401388746420608    -175.11013372807483    -inf                   0                      -inf     0        -inf     0        
267.96499999999997    -20.945881740660699    173.57476794289147     -inf                   0                      -inf     0        -inf     0        
270.45999999999998    -20.432266550678388    175.12322594416659     -inf                   0                      -inf     0        -inf     0        
272.95499999999998    -20.882065821417918    -165.88426766333183    -inf                   0                      -inf     0        -inf     0        
275.44999999999999    -19.173105786964857    -173.5627092859549     -inf                   0                      -inf     0        -inf     0        
277.94499999999999    -20.287802463511362    -175.51641004003795    -inf                   0                      -inf     0        -inf     0        
280.44                -19.608807791953026    179.26803881251217     -inf                   0                      -inf     0        -inf     0        
282.935               -21.742128031454868    -171.63953194992797    -inf                   0                      -inf     0        -inf     0        
285.43000000000001    -21.508732437129574    -179.00306575109317    -inf                   0                      -inf     0        -inf     0        
287.92500000000001    -20.066984957191853    -177.50107629807601    -inf                   0                      -inf     0        -inf     0        
290.42000000000002    -18.912318254860406    177.61265252192288     -inf                   0                      -inf     0        -inf     0        
292.91500000000002    -22.245502836946969    179.91650328051199     -inf                   0                      -inf     0        -inf     0        
295.41000000000003    -20.577418037900035    -161.81821005398396    -inf                   0                      -inf     0        -inf     0        
297.90499999999997    -20.372448187501394    -171.44958325391335    -inf                   0                      -inf     0        -inf     0        
300.39999999999998    -19.798262857958203    -167.47965032352332    -inf                   0                      -inf     0        -inf     0        
302.89499999999998    -20.066809561510169    -170.3220409671419     -inf                   0                      -inf     0        -inf     0        
305.38999999999999    -20.449465456851357    -175.0442656498229     -inf                   0                      -inf     0        -inf     0        
307.88499999999999    -22.470309950922484    -178.64750233555009    -inf                   0                      -inf     0        -inf     0        
310.38                -21.331384358825996    -174.68076978713464    -inf                   0                      -inf     0        -inf     0        
312.875               -22.227461729257829    -168.14149031232779    -inf                   0                      -inf     0        -inf     0        
315.37                -20.15606648416151     178.00151495600616     -inf                   0                      -inf     0        -inf     0        
317.86500000000001    -20.710079270061485    -172.2913654540576     -inf                   0                      -inf     0        -inf     0        
320.36000000000001    -22.446283428927096    -175.61153823561187    -inf                   0                      -inf     0        -inf     0        
322.85500000000002    -20.763505835627242    -169.55236691244585    -inf                   0                      -inf     0        -inf     0        
