! PocketVna 1.54  pocketvna.com
! Live measurements ((Reflection-S11) Linear 1000000-500000000/201 calibrated)
# MHz S DB R 50
! MHz                 dBS11                     <S11                   dBS21    <S21     dBS12                     <S12                   dBS22    <S22     
1                     -0.075991934891442597     178.79059935764096     -inf                      0                      -inf     0        -inf     0        
3.4950000000000001    5.5278571940820438        160.21602719298534     -inf                      0                      -inf     0        -inf     0        
5.9900000000000002    1.125298949409868         171.68425352294312     -inf                      0                      -inf     0        -inf     0        
8.4849999999999994    0.66707504097775838       175.57341548737156     -inf                      0                      -inf     0        -inf     0        
10.98                 0.35959567110166485       176.49494693676669     -inf                      0                      -inf     0        -inf     0        
13.475                0.36861628616850411       178.16337744998367     -inf                      0                      -inf     0        -inf     0        
15.970000000000001    0.41389714054092885       176.98786655148783     -inf                      0                      -inf     0        -inf     0        
18.465                0.25378360612407774       178.36435290038739     -inf                      0                      -inf     0        -inf     0        
20.960000000000001    0.20435897057391078       178.43783705950869     -inf                      0                      -inf     0        -inf     0        
23.454999999999998    0.19499603493103862       177.9820307611501      -inf                      0                      -inf     0        -inf     0        
25.949999999999999    0.1955046100831874        178.27994456958388     -inf                      0                      -inf     0        -inf     0        
28.445                0.24595777645647343       178.72617454292842     -inf                      0                      -inf     0        -inf     0        
30.940000000000001    0.23925658317131224       176.82864058572318     -inf                      0                      -inf     0        -inf     0        
33.435000000000002    0.22342722852920172       178.58502061381674     -inf                      0                      -inf     0        -inf     0        
35.93                 0.2368476738341152        177.9725792059069      -inf                      0                      -inf     0        -inf     0        
38.424999999999997    0.21999051224599911       177.6813724705645      -inf                      0                      -inf     0        -inf     0        
40.920000000000002    0.19663307951285039       178.50838835892898     -inf                      0                      -inf     0        -inf     0        
43.414999999999999    0.13545020758649901       177.73293616774404     -inf                      0                      -inf     0        -inf     0        
45.909999999999997    0.13516885225891273       177.25779071333167     -inf                      0                      -inf     0        -inf     0        
48.405000000000001    0.195367832787542         177.93841279409367     -inf                      0                      -inf     0        -inf     0        
50.899999999999999    0.21454245760236768       178.36670112772819     -inf                      0                      -inf     0        -inf     0        
53.395000000000003    0.32213455075884811       178.87943055567402     -inf                      0                      -inf     0        -inf     0        
55.890000000000001    0.17661775438813668       177.67918374657339     -inf                      0                      -inf     0        -inf     0        
58.384999999999998    0.19019528539962094       177.88291807374196     -inf                      0                      -inf     0        -inf     0        
60.880000000000003    0.27212784703582321       178.25577654893732     -inf                      0                      -inf     0        -inf     0        
63.375                0.20455417757224259       178.69078327766067     -inf                      0                      -inf     0        -inf     0        
65.870000000000005    0.2226021868756064        178.60869976846391     -inf                      0                      -inf     0        -inf     0        
68.364999999999995    0.20941579663288667       177.67493839844715     -inf                      0                      -inf     0        -inf     0        
70.859999999999999    0.28408691758417071       178.04413208589693     -inf                      0                      -inf     0        -inf     0        
73.355000000000004    0.15013234536053888       177.83227940277462     -inf                      0                      -inf     0        -inf     0        
75.849999999999994    0.21727167589958757       178.0329882218868      -inf                      0                      -inf     0        -inf     0        
78.344999999999999    0.29646111503236822       178.68865442792179     -inf                      0                      -inf     0        -inf     0        
80.840000000000003    0.31156861750048392       178.15394975682256     -inf                      0                      -inf     0        -inf     0        
83.334999999999994    0.21866317326314624       178.12882329568183     -inf                      0                      -inf     0        -inf     0        
85.829999999999998    0.31866807250335422       177.98864041105574     -inf                      0                      -inf     0        -inf     0        
88.325000000000003    0.21765863136350563       178.01994109987848     -inf                      0                      -inf     0        -inf     0        
90.819999999999993    0.20912445963906998       179.02642108754213     -inf                      0                      -inf     0        -inf     0        
93.314999999999998    0.38980157970262841       177.84808124380865     -inf                      0                      -inf     0        -inf     0        
95.810000000000002    0.18201630704323191       178.27473452138835     -inf                      0                      -inf     0        -inf     0        
98.305000000000007    0.29652533105250639       178.09609081807758     -inf                      0                      -inf     0        -inf     0        
100.8                 0.3549165709392933        178.17364927285274     -inf                      0                      -inf     0        -inf     0        
103.295               0.37153368923227342       177.79811348680286     -inf                      0                      -inf     0        -inf     0        
105.79000000000001    0.28897360655534227       178.61385655238828     -inf                      0                      -inf     0        -inf     0        
108.285               0.33947645966426754       178.47826670529309     -inf                      0                      -inf     0        -inf     0        
110.78                0.2258119913287723        177.95332050254936     -inf                      0                      -inf     0        -inf     0        
113.27500000000001    0.39458853944416772       177.837483083829       -inf                      0                      -inf     0        -inf     0        
115.77                0.35099568102706613       178.11513793972162     -inf                      0                      -inf     0        -inf     0        
118.265               0.39853462289596736       178.11499224717784     -inf                      0                      -inf     0        -inf     0        
120.76000000000001    0.39473375493988139       178.49035349915562     -inf                      0                      -inf     0        -inf     0        
123.255               0.41538766500260232       178.41672855176327     -inf                      0                      -inf     0        -inf     0        
125.75                0.31230193068221285       178.58599512952563     -inf                      0                      -inf     0        -inf     0        
128.245               0.44322965789254815       178.46015820830121     -inf                      0                      -inf     0        -inf     0        
130.74000000000001    0.29447856207779699       178.98491451534346     -inf                      0                      -inf     0        -inf     0        
133.23500000000001    0.30800604057900138       178.46452889298166     -inf                      0                      -inf     0        -inf     0        
135.72999999999999    0.28673037776706217       178.23993286919782     -inf                      0                      -inf     0        -inf     0        
138.22499999999999    0.3253326864762941        177.53035152569507     -inf                      0                      -inf     0        -inf     0        
140.72                0.21491711720030751       179.38643820699755     -inf                      0                      -inf     0        -inf     0        
143.215               0.47164695085379377       178.90472816406518     -inf                      0                      -inf     0        -inf     0        
145.71000000000001    0.33495898246960887       178.49516669620354     -inf                      0                      -inf     0        -inf     0        
148.20500000000001    0.31274990484866327       178.05559941771634     -inf                      0                      -inf     0        -inf     0        
150.69999999999999    0.14548318685601713       -179.74281055501149    -inf                      0                      -inf     0        -inf     0        
153.19499999999999    0.26226948063384553       179.12394010434775     -inf                      0                      -inf     0        -inf     0        
155.69                0.15454098960359625       178.71796564194807     -inf                      0                      -inf     0        -inf     0        
158.185               0.21354809195860086       178.74706326818804     -inf                      0                      -inf     0        -inf     0        
160.68000000000001    0.3277029859055347        178.91824450609334     -inf                      0                      -inf     0        -inf     0        
163.17500000000001    0.13371116177997164       179.75441681512996     -inf                      0                      -inf     0        -inf     0        
165.66999999999999    0.27154231875436841       179.76897850339628     -inf                      0                      -inf     0        -inf     0        
168.16499999999999    0.25361152069530013       179.25570880557021     -inf                      0                      -inf     0        -inf     0        
170.66                0.42843280773234682       178.94786681890892     -inf                      0                      -inf     0        -inf     0        
173.155               0.30137482433651752       179.4947782535846      -inf                      0                      -inf     0        -inf     0        
175.65000000000001    0.40678790711114032       179.58893584672498     -inf                      0                      -inf     0        -inf     0        
178.14500000000001    0.33767603310925215       178.12860473903581     -inf                      0                      -inf     0        -inf     0        
180.63999999999999    0.13129116107096306       179.48758254532072     -inf                      0                      -inf     0        -inf     0        
183.13499999999999    0.3391094501081251        178.82030239944703     -inf                      0                      -inf     0        -inf     0        
185.63                0.19279341461934549       -178.99760567188457    -inf                      0                      -inf     0        -inf     0        
188.125               0.2491421869847516        179.1393314199922      -inf                      0                      -inf     0        -inf     0        
190.62                0.39467662382888835       -179.66090999146681    -inf                      0                      -inf     0        -inf     0        
193.11500000000001    0.24303643239873468       178.49014621645188     -inf                      0                      -inf     0        -inf     0        
195.61000000000001    0.1602679909857323        179.48754861605892     -inf                      0                      -inf     0        -inf     0        
198.10499999999999    0.30760576470771595       178.48443073445756     -inf                      0                      -inf     0        -inf     0        
200.59999999999999    0.44235493857661651       179.26991192421008     -inf                      0                      -inf     0        -inf     0        
203.095               0.29994131032578775       -179.32993795209333    -inf                      0                      -inf     0        -inf     0        
205.59                0.15642115975006221       179.88275885787476     -inf                      0                      -inf     0        -inf     0        
208.08500000000001    0.22623520782228648       -179.35741889610179    -inf                      0                      -inf     0        -inf     0        
210.58000000000001    0.35127308247117606       179.8418723793647      -inf                      0                      -inf     0        -inf     0        
213.07499999999999    0.073950351457695018      179.43633941837163     -inf                      0                      -inf     0        -inf     0        
215.56999999999999    0.48566597333623251       178.64062955943345     -inf                      0                      -inf     0        -inf     0        
218.065               0.32342737392245641       178.62521434962881     -inf                      0                      -inf     0        -inf     0        
220.56                0.39315936104867838       -179.94285547898158    -inf                      0                      -inf     0        -inf     0        
223.05500000000001    0.5513889023593761        179.6197995748974      -inf                      0                      -inf     0        -inf     0        
225.55000000000001    0.3114214440410259        179.48288758048341     -inf                      0                      -inf     0        -inf     0        
228.04499999999999    0.49091709803668143       179.3673292718594      -inf                      0                      -inf     0        -inf     0        
230.53999999999999    0.37922084958859015       178.6282719174128      -inf                      0                      -inf     0        -inf     0        
233.035               0.22296832459114233       178.61405054809302     -inf                      0                      -inf     0        -inf     0        
235.53                0.21775772457394466       179.01711547363911     -inf                      0                      -inf     0        -inf     0        
238.02500000000001    0.21133484718337858       178.93189921080312     -inf                      0                      -inf     0        -inf     0        
240.52000000000001    0.19693518800009971       179.1797942209659      -inf                      0                      -inf     0        -inf     0        
243.01499999999999    0.22430083492410829       -179.84951820483991    -inf                      0                      -inf     0        -inf     0        
245.50999999999999    0.50149518028232687       179.17613397282827     -inf                      0                      -inf     0        -inf     0        
248.005               0.30100477780451235       179.29634627435195     -inf                      0                      -inf     0        -inf     0        
250.5                 0.30889646737773474       179.4295528564318      -inf                      0                      -inf     0        -inf     0        
252.995               0.40312049446532383       177.43716438088185     -inf                      0                      -inf     0        -inf     0        
255.49000000000001    0.47593392171104476       -179.86929197490565    -inf                      0                      -inf     0        -inf     0        
257.98500000000001    0.35396963706791995       179.28374716152456     -inf                      0                      -inf     0        -inf     0        
260.48000000000002    0.151566421410675         179.0029007380947      -inf                      0                      -inf     0        -inf     0        
262.97500000000002    0.12660551314022658       179.8912419769172      -inf                      0                      -inf     0        -inf     0        
265.47000000000003    0.18351123364510513       -178.5039321330695     -inf                      0                      -inf     0        -inf     0        
267.96499999999997    0.40507103375568482       178.48691100724568     -inf                      0                      -inf     0        -inf     0        
270.45999999999998    0.061835378531567321      178.83758497875095     -inf                      0                      -inf     0        -inf     0        
272.95499999999998    0.30239772254319208       179.91873478341228     -inf                      0                      -inf     0        -inf     0        
275.44999999999999    -0.024595119384241991     179.48096321270424     -inf                      0                      -inf     0        -inf     0        
277.94499999999999    0.20804858409555763       179.72345817984396     -inf                      0                      -inf     0        -inf     0        
280.44                0.2127049466888857        -179.26892036256527    -inf                      0                      -inf     0        -inf     0        
282.935               0.33590332809870438       179.95284628900848     -inf                      0                      -inf     0        -inf     0        
285.43000000000001    -0.09489557033322249      -178.80563774255992    -inf                      0                      -inf     0        -inf     0        
287.92500000000001    0.18380570387335232       -178.19755421619641    -inf                      0                      -inf     0        -inf     0        
290.42000000000002    0.20934960277575232       -179.41711151745696    -inf                      0                      -inf     0        -inf     0        
292.91500000000002    0.28338192220875624       178.7876804128156      -inf                      0                      -inf     0        -inf     0        
295.41000000000003    0.2570320001712651        179.53144584124055     -inf                      0                      -inf     0        -inf     0        
297.90499999999997    -0.0052770450426267894    -179.60383383671083    -inf                      0                      -inf     0        -inf     0        
300.39999999999998    0.24182375611691626       -178.93035510022682    -inf                      0                      -inf     0        -inf     0        
302.89499999999998    0.15731004065371354       -179.63398443060723    -inf                      0                      -inf     0        -inf     0        
305.38999999999999    0.23584655988942044       -179.18062413610625    -inf                      0                      -inf     0        -inf     0        
307.88499999999999    0.10651712037650278       179.26031222294529     -inf                      0                      -inf     0        -inf     0        
310.38                0.54098193211628354       -179.4056979614476     -inf                      0                      -inf     0        -inf     0        
