!Created with skrf (http://scikit-rf.org).
# Hz S RI R 50.0 
!freq ReS11 ImS11
400000000.0 -0.034598834481167406 -0.5137062341990042
402002503.0 -0.034396826645649914 -0.5239487561479352
404005006.0 -0.055504248006263746 -0.5382551764197326
406007509.0 -0.07587010410508821 -0.5341740457038562
408010012.0 -0.09235669975215621 -0.5297338270461485
410012515.0 -0.09904395626235984 -0.5157665891155663
412015018.0 -0.11262593158056522 -0.5200347352519101
414017521.0 -0.12282073204416799 -0.5211778653796655
416020025.0 -0.1426686258075256 -0.5155745069528379
418022528.0 -0.16135707016646172 -0.50736494760406
420025031.0 -0.17223473656315968 -0.5020349312347738
422027534.0 -0.18094374450412098 -0.5099146646047703
424030037.0 -0.1965171098207682 -0.49348596022186353
426032540.0 -0.2059504693580655 -0.4936620883195695
428035043.0 -0.22931993054032385 -0.49532927327963894
430037546.0 -0.2427866996079553 -0.4759692007187417
432040050.0 -0.2465734499917447 -0.4697936762656564
434042553.0 -0.26164045590168583 -0.4621103802661509
436045056.0 -0.27155632622741177 -0.4481330705373062
438047559.0 -0.27946551794218155 -0.4396351039897447
440050062.0 -0.30223160408280814 -0.43278844774878
442052565.0 -0.31343536252415904 -0.4214855245690725
444055068.0 -0.3181587016505313 -0.40839920885130676
446057571.0 -0.3346790262552525 -0.408782036579481
448060075.0 -0.3441284346289747 -0.3863063814725375
450062578.0 -0.3560316967955557 -0.3755491655487935
452065081.0 -0.36874878198447014 -0.3486346905488913
454067584.0 -0.3746549811538389 -0.3461948379322529
456070087.0 -0.38043122929396744 -0.3275926318084793
458072590.0 -0.3930784465609275 -0.31275863272317805
460075093.0 -0.4029407891211223 -0.30144123123786803
462077596.0 -0.41335817720008294 -0.2899273913106638
464080100.0 -0.42029353927417257 -0.2685548208612041
466082603.0 -0.43345147871108536 -0.25622687199156946
468085106.0 -0.4375240278370225 -0.2415044040814509
470087609.0 -0.44854002807631554 -0.2246849449227848
472090112.0 -0.45356498768149855 -0.2150981305123736
474092615.0 -0.4562226131161362 -0.19290273884386655
476095118.0 -0.4662465522220086 -0.17573202853378034
478097621.0 -0.4632514408939914 -0.1634550648541031
480100125.0 -0.46960015812612554 -0.1436495842054617
482102628.0 -0.4811566993724903 -0.14239075162888837
484105131.0 -0.48164873645812967 -0.12469831991105773
486107634.0 -0.478895278013149 -0.10604199136773251
488110137.0 -0.47562399750009465 -0.09721110552188483
490112640.0 -0.48003659385534725 -0.07896065408852582
492115143.0 -0.4813131212705323 -0.06588765270680552
494117647.0 -0.48070282799365227 -0.051425984743077136
496120150.0 -0.47442407274529397 -0.04542901373573638
498122653.0 -0.47639490647755356 -0.026319028942891065
500125156.0 -0.4787993771884429 -0.01756455473901708
502127659.0 -0.47519193468000975 -0.010452214972704543
504130162.0 -0.4683226733821837 0.008618790783998631
506132665.0 -0.4683321668365753 0.01785417752775642
508135168.0 -0.4645021199567969 0.032989372640876535
510137672.0 -0.45823863226799066 0.046275166944547474
512140175.0 -0.4571925694293938 0.052996248869712215
514142678.0 -0.4442886710603613 0.06405717519339515
516145181.0 -0.44080067050215643 0.0785931794782444
518147684.0 -0.4339094533862068 0.082829776636409
520150187.0 -0.4266146829678379 0.09379064382700808
522152690.0 -0.41982056824024405 0.0990328309702635
524155193.0 -0.4136169009451416 0.10833874311881608
526157697.0 -0.403280785403772 0.11296568569587528
528160200.0 -0.3954616367969045 0.13028012935998312
530162703.0 -0.39105118056663013 0.14213837877834368
532165206.0 -0.3848326501302025 0.15335088492142757
534167709.0 -0.3738064764992315 0.15640750975577355
536170212.0 -0.37878706614306856 0.1651311281531106
538172715.0 -0.36079621590868016 0.1650464325495432
540175218.0 -0.354152516125397 0.17526849700194091
542177722.0 -0.35371258140574235 0.18837792989454294
544180225.0 -0.34237843464657447 0.19236157238287066
546182728.0 -0.33455893549375415 0.1974952233106444
548185231.0 -0.3224223355287261 0.19811698560678548
550187734.0 -0.31836722587980804 0.20959340715528774
552190237.0 -0.30742732304002307 0.207650105182541
554192740.0 -0.31217794909870256 0.21189019441172452
556195243.0 -0.2938236377628305 0.22371221567355448
558197747.0 -0.28453309374015967 0.23103114263776625
560200250.0 -0.28595349975132356 0.2458657567694118
562202753.0 -0.2768591692609491 0.24560548913472047
564205256.0 -0.2760983823032285 0.24679847667239918
566207759.0 -0.26546620413236777 0.24885478855192367
568210262.0 -0.24299057125787737 0.24974375738130805
570212765.0 -0.24594182067299553 0.2569829687434173
572215269.0 -0.2500096886721498 0.270509943562822
574217772.0 -0.24118987877111897 0.2688713079258126
576220275.0 -0.23881989928487024 0.28025176887039693
578222778.0 -0.22997514713994704 0.2746159969976951
580225281.0 -0.23112499313898138 0.2893088423243745
582227784.0 -0.21114935745120722 0.2958065216632052
584230287.0 -0.2114920791931041 0.27834124864254095
586232790.0 -0.21254877964844 0.29995964969445565
588235294.0 -0.2048856404749877 0.2993884125891726
590237797.0 -0.18673255849681936 0.3057689994468681
592240300.0 -0.20321596974647005 0.30511209683219853
594242803.0 -0.19338134012987662 0.3222885985998978
596245306.0 -0.19032163659416046 0.30519677494811304
598247809.0 -0.19486874039479474 0.31443785732459684
600250312.0 -0.172493766821609 0.31027025432309974
602252815.0 -0.1700606253359654 0.3227038727781223
604255319.0 -0.17919397884572752 0.31722009026352993
606257822.0 -0.17757220324002476 0.3197860590413617
608260325.0 -0.16061216581369364 0.34473837584601597
610262828.0 -0.16303081511282708 0.32860276957231793
612265331.0 -0.16333932952703772 0.32622034792189236
614267834.0 -0.1537474914472705 0.33828962087161785
616270337.0 -0.15399401498609755 0.32539292402604403
618272840.0 -0.1558605184187728 0.33036640249527505
620275344.0 -0.1465223749614758 0.3402141674001241
622277847.0 -0.14798939051843923 0.34397660584644396
624280350.0 -0.1211978723513581 0.3475668780861858
626282853.0 -0.138950728296851 0.3426775278062123
628285356.0 -0.1337656804232643 0.34823346762769725
630287859.0 -0.12178068588597507 0.34033349749919073
632290362.0 -0.1210165225794293 0.360550365257871
634292865.0 -0.11870820339243787 0.3558039615230302
636295369.0 -0.11606189238829356 0.3434013604139413
638297872.0 -0.11566006727841549 0.3528017546499166
640300375.0 -0.1050569579709652 0.344029526861498
642302878.0 -0.09747063207391143 0.35847678158753415
644305381.0 -0.08461504333047815 0.34858324969321086
646307884.0 -0.07477148445068343 0.35437102685942456
648310387.0 -0.07034537523401457 0.3472722846888012
650312891.0 -0.07624470013633172 0.3609518634154081
652315394.0 -0.05394074116667613 0.34929449799462997
654317897.0 -0.060799575082603474 0.3557638699601896
656320400.0 -0.04770890053412474 0.35337410575056105
658322903.0 -0.04227201631248234 0.3544903323500198
660325406.0 -0.03689839856509691 0.3352370632991306
662327909.0 -0.02512933166616793 0.36295955923464907
664330412.0 -0.019990984007472096 0.3536337191206782
666332916.0 -0.024645094386624267 0.3356728856137069
668335419.0 0.005213164809474979 0.3558407181952662
670337922.0 0.003200281016801032 0.34705641744752425
672340425.0 0.006169204070083256 0.3518226996274417
674342928.0 0.008406248700456087 0.35761759506330915
676345431.0 0.02644008484058219 0.35562006841157157
678347934.0 0.03591478330921155 0.34848342037493374
680350437.0 0.04383856449656123 0.3451855187084466
682352941.0 0.06412986638741724 0.3561923148401904
684355444.0 0.06106850213448306 0.34614307343179207
686357947.0 0.06596258252565756 0.3445932531745225
688360450.0 0.07899601375149753 0.35048844545300173
690362953.0 0.08224363651651728 0.34189235540158935
692365456.0 0.1032323762579172 0.34914341678159944
694367959.0 0.10688286616156223 0.345151778960498
696370462.0 0.11785550557348337 0.34796672723371913
698372966.0 0.11943861185173782 0.3533089552616756
700375469.0 0.1331315437684949 0.3352532832068319
702377972.0 0.13222877928839216 0.3486168003835298
704380475.0 0.14763006753717167 0.34693234560065844
706382978.0 0.15600824402594965 0.33652524371602754
708385481.0 0.16631300422693007 0.33934885508204615
710387984.0 0.17415020135554965 0.3249008681736043
712390487.0 0.19294251560729278 0.3328512047411397
714392991.0 0.19564959099755078 0.33284395794591504
716395494.0 0.19567113702577685 0.3186086989298291
718397997.0 0.2132118537812621 0.32063997558883317
720400500.0 0.22502895240151063 0.32450701743226984
722403003.0 0.22867633021369027 0.3094319478780335
724405506.0 0.2424244154935116 0.3107000175002589
726408009.0 0.2504474070842875 0.3133336055888635
728410512.0 0.24957275523203137 0.2983292113974382
730413016.0 0.26604902422699944 0.2999712787495099
732415519.0 0.26928211137497676 0.3040041237870764
734418022.0 0.28864775417983113 0.27989967952570305
736420525.0 0.2838456550748333 0.29479219995685146
738423028.0 0.293473532560034 0.2799252297108651
740425531.0 0.31320602817488474 0.28258862192013
742428034.0 0.3187248143078249 0.2862542643975945
744430538.0 0.33644565637204504 0.26079051370490625
746433041.0 0.3328115377712964 0.26255862198639746
748435544.0 0.33891818202751667 0.2686050564173107
750438047.0 0.34194493676025783 0.24864494975226514
752440550.0 0.3532971665161338 0.2560699157477063
754443053.0 0.3533170440469281 0.22957866599836485
756445556.0 0.3566284949944494 0.23532545773430147
758448059.0 0.3681637906360097 0.23293783866035866
760450563.0 0.3774222997965636 0.22104952097431763
762453066.0 0.3762341131748539 0.20555359945050033
764455569.0 0.3797069477445716 0.1973151244529524
766458072.0 0.3862855597066894 0.18697686516716017
768460575.0 0.37649689643343515 0.1749739998380171
770463078.0 0.39164418365490905 0.16803392135913375
772465581.0 0.3997748330490541 0.16562856158133743
774468084.0 0.39678302124481396 0.14399667460261845
776470588.0 0.39846971599414965 0.13668893861163467
778473091.0 0.39809311611951176 0.1348934248377187
780475594.0 0.399037005243442 0.11507315721054545
782478097.0 0.4116149818254863 0.10262106785042424
784480600.0 0.41364058144298727 0.09456668298837423
786483103.0 0.40605985297852026 0.07282344527651019
788485606.0 0.41451813722547637 0.07521472936261331
790488109.0 0.4134190336885287 0.05529787819299936
792490613.0 0.41009569416072394 0.03574891701524585
794493116.0 0.4062108287918854 0.02589608253229514
796495619.0 0.4198607808777021 0.01702711822272973
798498122.0 0.4208306931135613 0.0060543654302482874
800500625.0 0.4195526173036432 -0.008826964592356212
802503128.0 0.4201835239493714 -0.02189700712376963
804505631.0 0.42244679069311064 -0.025689652637095994
806508134.0 0.4143778103626708 -0.051943504758919845
808510638.0 0.4157454533403187 -0.0659169710167895
810513141.0 0.4194128459025698 -0.0715400223196363
812515644.0 0.41045105667092874 -0.08111689956960744
814518147.0 0.41250713741299533 -0.0946464665148683
816520650.0 0.40508672089975806 -0.11529257588851816
818523153.0 0.4154077234653861 -0.11796369479979307
820525656.0 0.40531547955509867 -0.12872959737082224
822528160.0 0.40328273031344086 -0.15037489338637577
824530663.0 0.40256264246819895 -0.159822970933712
826533166.0 0.3928876865147429 -0.1697186983493233
828535669.0 0.3915602334473667 -0.17723974396007902
830538172.0 0.3936804441390562 -0.19200289961701378
832540675.0 0.3849341332582972 -0.19824869654832522
834543178.0 0.3751285159064294 -0.20910424637019398
836545681.0 0.3723153940851828 -0.21910123576542673
838548185.0 0.36591281010350374 -0.22916679983533905
840550688.0 0.35616329209513864 -0.24248500189867928
842553191.0 0.3491081848191091 -0.2543574362669814
844555694.0 0.3346513150652291 -0.2661484845336328
846558197.0 0.33952723241716654 -0.25610833283083057
848560700.0 0.3203700806720434 -0.27792480125311725
850563203.0 0.3255849533165305 -0.27942517232428044
852565706.0 0.30926661901895486 -0.2918280776341916
854568210.0 0.28453913034897405 -0.2951710980912021
856570713.0 0.2871431341770696 -0.3074791410995019
858573216.0 0.2647575837108239 -0.31275644009820014
860575719.0 0.26439154578403734 -0.3153442366039658
862578222.0 0.25618566789162434 -0.3190956207486896
864580725.0 0.2366915553636772 -0.32528734514067525
866583228.0 0.22446489421848198 -0.3334851453862693
868585731.0 0.21196293111891845 -0.33712400616117355
870588235.0 0.20109654327213078 -0.3390109586545931
872590738.0 0.18227388997373656 -0.3432276143109343
874593241.0 0.16063486382897235 -0.34686529531648835
876595744.0 0.14469610797920315 -0.344453857031777
878598247.0 0.13292385982612792 -0.34935119322323716
880600750.0 0.12265460105659828 -0.35747205268363225
882603253.0 0.11903335661286069 -0.3495016057434778
884605756.0 0.09752742197382397 -0.3566766440650635
886608260.0 0.07418020196880798 -0.35709601333300833
888610763.0 0.06749182463825684 -0.36186027697236145
890613266.0 0.05269029500619912 -0.3544219925297095
892615769.0 0.031240944293921435 -0.35960190428141814
894618272.0 0.01339407916860319 -0.3527840223081147
896620775.0 0.001932374052999175 -0.35471926956010646
898623278.0 -0.009062258462177342 -0.3407316960401794
900625782.0 -0.02082996145273633 -0.34571903323310804
902628285.0 -0.03482410981679285 -0.34503390606299444
904630788.0 -0.05246506519307875 -0.3445727201559554
906633291.0 -0.05684828844568021 -0.3401069178866576
908635794.0 -0.07203325352302706 -0.33275650524029377
910638297.0 -0.09073534685723783 -0.32482976566085064
912640800.0 -0.09068248209779733 -0.32281120932576757
914643303.0 -0.10622745145023088 -0.3159547591283851
916645807.0 -0.11158069285303512 -0.30001942145591276
918648310.0 -0.12591481917525482 -0.299985764066381
920650813.0 -0.13830936098657395 -0.2940397527882773
922653316.0 -0.1523613608911726 -0.2814669223953282
924655819.0 -0.1424587251836381 -0.28481649871962234
926658322.0 -0.15422492103436602 -0.27449932608688
928660825.0 -0.16782451744053492 -0.2529098179043574
930663328.0 -0.1636341793511937 -0.25186111885635865
932665832.0 -0.17752620364573715 -0.24163954558289835
934668335.0 -0.17495806717485476 -0.23109419919283147
936670838.0 -0.18116670422873743 -0.2145737974311832
938673341.0 -0.18106568993645356 -0.21160011493983755
940675844.0 -0.19300244514403436 -0.19769454057053637
942678347.0 -0.18317463758343164 -0.1844289990842911
944680850.0 -0.17874457185204656 -0.1773938519196112
946683353.0 -0.189468632176052 -0.16402046587514607
948685857.0 -0.1958656236655183 -0.1642919867652296
950688360.0 -0.18827629226373888 -0.1485758291492456
952690863.0 -0.18701344034755008 -0.1449129442057121
954693366.0 -0.1872266739706464 -0.13416271723005047
956695869.0 -0.17904462031272123 -0.11849954690287123
958698372.0 -0.1800147931082285 -0.12047178984305329
960700875.0 -0.18424590781240657 -0.10680141972754653
962703378.0 -0.16952648394154574 -0.08563626472975527
964705882.0 -0.179946313354166 -0.07384701380283398
966708385.0 -0.16955393223997034 -0.0806615440159466
968710888.0 -0.1644992725390394 -0.06658170860310886
970713391.0 -0.16960139798442736 -0.06830877641767108
972715894.0 -0.16305117370312244 -0.06665485030521756
974718397.0 -0.15576077628820778 -0.04578939037197316
976720900.0 -0.1488103910309448 -0.04180028412775871
978723403.0 -0.15520421993164085 -0.041281277240498016
980725907.0 -0.14454149156056517 -0.03334155147020168
982728410.0 -0.1409380527896389 -0.039666355699206624
984730913.0 -0.14020380301726515 -0.02966851434842044
986733416.0 -0.13797691924524724 -0.018956669971629037
988735919.0 -0.12451562346413658 -0.023926402460259233
990738422.0 -0.1249666200545354 -0.020194504583387896
992740925.0 -0.11788457594940194 -0.0145255414742399
994743429.0 -0.11651075084338092 -0.012931656462128682
996745932.0 -0.12240540654875909 -0.027243007701589494
998748435.0 -0.10255019749658478 -0.020565087598577003
1000750938.0 -0.09568309459576307 -0.013992842806998307
1002753441.0 -0.10560315547082066 -0.019692520864310392
1004755944.0 -0.1081219394610825 -0.011892012328773682
1006758447.0 -0.09504584976928598 -0.019609536512186554
1008760950.0 -0.10681878167730874 -0.013250526719175593
1010763454.0 -0.10566640109997749 -0.015930864081212803
1012765957.0 -0.08919074546718309 -0.007244101000156933
1014768460.0 -0.09732207958144068 -0.016317037221852293
1016770963.0 -0.1040206247879717 -0.0239955471443295
1018773466.0 -0.10276765192783688 -0.016948203196598066
1020775969.0 -0.0924884994189139 -0.026940580632880184
1022778472.0 -0.10551727334159378 -0.026176058701945504
1024780975.0 -0.09268070106838622 -0.025750724060768393
1026783479.0 -0.09736814030325358 -0.024696967984700113
1028785982.0 -0.0989431758774153 -0.028562091311488347
1030788485.0 -0.1055154015061266 -0.02895857636942334
1032790988.0 -0.09840614269890235 -0.03506047526175837
1034793491.0 -0.10254237091916096 -0.025667188855436174
1036795994.0 -0.0980977724353328 -0.024440089818660082
1038798497.0 -0.10134368310578268 -0.026959379849163412
1040801000.0 -0.10760127082663296 -0.025693127665761484
1042803504.0 -0.11970786483351192 -0.02584636949316299
1044806007.0 -0.1240973648017073 -0.03143033336002066
1046808510.0 -0.11423111653203366 -0.024402300906446905
1048811013.0 -0.1220925934448257 -0.021505891331099813
1050813516.0 -0.11114925821559218 -0.02902208649487048
1052816019.0 -0.11809685744481446 -0.03195968749808953
1054818522.0 -0.11763578355532911 -0.023925643312308065
1056821025.0 -0.11847159994387924 -0.020893524407357256
1058823529.0 -0.1340927870114048 -0.020697032091058665
1060826032.0 -0.13539913610207244 -0.02800958669188114
1062828535.0 -0.1371574147975968 -0.02207276307920447
1064831038.0 -0.14568644804781916 -0.021285620460233745
1066833541.0 -0.13358840433693442 -0.018837723943461393
1068836044.0 -0.1436587487417742 -0.008369595964301535
1070838547.0 -0.153311180525031 -0.018362095196754913
1072841051.0 -0.14483390602843982 -0.012096312794613984
1074843554.0 -0.1482914096719541 -0.0026083240457435153
1076846057.0 -0.1461720428868276 -0.004473162892341231
1078848560.0 -0.15522858429486464 -0.0002548404462950904
1080851063.0 -0.1539147001593224 0.002365970998690403
1082853566.0 -0.16641864484627567 0.008316868256381671
1084856069.0 -0.17527427594628264 0.004693202345136427
1086858572.0 -0.16890670549741238 0.009163603568832723
1088861076.0 -0.17500632240189085 0.019676745340679536
1090863579.0 -0.186839995651087 0.003413364546297981
1092866082.0 -0.17353772906186848 0.029972548255435216
1094868585.0 -0.1768794317981578 0.03007672088677754
1096871088.0 -0.18973385646424468 0.027727499415721224
1098873591.0 -0.1855815292518188 0.03692604961212953
1100876094.0 -0.18097614041886567 0.040488928852925654
1102878597.0 -0.1944107255648394 0.047677369656568436
1104881101.0 -0.18707791431413034 0.04721302226435836
1106883604.0 -0.193936128276177 0.05974149315130167
1108886107.0 -0.19486376701985952 0.05569574434660801
1110888610.0 -0.18010557112898729 0.07085488320259964
1112891113.0 -0.19791890291779202 0.06926737800199967
1114893616.0 -0.17976449228597158 0.08521764804492027
1116896119.0 -0.18641948728164925 0.08640894357442203
1118898622.0 -0.19316449176539563 0.08182011272754514
1120901126.0 -0.19063534910002344 0.10628217989435096
1122903629.0 -0.1788971462307073 0.08800004901445124
1124906132.0 -0.177587573807084 0.1098219643937593
1126908635.0 -0.1754355466499563 0.11693192770532923
1128911138.0 -0.1880377450595886 0.13031752054588314
1130913641.0 -0.17951733276826154 0.1252034515734891
1132916144.0 -0.18728704697840848 0.12995858257667675
1134918647.0 -0.17539328285427058 0.14770682583460543
1136921151.0 -0.17029198496001707 0.1423533949725998
1138923654.0 -0.178400324663735 0.14202607675306586
1140926157.0 -0.16586587764982363 0.1547166721221861
1142928660.0 -0.15881984616517208 0.1513146747539561
1144931163.0 -0.164026293572909 0.16661781108545481
1146933666.0 -0.16397191489041563 0.17630698176904624
1148936169.0 -0.15674963515293294 0.17662344534377514
1150938673.0 -0.16365875189789136 0.18552384309422568
1152941176.0 -0.14855019613476006 0.18418079603178464
