!Created with skrf (http://scikit-rf.org).
# Hz S RI R 50.0 
!freq ReS11 ImS11 ReS21 ImS21 ReS12 ImS12 ReS22 ImS22
400000000.0 -0.034598834481167406 -0.5137062341990042 0.19342014628461998 -0.3703660686271622 0.22835766120091372 -0.41997129311483195 0.10374503256054834 -0.5718698475229802
402002503.0 -0.034396826645649914 -0.5239487561479352 0.20972647532486374 -0.36613476337838463 0.21579521923672418 -0.4295300208079849 0.07827587171535166 -0.5860549122051902
404005006.0 -0.055504248006263746 -0.5382551764197326 0.21229927780392482 -0.3823733755886903 0.22618939159496917 -0.42122710971473215 0.06062011105028853 -0.5825362592371508
406007509.0 -0.07587010410508821 -0.5341740457038562 0.21639414758878428 -0.38597136883975847 0.23163641605535784 -0.4301241721645236 0.046827779062618924 -0.5919063771873767
408010012.0 -0.09235669975215621 -0.5297338270461485 0.21468119036806457 -0.3863510861356875 0.23891079800855033 -0.4407981950715076 0.04285984925865172 -0.5867310619588039
410012515.0 -0.09904395626235984 -0.5157665891155663 0.22458356370371682 -0.391338020021516 0.23889610558529717 -0.44537579870142624 0.02040465680572745 -0.5881346979956992
412015018.0 -0.11262593158056522 -0.5200347352519101 0.2289112103567488 -0.40147658287701027 0.24472936594710545 -0.4517215888351004 0.008274488907798694 -0.590267784799737
414017521.0 -0.12282073204416799 -0.5211778653796655 0.24111292451571945 -0.4071131111436141 0.24668878443971756 -0.45361983983722837 -0.013893301534761537 -0.586123906129081
416020025.0 -0.1426686258075256 -0.5155745069528379 0.23795906022176144 -0.416927399468371 0.24921392125232383 -0.4665089790785245 -0.014424026180131722 -0.5853762293990523
418022528.0 -0.16135707016646172 -0.50736494760406 0.24752470895512718 -0.4226713806675103 0.2401098035700104 -0.46928502521475335 -0.04808307476607232 -0.5804735070097351
420025031.0 -0.17223473656315968 -0.5020349312347738 0.24841020775450653 -0.4317658874569611 0.2505483683588649 -0.47557738927209614 -0.055337036276102425 -0.5773778376421947
422027534.0 -0.18094374450412098 -0.5099146646047703 0.2600428027729464 -0.44387236110267325 0.24393324168554795 -0.48576380932476315 -0.07887569257609572 -0.57661405534011
424030037.0 -0.1965171098207682 -0.49348596022186353 0.25341322843976144 -0.45133042011933294 0.24541208896072145 -0.4965200357963322 -0.090269903282714 -0.5734449402145616
426032540.0 -0.2059504693580655 -0.4936620883195695 0.2719299092866732 -0.4678372946256796 0.24461005890460696 -0.4981913704081082 -0.11687373669232082 -0.5655180685675453
428035043.0 -0.22931993054032385 -0.49532927327963894 0.2645060790914993 -0.4807560364707097 0.24126592932186572 -0.5034923592936934 -0.12247361623622433 -0.5506321419683173
430037546.0 -0.2427866996079553 -0.4759692007187417 0.27452293489213014 -0.4802288566438443 0.2391591785878871 -0.5262241129020422 -0.13867259924542397 -0.5632820687998218
432040050.0 -0.2465734499917447 -0.4697936762656564 0.2797870743122379 -0.49041715028335864 0.22562723576358254 -0.5259508357663273 -0.16136467622954043 -0.5540151836184709
434042553.0 -0.26164045590168583 -0.4621103802661509 0.2722346272494435 -0.5020811455898824 0.2274897658378804 -0.5318149139463074 -0.17068724660096668 -0.5373358223006337
436045056.0 -0.27155632622741177 -0.4481330705373062 0.2846894537817521 -0.5153354962820251 0.2215691789642557 -0.5464337765851007 -0.18423688210112465 -0.5411226531978979
438047559.0 -0.27946551794218155 -0.4396351039897447 0.27758065806308313 -0.5306432044167604 0.2138807264858421 -0.5461012191439769 -0.2062981307939592 -0.5235869218897318
440050062.0 -0.30223160408280814 -0.43278844774878 0.2732181905328496 -0.5312864286738223 0.21404485776135684 -0.5611664470927805 -0.21334618592920673 -0.5163381341165181
442052565.0 -0.31343536252415904 -0.4214855245690725 0.27566885180419054 -0.5432330047885066 0.2045811929323622 -0.569700151427454 -0.23014979714529316 -0.5067226781451704
444055068.0 -0.3181587016505313 -0.40839920885130676 0.2788517522339526 -0.5536174157386767 0.18722419699749196 -0.5790398299203621 -0.25490836977314024 -0.5014050671572033
446057571.0 -0.3346790262552525 -0.408782036579481 0.26766222529012546 -0.5653203784137285 0.1831860948279102 -0.5817247588778675 -0.2627161332502779 -0.49606466270096305
448060075.0 -0.3441284346289747 -0.3863063814725375 0.2656604885757435 -0.5755949644936122 0.17608381404230095 -0.592244415367769 -0.2799968529192155 -0.48133320130546653
450062578.0 -0.3560316967955557 -0.3755491655487935 0.26364470876990204 -0.5804508355632696 0.1625526163897864 -0.6098010005191747 -0.29801066598789316 -0.47193692006647026
452065081.0 -0.36874878198447014 -0.3486346905488913 0.25667393612941036 -0.5846315729603823 0.1435586324582316 -0.6142067656443071 -0.3133114520920096 -0.4666551650196462
454067584.0 -0.3746549811538389 -0.3461948379322529 0.24887975308625682 -0.5997678324066729 0.1356942323694368 -0.6195774124852238 -0.32368809421637357 -0.45487143328340274
456070087.0 -0.38043122929396744 -0.3275926318084793 0.24315959285030508 -0.6121852916921475 0.11855019280755093 -0.6299085054220221 -0.3482095529472029 -0.44976452538530687
458072590.0 -0.3930784465609275 -0.31275863272317805 0.2295140470156135 -0.6146340090596382 0.10969503804425412 -0.6425296667617476 -0.34856285687091726 -0.44298888154183047
460075093.0 -0.4029407891211223 -0.30144123123786803 0.21922099902599929 -0.6275096584826514 0.09545320061542699 -0.6462259080201465 -0.3747896884093451 -0.4285710857236297
462077596.0 -0.41335817720008294 -0.2899273913106638 0.20688461221966006 -0.6282411951439989 0.09644245929669737 -0.6591802873553834 -0.375031496224179 -0.40831395729091735
464080100.0 -0.42029353927417257 -0.2685548208612041 0.1997495734194305 -0.6401130395318972 0.06664398420286644 -0.6671534272370502 -0.3939704604807347 -0.413549373373683
466082603.0 -0.43345147871108536 -0.25622687199156946 0.18704343037676893 -0.6529988414742237 0.05298227582642734 -0.6731344513388522 -0.4055826700701146 -0.405606112328198
468085106.0 -0.4375240278370225 -0.2415044040814509 0.16908022858733812 -0.6557469606124965 0.054660519126391784 -0.6766857981230348 -0.41343976059720355 -0.3830628139938296
470087609.0 -0.44854002807631554 -0.2246849449227848 0.1564278342430593 -0.6592583280252526 0.03914200994147418 -0.6844722694088924 -0.42070899704360554 -0.3777051525889972
472090112.0 -0.45356498768149855 -0.2150981305123736 0.1383062130346169 -0.6737256061214435 0.021949956010715563 -0.6908523995695186 -0.4329864904103292 -0.3682646161773252
474092615.0 -0.4562226131161362 -0.19290273884386655 0.124209283166753 -0.6757860652208109 0.01222730453340964 -0.7031273394075099 -0.43261874263190747 -0.3525329852798381
476095118.0 -0.4662465522220086 -0.17573202853378034 0.11017624434639488 -0.6793246575750606 0.002167151046047726 -0.7001293963905298 -0.4481446244123689 -0.3434215285634492
478097621.0 -0.4632514408939914 -0.1634550648541031 0.09187753532466456 -0.6832295254162277 -0.004768403398638967 -0.707056158152871 -0.45090788220787936 -0.32855773347256845
480100125.0 -0.46960015812612554 -0.1436495842054617 0.0808625181206777 -0.6947668318173162 -0.025824800006550918 -0.7052326389524991 -0.4702424194957957 -0.32189035662857546
482102628.0 -0.4811566993724903 -0.14239075162888837 0.04970591517873108 -0.696266619841781 -0.028748380009592654 -0.7100101833267188 -0.4714598933447496 -0.30291979500940747
484105131.0 -0.48164873645812967 -0.12469831991105773 0.03396279235057609 -0.7078563615063104 -0.035905815718423766 -0.7104576982041316 -0.47351097736770864 -0.2937641599145395
486107634.0 -0.478895278013149 -0.10604199136773251 0.026497595183363813 -0.7143861281909172 -0.05550582470837914 -0.7117241931999542 -0.4854487821722142 -0.29190844260138415
488110137.0 -0.47562399750009465 -0.09721110552188483 -0.00179297817907082 -0.7263483441699651 -0.05653652109393586 -0.7118736710440983 -0.4868307791097858 -0.26385414388486583
490112640.0 -0.48003659385534725 -0.07896065408852582 -0.02046655364469315 -0.7179747695271401 -0.07170678517240478 -0.7122509951970372 -0.4919899875886855 -0.25287030131904564
492115143.0 -0.4813131212705323 -0.06588765270680552 -0.029511228203203503 -0.7253469552420031 -0.07754514666494983 -0.706498904979928 -0.4952028810941971 -0.2411715142868751
494117647.0 -0.48070282799365227 -0.051425984743077136 -0.057840219414871816 -0.7241314485447184 -0.09047959600873663 -0.7040784568785745 -0.49893527307275054 -0.22606610430327279
496120150.0 -0.47442407274529397 -0.04542901373573638 -0.08004690495125197 -0.7191708082775723 -0.09240179095484605 -0.6985929823422902 -0.5039715281131065 -0.2147342957449765
498122653.0 -0.47639490647755356 -0.026319028942891065 -0.0932546130827584 -0.7270976969629678 -0.11342053672343692 -0.7003045583245469 -0.4949078964367649 -0.20861723686391342
500125156.0 -0.4787993771884429 -0.01756455473901708 -0.11598784348046198 -0.7199204738170921 -0.11635856843508655 -0.6874070382572554 -0.5041871992488741 -0.18886977708713515
502127659.0 -0.47519193468000975 -0.010452214972704543 -0.1384358728963489 -0.7202252558580613 -0.12609155414120615 -0.6839339046202967 -0.5039345857478779 -0.17622831735550437
504130162.0 -0.4683226733821837 0.008618790783998631 -0.15040284834659295 -0.7232124412186646 -0.13804518031030805 -0.6749601818589657 -0.5075276605162097 -0.16636556166649952
506132665.0 -0.4683321668365753 0.01785417752775642 -0.17240311591658208 -0.7121691487314805 -0.1423249713863915 -0.6705295565069886 -0.49744983396120734 -0.14585407388921057
508135168.0 -0.4645021199567969 0.032989372640876535 -0.18706907325289354 -0.7058471656624938 -0.15169672886816726 -0.6593023990323925 -0.5001145848749001 -0.14253018205461532
510137672.0 -0.45823863226799066 0.046275166944547474 -0.2060944205333222 -0.7038394093141069 -0.1643400557984023 -0.6518819183947157 -0.5049954818422162 -0.1296892427705617
512140175.0 -0.4571925694293938 0.052996248869712215 -0.22014276729084145 -0.6954808324172262 -0.17042431714472864 -0.6401698571940423 -0.5065136074946076 -0.11462727879362722
514142678.0 -0.4442886710603613 0.06405717519339515 -0.23510141699354573 -0.6858728620843304 -0.17283052670720098 -0.634537094505518 -0.4986194826089033 -0.09663769114554122
516145181.0 -0.44080067050215643 0.0785931794782444 -0.24941330050994528 -0.6777634085511378 -0.1755140141876034 -0.615577218107932 -0.5020375705216341 -0.08331869260727853
518147684.0 -0.4339094533862068 0.082829776636409 -0.2582367333546673 -0.6639007832695495 -0.18849954738866573 -0.6098442356319594 -0.4924718190924948 -0.07276433937148152
520150187.0 -0.4266146829678379 0.09379064382700808 -0.2763372318774713 -0.658681649716224 -0.1882045262716984 -0.5992775819697751 -0.5072525113798052 -0.058361162148411916
522152690.0 -0.41982056824024405 0.0990328309702635 -0.28744911843666077 -0.6445574245512349 -0.19567220704192653 -0.5840964178799184 -0.499955608287723 -0.04795789408301321
524155193.0 -0.4136169009451416 0.10833874311881608 -0.2929205436434562 -0.6304417429083318 -0.19623060097906234 -0.574123675546177 -0.49501938371502396 -0.03574924980831784
526157697.0 -0.403280785403772 0.11296568569587528 -0.2970012769958039 -0.6194555620599227 -0.20477365822388915 -0.5535359043002085 -0.4953990446597486 -0.01930271800016392
528160200.0 -0.3954616367969045 0.13028012935998312 -0.30454129400449265 -0.6033932369055559 -0.21206552430977366 -0.5491332903264827 -0.48499902081366864 -0.014747585478910752
530162703.0 -0.39105118056663013 0.14213837877834368 -0.3096012606052412 -0.5986236981212227 -0.21155150025179514 -0.5294205329267675 -0.4878384485243935 -0.011402709274231149
532165206.0 -0.3848326501302025 0.15335088492142757 -0.3158353571673396 -0.5863690153867723 -0.2078029139487334 -0.5167148221492787 -0.49618984483485606 0.003214396819199772
534167709.0 -0.3738064764992315 0.15640750975577355 -0.3203940715874923 -0.5671005695354352 -0.21302964093563323 -0.5049892663102686 -0.4947383630760003 0.02326428266349112
536170212.0 -0.37878706614306856 0.1651311281531106 -0.3150388278853834 -0.552174021663979 -0.21806441718961023 -0.4959712216493642 -0.47939064328644365 0.027223677325300843
538172715.0 -0.36079621590868016 0.1650464325495432 -0.317665774572368 -0.5398257232587211 -0.21542777343658062 -0.4847496516619089 -0.48530369742362045 0.040771472804060016
540175218.0 -0.354152516125397 0.17526849700194091 -0.3221841001984259 -0.5305506184171611 -0.21825386290962254 -0.47617455062762026 -0.48563692359753097 0.05584612281697787
542177722.0 -0.35371258140574235 0.18837792989454294 -0.3136994777419701 -0.5173544809874023 -0.21895107240363015 -0.46078624341381474 -0.4780449265895441 0.06088100978458988
544180225.0 -0.34237843464657447 0.19236157238287066 -0.310839443949484 -0.5031390197637851 -0.22411859946120474 -0.45175802107594554 -0.47148670637806056 0.07880719040743456
546182728.0 -0.33455893549375415 0.1974952233106444 -0.31314882065823313 -0.4936617206567969 -0.22360018691614497 -0.4408062886969159 -0.46999964492639423 0.08089617681017147
548185231.0 -0.3224223355287261 0.19811698560678548 -0.3125815293333718 -0.47337376592988056 -0.21939787773974112 -0.43368902798104797 -0.48268806681145837 0.08746947197796784
550187734.0 -0.31836722587980804 0.20959340715528774 -0.3018015386026493 -0.46349333596582626 -0.22310304956970142 -0.42356183441846756 -0.46647236696749594 0.10302310830818262
552190237.0 -0.30742732304002307 0.207650105182541 -0.3031845230189997 -0.45453458684396136 -0.2244882846752589 -0.4195356127135881 -0.4667766070970857 0.10840207762072818
554192740.0 -0.31217794909870256 0.21189019441172452 -0.2956952498247198 -0.43938881036314015 -0.2243783016435247 -0.4143442063808295 -0.4656934820885099 0.11997614737424833
556195243.0 -0.2938236377628305 0.22371221567355448 -0.29483895870228866 -0.43079757975460115 -0.2215284178866076 -0.4051668713238263 -0.4664271052185823 0.13251106915149502
558197747.0 -0.28453309374015967 0.23103114263776625 -0.2867696389279187 -0.4191000026041612 -0.2251314522099739 -0.40546850304130855 -0.45982433328913563 0.14428445536902723
560200250.0 -0.28595349975132356 0.2458657567694118 -0.27920134852913886 -0.42023021363632784 -0.221708907659843 -0.39866795875710015 -0.4572360980672977 0.1454702768879781
562202753.0 -0.2768591692609491 0.24560548913472047 -0.27485276757049343 -0.40445366369932767 -0.22439356169703806 -0.39751078656365785 -0.45950657915410964 0.1600741044598214
564205256.0 -0.2760983823032285 0.24679847667239918 -0.266258611803357 -0.3963327816347717 -0.22434386441197546 -0.3956844320938007 -0.4465031276423716 0.16905180201011105
566207759.0 -0.26546620413236777 0.24885478855192367 -0.2662671629896138 -0.3895629002490475 -0.22040781545560484 -0.3907365261690682 -0.4570840697367913 0.16694502840961445
568210262.0 -0.24299057125787737 0.24974375738130805 -0.2660202184652128 -0.3788975738919129 -0.22177251105113094 -0.39329485233746586 -0.45064934360228953 0.16987982182638206
570212765.0 -0.24594182067299553 0.2569829687434173 -0.2561402534604015 -0.37362194936137244 -0.2179724320509518 -0.39473779011147714 -0.4473200150057286 0.18805617357214477
572215269.0 -0.2500096886721498 0.270509943562822 -0.2526138972853294 -0.37033012934590537 -0.22185179227199942 -0.39440149482682485 -0.44229351862315186 0.19751571778279986
574217772.0 -0.24118987877111897 0.2688713079258126 -0.24706664917555737 -0.36353671964928214 -0.2193987359987086 -0.39353824563301704 -0.42745146146167934 0.1995485636116905
576220275.0 -0.23881989928487024 0.28025176887039693 -0.24865778695886012 -0.3581563498456113 -0.2191717843484523 -0.38672906636429266 -0.42823951824900097 0.19329327975128685
578222778.0 -0.22997514713994704 0.2746159969976951 -0.24078190295450044 -0.35126573646629955 -0.21670878498782756 -0.3932682332289935 -0.42922627917456313 0.20738467609479805
580225281.0 -0.23112499313898138 0.2893088423243745 -0.23941714062825123 -0.3498044113690874 -0.21645977474160152 -0.39761097371462184 -0.43006440596007767 0.22406415673249203
582227784.0 -0.21114935745120722 0.2958065216632052 -0.23882313264863433 -0.3418122178574731 -0.2100575763291243 -0.3974769945299714 -0.4261014449393025 0.22188179526353236
584230287.0 -0.2114920791931041 0.27834124864254095 -0.23331286119344055 -0.33410347062491863 -0.213157951432801 -0.4021725875225169 -0.41664118439590864 0.23428009370724667
586232790.0 -0.21254877964844 0.29995964969445565 -0.23305781033803313 -0.33544201126284623 -0.2070457169717472 -0.4017879881607705 -0.4275926552455961 0.2288437997860826
588235294.0 -0.2048856404749877 0.2993884125891726 -0.23146268800381523 -0.3341054008635643 -0.2059976806276025 -0.40790610634337926 -0.4189337078133454 0.23960981163400497
590237797.0 -0.18673255849681936 0.3057689994468681 -0.23454612685935244 -0.33487748912564214 -0.2067724127725424 -0.4124865440788086 -0.41483755427979646 0.24533472669416312
592240300.0 -0.20321596974647005 0.30511209683219853 -0.23137157038391484 -0.3334686174562889 -0.20613394140997143 -0.4149774971127267 -0.39692047068355385 0.2525276002633705
594242803.0 -0.19338134012987662 0.3222885985998978 -0.2297776072161117 -0.33355708530272504 -0.19745730756313074 -0.4225984869718253 -0.40897192726741227 0.25019647133642375
596245306.0 -0.19032163659416046 0.30519677494811304 -0.2301343008062709 -0.33454186270214203 -0.20195705622015156 -0.42062115344753626 -0.387177145907568 0.2581543415416424
598247809.0 -0.19486874039479474 0.31443785732459684 -0.22613014483338487 -0.3372074400107073 -0.1965942965278784 -0.41860631878384946 -0.3812573970139256 0.2717560189764424
600250312.0 -0.172493766821609 0.31027025432309974 -0.23072676372576592 -0.3387526119464817 -0.19796152920828483 -0.4284496933899663 -0.3736629086540618 0.2810943631456657
602252815.0 -0.1700606253359654 0.3227038727781223 -0.23100103064956823 -0.3408151037078428 -0.1848867655712256 -0.42992493031857965 -0.3808812321483247 0.27499392129637157
604255319.0 -0.17919397884572752 0.31722009026352993 -0.22875120239040314 -0.3436976557135504 -0.18865205862674472 -0.42665454462449515 -0.3620800107353134 0.2763077440453334
606257822.0 -0.17757220324002476 0.3197860590413617 -0.22518147555173146 -0.35185846116464764 -0.1877225848557786 -0.43662587378210255 -0.3603610784296035 0.30520996294401515
608260325.0 -0.16061216581369364 0.34473837584601597 -0.23317098012410276 -0.35684412713817415 -0.17924685392831283 -0.4342821125939553 -0.34873403975926087 0.2915220090453148
610262828.0 -0.16303081511282708 0.32860276957231793 -0.2297933858836807 -0.35635497612100697 -0.1781669257120554 -0.43762443555514136 -0.3562881894353976 0.30862190101457954
612265331.0 -0.16333932952703772 0.32622034792189236 -0.22768941924769942 -0.36104832739435005 -0.17506065984925387 -0.4381439371146355 -0.34060501768534646 0.31250111307839235
614267834.0 -0.1537474914472705 0.33828962087161785 -0.23197962441789682 -0.36937806531549566 -0.17868194985734284 -0.44420285693865874 -0.3342931938172937 0.3303761809499012
616270337.0 -0.15399401498609755 0.32539292402604403 -0.23331618622234215 -0.3719920651859705 -0.1823142971353607 -0.43776518279979604 -0.32253078384638484 0.3254033230702298
618272840.0 -0.1558605184187728 0.33036640249527505 -0.23065728223630405 -0.37882828192368306 -0.17225521834110938 -0.4402592496547461 -0.32492218932682326 0.32481092124537003
620275344.0 -0.1465223749614758 0.3402141674001241 -0.23754938507201878 -0.3861410977602709 -0.17364443690708714 -0.4392056127344338 -0.3192185877907293 0.32589179710097516
622277847.0 -0.14798939051843923 0.34397660584644396 -0.2356172671967068 -0.3938443906861383 -0.16926207026592158 -0.4393678229493209 -0.3096249813725729 0.337515430924173
624280350.0 -0.1211978723513581 0.3475668780861858 -0.24033756433065342 -0.40046303752565066 -0.17569874925075285 -0.44457570452445905 -0.3035901018204583 0.3527964992328476
626282853.0 -0.138950728296851 0.3426775278062123 -0.2409726272705448 -0.40611024017640707 -0.17571922384513392 -0.4445341964468621 -0.28031371551718864 0.35329699244916146
