# Hz S RI R 50
! CMT, S5085, 16077402, 21.3.2/1
! Date: 11/17/2021 5:19:55 PM
! Data: Format (Calibration Info)
! Freq	S11:Re/Im(F2)	S21:Re/Im(F2)	S12:Re/Im(F2)	S22:Re/Im(F2)
1.00000000000E+06	9.99093752485E-01	-1.41649419916E-02	5.03289574926E-06	-2.63215569382E-05	3.88444617641E-06	-1.51623796215E-05	9.99731648897E-01	-1.41270440224E-02
9.49900000000E+06	9.92158452653E-01	-1.41596176023E-01	8.17488577290E-06	5.99379565443E-05	-2.23863185443E-05	2.44047257423E-05	9.91888263215E-01	-1.34874452478E-01
1.79980000000E+07	9.63735474936E-01	-2.64858515267E-01	2.64927624418E-05	3.58928970693E-07	8.83822596262E-06	6.09079709542E-05	9.67457213610E-01	-2.52644767493E-01
2.64970000000E+07	9.22860573463E-01	-3.81515287260E-01	5.38635513267E-05	5.47987457594E-05	2.97995961336E-05	8.37251803528E-05	9.30314498865E-01	-3.65417813332E-01
3.49960000000E+07	8.68684545187E-01	-4.91737579648E-01	6.04632058074E-05	7.88110621022E-05	1.78296981529E-05	6.28581124665E-05	8.80485716824E-01	-4.72281087195E-01
4.34950000000E+07	8.02346332723E-01	-5.93661771568E-01	6.33808049391E-05	5.12748035450E-05	3.95861989971E-05	8.62870587970E-05	8.18985360334E-01	-5.71780168214E-01
5.19940000000E+07	7.25204929969E-01	-6.85159374471E-01	7.84617668412E-05	8.05943177941E-05	7.14514214579E-05	6.32225953556E-05	7.47739504811E-01	-6.61644451823E-01
6.04930000000E+07	6.38958612485E-01	-7.65785410113E-01	1.12634443766E-04	8.01400461815E-05	9.50722260747E-05	7.63443576623E-05	6.67509930106E-01	-7.41647669570E-01
6.89920000000E+07	5.45996322921E-01	-8.34246858126E-01	1.28080521607E-04	5.35809621436E-05	1.14477972659E-04	8.13510759024E-05	5.81012232683E-01	-8.11093105280E-01
7.74910000000E+07	4.47323364076E-01	-8.90490593343E-01	1.40475716990E-04	7.20016433692E-05	1.49255763941E-04	9.79884912439E-05	4.89326335500E-01	-8.69162729580E-01
8.59900000000E+07	3.45386413919E-01	-9.34465061568E-01	1.63286391849E-04	7.59461123626E-05	1.77970337347E-04	5.72202086794E-05	3.93683637288E-01	-9.16117335421E-01
9.44890000000E+07	2.41455344761E-01	-9.65956042413E-01	2.10826014569E-04	4.37519808465E-05	1.95966322167E-04	4.80341857590E-05	2.96137966196E-01	-9.51675925431E-01
1.02988000000E+08	1.37263083170E-01	-9.85631093319E-01	2.05929733197E-04	3.24350039798E-05	1.96600555729E-04	4.74166407054E-05	1.97433243205E-01	-9.76490039164E-01
1.11487000000E+08	3.42818506089E-02	-9.94091845230E-01	2.16454987626E-04	3.89766750992E-05	2.52299537648E-04	3.59112311425E-05	9.94325999804E-02	-9.90803315067E-01
1.19986000000E+08	-6.65704791748E-02	-9.91705405616E-01	2.68426816766E-04	3.50835101029E-06	2.21275559709E-04	-1.50257864586E-05	3.18002820639E-03	-9.95283575141E-01
1.28485000000E+08	-1.64493918610E-01	-9.79826685280E-01	2.80848065795E-04	-5.51575475512E-05	2.45037940445E-04	-6.72182869407E-05	-9.09933940237E-02	-9.90448397604E-01
1.36984000000E+08	-2.58140628928E-01	-9.58623219838E-01	2.99945792204E-04	-4.49466827818E-05	3.05890696309E-04	-9.66010635217E-05	-1.81921574705E-01	-9.77044268972E-01
1.45483000000E+08	-3.47576319203E-01	-9.29376870156E-01	2.92602713004E-04	-1.24756575139E-04	3.11602163431E-04	-1.12152084984E-04	-2.69200931950E-01	-9.55953954335E-01
1.53982000000E+08	-4.31792294393E-01	-8.92543979681E-01	3.27743422648E-04	-1.38137704084E-04	3.01337583935E-04	-1.62827565077E-04	-3.52431091036E-01	-9.27365627013E-01
1.62481000000E+08	-5.10770376829E-01	-8.49166803187E-01	3.42564432172E-04	-1.92146508962E-04	3.54939879730E-04	-2.23197906336E-04	-4.31023867654E-01	-8.92437281637E-01
1.70980000000E+08	-5.83518170567E-01	-7.99981257375E-01	3.50619875123E-04	-2.22847402210E-04	3.53150815977E-04	-2.55200631895E-04	-5.04978255339E-01	-8.52122898975E-01
1.79479000000E+08	-6.50906183068E-01	-7.45423456726E-01	3.75413184194E-04	-3.20080582302E-04	3.39080639534E-04	-2.90344464658E-04	-5.73919405271E-01	-8.06350618970E-01
1.87978000000E+08	-7.12103009878E-01	-6.86087308506E-01	3.85779588956E-04	-3.81352871938E-04	3.63085632275E-04	-3.39214629868E-04	-6.37505077093E-01	-7.56579098847E-01
1.96477000000E+08	-7.67259545641E-01	-6.22825080030E-01	3.86272586874E-04	-4.30499315667E-04	3.80399298686E-04	-4.51757594485E-04	-6.95883545957E-01	-7.01788573973E-01
2.04976000000E+08	-8.16132994458E-01	-5.56079914310E-01	3.79073349543E-04	-5.23857724066E-04	3.60280123941E-04	-5.41731715083E-04	-7.48810695415E-01	-6.43537911269E-01
2.13475000000E+08	-8.58784636111E-01	-4.86026075654E-01	3.62855106403E-04	-6.00015557020E-04	3.89784361632E-04	-6.21169670619E-04	-7.96642119955E-01	-5.82120453233E-01
2.21974000000E+08	-8.95215708006E-01	-4.13156474928E-01	3.51994795143E-04	-7.14209455106E-04	3.33829284086E-04	-7.02376676577E-04	-8.38925359168E-01	-5.17770602561E-01
2.30473000000E+08	-9.25269509001E-01	-3.38197350592E-01	3.39047832862E-04	-8.29035401639E-04	3.33291634830E-04	-8.13897624450E-04	-8.75765397322E-01	-4.50688222076E-01
2.38972000000E+08	-9.48960883269E-01	-2.60830168114E-01	3.17307974634E-04	-9.44770702932E-04	2.85042336300E-04	-9.82387498548E-04	-9.07230999433E-01	-3.81211953049E-01
2.47471000000E+08	-9.66434195646E-01	-1.82021160764E-01	2.49367195401E-04	-1.14712169207E-03	2.41915046656E-04	-1.13799675470E-03	-9.33387916708E-01	-3.09655452609E-01
2.55970000000E+08	-9.77271648807E-01	-1.01388440944E-01	1.91064531580E-04	-1.30371854765E-03	1.87057850788E-04	-1.35497566035E-03	-9.53647266074E-01	-2.35895610748E-01
2.64469000000E+08	-9.81198363053E-01	-1.97269233119E-02	7.67942882360E-05	-1.55017516209E-03	8.05439626401E-05	-1.55163960287E-03	-9.68120966052E-01	-1.60079186597E-01
2.72968000000E+08	-9.78384331358E-01	6.34018558812E-02	-2.97798679375E-05	-1.79222101101E-03	-7.17209003575E-05	-1.81980830896E-03	-9.76754637007E-01	-8.24271337979E-02
2.81467000000E+08	-9.68049219385E-01	1.47253885471E-01	-2.59978705833E-04	-2.09738671860E-03	-2.82132012974E-04	-2.12937978321E-03	-9.79045705029E-01	-3.12608113741E-03
2.89966000000E+08	-9.50087996896E-01	2.31550847879E-01	-5.34483122090E-04	-2.46981849764E-03	-5.15114700286E-04	-2.49197556514E-03	-9.74714760442E-01	7.79473410851E-02
2.98465000000E+08	-9.23994422688E-01	3.16315548758E-01	-9.28536880213E-04	-2.95735459440E-03	-9.25111727255E-04	-2.95478285877E-03	-9.63227449645E-01	1.60701173235E-01
3.06964000000E+08	-8.88748624278E-01	4.00827741466E-01	-1.41148526188E-03	-3.48616523626E-03	-1.45929696248E-03	-3.49543421720E-03	-9.43819695260E-01	2.44725822823E-01
3.15463000000E+08	-8.43933316560E-01	4.84851614450E-01	-2.22051396060E-03	-4.14890960630E-03	-2.25632947138E-03	-4.17581328389E-03	-9.15722034059E-01	3.30006858645E-01
3.23962000000E+08	-7.88121202816E-01	5.67934879697E-01	-3.32306218322E-03	-4.94069693435E-03	-3.36758933636E-03	-4.93618661402E-03	-8.77929297608E-01	4.16436369495E-01
3.32461000000E+08	-7.20287642693E-01	6.48948237845E-01	-4.99283474683E-03	-5.87259853467E-03	-5.02387963159E-03	-5.83401512895E-03	-8.28695236806E-01	5.03238494656E-01
3.40960000000E+08	-6.38098375725E-01	7.26233255994E-01	-7.44277526405E-03	-6.89443931333E-03	-7.50992579505E-03	-6.88200782943E-03	-7.66257345238E-01	5.90156870916E-01
3.49459000000E+08	-5.39928537446E-01	7.98123498129E-01	-1.11825452765E-02	-7.91666211391E-03	-1.12653312198E-02	-7.90814562324E-03	-6.87879727813E-01	6.75755080998E-01
3.57958000000E+08	-4.22650964092E-01	8.61775463469E-01	-1.68607977353E-02	-8.65520589032E-03	-1.69864591898E-02	-8.61994507171E-03	-5.90010746853E-01	7.57666234830E-01
3.66457000000E+08	-2.83038445490E-01	9.11661988243E-01	-2.58148518668E-02	-8.34415603275E-03	-2.59773069048E-02	-8.25356592952E-03	-4.68221584273E-01	8.32796029619E-01
3.74956000000E+08	-1.17403340662E-01	9.40382335126E-01	-3.98336792164E-02	-5.09958978663E-03	-4.00544369540E-02	-4.92540709423E-03	-3.15956487009E-01	8.94242637562E-01
3.83455000000E+08	7.81953187258E-02	9.34277850298E-01	-6.18765429009E-02	5.71954650121E-03	-6.20889959410E-02	6.02340053429E-03	-1.26107905093E-01	9.29716615575E-01
3.91954000000E+08	3.03578412785E-01	8.68586593404E-01	-9.45460505201E-02	3.56020106977E-02	-9.46958751652E-02	3.62951665303E-02	1.09921697877E-01	9.13559242876E-01
4.00453000000E+08	5.44039353564E-01	6.99692181317E-01	-1.31781386728E-01	1.13345662803E-01	-1.31466858265E-01	1.14455069827E-01	3.88307797280E-01	7.93769483987E-01
4.08952000000E+08	7.19516861965E-01	3.62633759677E-01	-1.13495824638E-01	2.91328592601E-01	-1.12116595203E-01	2.92341799657E-01	6.38571095794E-01	4.76984189231E-01
4.17451000000E+08	5.99535766830E-01	-8.37276552785E-02	1.77050901265E-01	5.08748860312E-01	1.78237097803E-01	5.08229105169E-01	5.83382718246E-01	-3.10421043663E-02
4.25950000000E+08	2.15944168463E-01	-2.01353019839E-01	6.86858153424E-01	2.71462730637E-01	6.86924621468E-01	2.71082491907E-01	1.45671067593E-01	-2.08341250519E-01
4.34449000000E+08	6.67512174347E-02	-8.58443953250E-02	7.42631801250E-01	-3.23991292149E-01	7.42535833921E-01	-3.24325194436E-01	-3.95171594194E-02	-3.53909875266E-02
4.42948000000E+08	2.29960701521E-02	-5.23330408557E-02	3.86928216939E-01	-7.33786056423E-01	3.86483789359E-01	-7.34002977263E-01	-3.24545925057E-02	3.84419858078E-02
4.51447000000E+08	-4.09036650915E-02	-1.90738888018E-02	-1.05353196880E-01	-8.30000378855E-01	-1.05651333442E-01	-8.30076955511E-01	-4.41484614433E-02	4.75495314464E-02
4.59946000000E+08	-6.68898913716E-02	5.51703673757E-02	-5.39218901592E-01	-6.40431948471E-01	-5.39389695672E-01	-6.40200661443E-01	-6.32724069391E-02	7.79333386178E-02
4.68445000000E+08	-2.55970782575E-02	1.13612372164E-01	-7.92199243244E-01	-2.65721112114E-01	-7.92443800014E-01	-2.65307218103E-01	-4.39428275147E-02	1.17275393870E-01
4.76944000000E+08	4.05429701677E-02	1.13211925225E-01	-8.16697026172E-01	1.72391239923E-01	-8.16476490902E-01	1.72861691940E-01	7.25629657669E-03	1.25642628455E-01
4.85443000000E+08	8.21405726367E-02	6.82889800166E-02	-6.20335838373E-01	5.57835814378E-01	-6.20210263171E-01	5.58309455605E-01	5.55092791001E-02	9.37162525571E-02
4.93942000000E+08	8.96595666469E-02	1.70247781318E-02	-2.59185467478E-01	7.91675946752E-01	-2.59069816619E-01	7.91801496977E-01	7.95713478015E-02	3.99906473556E-02
5.02441000000E+08	8.32947460309E-02	-2.41916164956E-02	1.69865349367E-01	8.12136583307E-01	1.70145860851E-01	8.12233856467E-01	8.00758356101E-02	-1.77157419428E-02
5.10940000000E+08	7.32343527103E-02	-6.63067017283E-02	5.50105466325E-01	6.13337876965E-01	5.50643272603E-01	6.13145166286E-01	5.97255396094E-02	-7.34806882395E-02
5.19439000000E+08	4.42565902629E-02	-1.14008495962E-01	7.77122598290E-01	2.49036619937E-01	7.77259042858E-01	2.48759383632E-01	1.39850718623E-02	-1.18535910172E-01
5.27938000000E+08	-1.47192956389E-02	-1.42495506347E-01	7.86118817111E-01	-1.80556215242E-01	7.86078834871E-01	-1.80813427296E-01	-5.21199029551E-02	-1.29696013299E-01
5.36437000000E+08	-7.79822682978E-02	-1.22682813924E-01	5.72111873855E-01	-5.56265999439E-01	5.72036801769E-01	-5.56830056466E-01	-1.05843281864E-01	-9.10281343861E-02
5.44936000000E+08	-9.81216248349E-02	-6.55610306870E-02	1.85107943338E-01	-7.69477474384E-01	1.84547008582E-01	-7.70039910307E-01	-1.04940466864E-01	-2.55481912068E-02
5.53435000000E+08	-6.16432344963E-02	-2.63402139603E-02	-2.71750416647E-01	-7.35296934238E-01	-2.72619095608E-01	-7.35346011432E-01	-4.64378996348E-02	8.78899254931E-03
5.61934000000E+08	-1.94284897530E-02	-3.91196265748E-02	-6.38555111695E-01	-4.32141511275E-01	-6.39215694427E-01	-4.31627603293E-01	1.07706936896E-02	-1.92724030248E-02
5.70433000000E+08	-1.35978922610E-02	-5.70942166256E-02	-7.50449969918E-01	4.76492847892E-02	-7.50759097084E-01	4.86930390478E-02	1.77424311115E-02	-5.52912855102E-02
5.78932000000E+08	1.19753329369E-02	-3.76030393866E-02	-5.19817858690E-01	5.08432338745E-01	-5.19312095193E-01	5.09570351347E-01	3.14480916659E-02	-3.97382740997E-02
5.87431000000E+08	9.66908709347E-02	-6.89607499515E-02	-5.44292722752E-03	6.86808334450E-01	-4.52806169397E-03	6.87066741127E-01	1.21788653832E-01	-4.54560031910E-02
5.95930000000E+08	8.73453915524E-02	-1.53648203504E-01	4.83178079490E-01	3.93839253503E-01	4.84265920357E-01	3.93484475638E-01	1.83652748994E-01	-1.26845085069E-01
6.04429000000E+08	1.69816761435E-01	-3.08504642958E-02	4.49641172102E-01	-2.08688154865E-01	4.49465126005E-01	-2.10260066557E-01	2.99300880033E-01	-1.39529002515E-01
6.12928000000E+08	4.88482403609E-01	-3.63544781354E-01	-6.92525231004E-03	-2.36056157901E-01	-7.85281474532E-03	-2.36659670489E-01	4.62964392898E-01	-4.95009976851E-01
6.21427000000E+08	2.69610351230E-01	-7.54631346331E-01	-6.08002010072E-02	-6.42510749790E-02	-6.12623615370E-02	-6.43136047359E-02	2.25267171784E-01	-8.00065525168E-01
6.29926000000E+08	-2.78144173296E-02	-8.69063290667E-01	-3.37155229645E-02	-1.32216961784E-02	-3.39450374796E-02	-1.31317383007E-02	-4.19651654881E-02	-8.83586605470E-01
6.38425000000E+08	-2.65748345241E-01	-8.61262158673E-01	-1.64309333137E-02	-1.13997516868E-03	-1.65365167466E-02	-1.04597165161E-03	-2.54165863572E-01	-8.74055840575E-01
6.46924000000E+08	-4.46201604461E-01	-8.03870446621E-01	-8.08153185884E-03	1.34497122318E-03	-8.10503710010E-03	1.36139693557E-03	-4.17501700509E-01	-8.25685187509E-01
6.55423000000E+08	-5.82825735424E-01	-7.26069600248E-01	-4.06140498400E-03	1.49038083318E-03	-4.07036538588E-03	1.50990581293E-03	-5.43901870949E-01	-7.60471004167E-01
6.63922000000E+08	-6.86827188612E-01	-6.40481125514E-01	-2.11629649515E-03	1.18600059687E-03	-2.10557633836E-03	1.19109139915E-03	-6.42693564130E-01	-6.88202200095E-01
6.72421000000E+08	-7.66694222209E-01	-5.53200325785E-01	-1.12139023720E-03	8.48416883579E-04	-1.15570758117E-03	8.80208782684E-04	-7.20355466734E-01	-6.14194996181E-01
6.80920000000E+08	-8.26926554158E-01	-4.67200666123E-01	-6.18483697364E-04	5.83397558441E-04	-6.20263022128E-04	5.82495834244E-04	-7.81874764293E-01	-5.40441813576E-01
6.89419000000E+08	-8.72734176206E-01	-3.83818254149E-01	-3.38572663181E-04	4.06800374624E-04	-3.22148041954E-04	4.13081852112E-04	-8.30788395619E-01	-4.68637517258E-01
6.97918000000E+08	-9.06801322937E-01	-3.03598837542E-01	-1.83661609049E-04	2.86090091271E-04	-1.83566848947E-04	2.76735417001E-04	-8.69297603748E-01	-3.99265443876E-01
7.06417000000E+08	-9.31337308371E-01	-2.27335212771E-01	-1.03614344864E-04	1.88753048914E-04	-8.90190055593E-05	2.09745523180E-04	-8.99311922718E-01	-3.32772044434E-01
7.14916000000E+08	-9.48117890870E-01	-1.54746958829E-01	-4.88813492549E-05	1.25668262510E-04	-7.31986795468E-05	1.08316632559E-04	-9.22448133615E-01	-2.68939100968E-01
7.23415000000E+08	-9.58337800728E-01	-8.59030855877E-02	-5.18811874717E-05	8.80918310291E-05	-5.10158527050E-05	7.54102484361E-05	-9.39433984996E-01	-2.08072942272E-01
7.31914000000E+08	-9.63477473896E-01	-2.06773781038E-02	-2.70023508802E-08	7.32016999379E-05	-1.41569895428E-05	7.92978648673E-05	-9.51410012425E-01	-1.50136197039E-01
7.40413000000E+08	-9.63761215201E-01	4.08457133123E-02	-2.81328772018E-05	4.14229195760E-05	4.06022090713E-06	6.79128795255E-05	-9.59460478180E-01	-9.47073117502E-02
7.48912000000E+08	-9.60668887058E-01	9.94557119583E-02	-1.90960256856E-05	3.30375755581E-05	4.91468980004E-05	2.08561941208E-05	-9.64086002730E-01	-4.17774137075E-02
7.57411000000E+08	-9.54182530105E-01	1.54939502876E-01	4.97729096603E-06	4.20341489677E-05	1.36330041243E-05	1.25133866675E-05	-9.65815939373E-01	8.34450059106E-03
7.65910000000E+08	-9.44884025928E-01	2.07497886097E-01	-1.58091661246E-05	6.41993409774E-06	-1.62657280492E-05	7.18215099338E-06	-9.65209119714E-01	5.65366147867E-02
7.74409000000E+08	-9.33627736753E-01	2.57250711453E-01	2.42414764050E-05	2.14256199749E-05	-9.27798045783E-06	3.30457080730E-05	-9.62040541949E-01	1.02449878335E-01
7.82908000000E+08	-9.19762280010E-01	3.04466311006E-01	-6.05729049998E-07	1.35687753627E-05	-7.53518827582E-06	2.41503891857E-05	-9.56889636294E-01	1.45981064924E-01
7.91407000000E+08	-9.04188117338E-01	3.49370431470E-01	2.54430693748E-06	1.12265249860E-05	-4.09541889610E-06	1.76053059262E-05	-9.49869601672E-01	1.88036534044E-01
7.99906000000E+08	-8.87037130346E-01	3.91751881972E-01	-7.18873249160E-06	-4.25226602999E-06	1.27719600901E-05	-4.20863630724E-06	-9.41456007847E-01	2.28094510119E-01
8.08405000000E+08	-8.68485181165E-01	4.32163243323E-01	-1.75710530221E-05	-2.51937728105E-05	1.15940537128E-05	-1.13043764472E-05	-9.31611136358E-01	2.66880060723E-01
8.16904000000E+08	-8.48720278861E-01	4.70326256736E-01	-3.35687842588E-06	5.01407949757E-07	2.29492486901E-05	6.20394504509E-05	-9.20602725434E-01	3.03642120190E-01
8.25403000000E+08	-8.28211641269E-01	5.06587407732E-01	1.05501555968E-05	-1.27173156614E-05	2.57815405039E-05	3.87710628334E-06	-9.08711241201E-01	3.39747175193E-01
8.33902000000E+08	-8.06602942315E-01	5.40889992127E-01	4.26904605540E-05	-1.60762059649E-05	-1.33646668745E-05	2.64557721929E-05	-8.95293024537E-01	3.73725499627E-01
8.42401000000E+08	-7.83931824075E-01	5.73454052075E-01	-6.82230639285E-06	1.04685497679E-05	1.49968037330E-05	2.71124338626E-05	-8.81347007096E-01	4.06797973992E-01
8.50900000000E+08	-7.60826177998E-01	6.04084016958E-01	-1.88805105056E-05	-5.60504915969E-06	4.60296932262E-06	3.06409737159E-05	-8.66030185636E-01	4.38077380371E-01
8.59399000000E+08	-7.36874523202E-01	6.33478957235E-01	2.42321405232E-05	5.49912004299E-06	2.18837247741E-05	-1.55549511403E-05	-8.50373746554E-01	4.68630972062E-01
8.67898000000E+08	-7.12468051664E-01	6.61048956386E-01	-2.16763628546E-05	-1.99729768561E-05	6.92763310947E-06	1.14371918274E-06	-8.33916043612E-01	4.97483197312E-01
8.76397000000E+08	-6.87452703635E-01	6.87627127027E-01	-1.42425745621E-05	2.38349625035E-05	6.03474273611E-06	-2.17957288894E-05	-8.17229754966E-01	5.25204003090E-01
8.84896000000E+08	-6.62422540006E-01	7.11999707189E-01	-2.49954021791E-05	-4.07693686611E-06	-6.70224127869E-06	2.70082071888E-05	-7.99896931492E-01	5.51814054134E-01
8.93395000000E+08	-6.36599208298E-01	7.35596300745E-01	-5.73001393938E-06	-2.31826753851E-05	-4.07523597708E-05	-3.13475589826E-06	-7.81788244580E-01	5.77289880816E-01
9.01894000000E+08	-6.10707921667E-01	7.57442575381E-01	-1.80004234663E-05	6.01314284680E-06	3.83429187556E-06	1.86575257667E-05	-7.63805005067E-01	6.01522263900E-01
9.10393000000E+08	-5.84544424287E-01	7.78244932510E-01	-1.14746712530E-05	-1.28392362969E-05	-1.99384225304E-05	1.19923947338E-05	-7.45161346006E-01	6.24798667257E-01
9.18892000000E+08	-5.58068747867E-01	7.97608572090E-01	-1.31003704934E-05	-3.16261276703E-05	6.66231768135E-06	3.84450232376E-06	-7.26235577923E-01	6.47099766605E-01
9.27391000000E+08	-5.31313690993E-01	8.15720632272E-01	1.20718584541E-05	8.06043120932E-06	-1.35692351097E-05	3.61416273606E-06	-7.06895120300E-01	6.68559346765E-01
9.35890000000E+08	-5.04669215981E-01	8.33110052215E-01	-2.01279531982E-05	2.34111589467E-05	-5.00909686200E-06	1.60450329404E-05	-6.87515324537E-01	6.89028515094E-01
9.44389000000E+08	-4.77575484720E-01	8.48865711988E-01	2.48670791995E-05	8.41530009828E-06	4.91860106424E-06	-1.83347354921E-05	-6.67324369432E-01	7.08445213340E-01
9.52888000000E+08	-4.50399550847E-01	8.63957254085E-01	-4.02957361611E-07	-1.64627245035E-05	2.35440377989E-05	-3.33557174976E-05	-6.46935519458E-01	7.27013788685E-01
9.61387000000E+08	-4.23391646268E-01	8.77754739385E-01	-2.73718666478E-06	-2.78092930877E-05	3.31512185178E-05	2.89083005070E-07	-6.26613981825E-01	7.45234088143E-01
9.69886000000E+08	-3.96091499554E-01	8.90583593002E-01	-1.27574293551E-05	3.80297228517E-06	2.33669528395E-05	7.54050416307E-07	-6.05444541213E-01	7.62182207336E-01
9.78385000000E+08	-3.68967836316E-01	9.02160887856E-01	-9.96624851874E-06	1.11967682463E-05	2.35146730050E-05	-7.85251173680E-06	-5.84142902476E-01	7.78711412979E-01
9.86884000000E+08	-3.41656341336E-01	9.13213422492E-01	-5.62067408235E-06	-6.26895591175E-06	1.55849446333E-06	-3.53087432283E-05	-5.62747711151E-01	7.94344918211E-01
9.95383000000E+08	-3.14329800476E-01	9.23096293411E-01	-8.14346713377E-06	1.20114904753E-05	-1.15379918161E-06	-1.18168332582E-05	-5.41503706597E-01	8.09398420942E-01
