!Created with skrf (http://scikit-rf.org).
# GHz S DB R 50.0 
!freq dBS11 angS11 dBS21 angS21 dBS12 angS12 dBS22 angS22
0.001 -2.5352432140941907 -155.85992955350633 -6.724061586063126 -54.601833342336896 -3.8195059162233864 -51.84872017169836 1.8915032195282577 -174.2356129769752
0.041393939 -11.29295403033193 -41.894575536356776 -5.600976746244464 93.5875913780443 -11.596922181090235 177.93666243352197 10.695910733872973 1.2313982600566458
0.081787878 -5.588193117942418 10.61581999275358 5.6441762074789095 -141.5964933884714 -3.369830552385986 -62.79719231799957 10.707300465003463 75.83731095652445
0.122181818 -6.689351959956014 -103.09752415137709 -1.1742818296184454 -56.72245409812024 15.3373583624846 127.81879499425966 17.098097766530454 -54.282779645977
0.162575757 -8.183461829059548 166.9288421795478 -10.924368478777154 123.63346050841325 -4.268675114541194 57.50725606849021 -2.1842902955986236 76.49786640169329
0.202969696 0.4386501757984582 -168.42044602808784 -1.780877082430016 -65.82822832673351 -6.473708898894475 -9.074297005711287 -8.79391147436974 110.07199481250468
0.243363636 2.3867893308589156 -139.808424080137 2.0070930093785435 -136.94826139735682 -5.95814367350645 20.497710376931366 -12.053329732503453 -127.03473783851739
0.283757575 -9.284505247741695 -168.48422837775212 -2.429920999899136 1.8748321072011846 -6.193411444929882 51.66470101301309 -6.547475422178141 -136.92082465442826
0.324151515 -23.249885251495304 -108.95639652703254 0.8091555112051696 -9.085753059624903 -8.846870064109979 -2.834930570455767 -7.166086195353802 -104.4955470910072
0.364545454 -25.529968498997654 71.4132662864982 -1.0502173266221562 -114.53494375549067 1.3063312032814802 72.41986146013717 -3.5419182762435852 -58.15245235342537
0.404939393 -16.70999648972531 58.35503334934215 -0.17534674875263312 61.64367093985472 -4.626522443535554 145.40319437089556 0.804988085376938 -142.46140468425028
0.445333333 -1.2891666225950766 59.67180133629846 18.008679573462658 -41.693658982596645 -3.97997112730645 -157.4182156003806 8.223450374382992 164.74585409210937
0.485727272 -4.3650978626866515 95.26023226608567 -9.277726887989834 93.5575392895377 -3.496678205376959 64.19080106504899 -3.423448015714481 -144.1121470172867
0.526121212 -6.988805550081483 116.36078831682293 -0.2541521311956672 66.57429323574281 6.609472213192532 -159.53243754126208 3.8117966685302127 179.73841013824443
0.566515151 -1.1410643587527645 171.1603793053874 13.032660153547251 -118.78209353349858 -5.409064433289799 -1.350863194157167 0.73028732622754 144.37897103420357
0.60690909 -7.765045337361036 -127.05339434700026 -4.255765174457744 -35.10836645748956 4.58327220492727 -2.1290256516256205 -16.13269843371803 173.26479804173934
0.64730303 -1.9773721123636956 139.6222083876844 0.20849881128549957 -34.09768589487607 -9.84646917686007 137.02740886546485 -16.186684828717066 61.68874790982979
0.687696969 -5.4046011411297314 -110.84469310973024 1.0765927670721578 -24.775437447134518 0.06567367361971607 -3.743239214098814 -25.90970056941896 167.337501260299
0.728090909 1.3095576139663687 170.84901227717603 -18.451383361603217 -93.07824640415159 0.2116619153416335 -33.174108316765114 -28.44526969767811 45.04841191757804
0.768484848 5.055885938096559 171.1520313487897 -3.504699319519697 43.46440363132339 -0.44184314983228357 127.49208937506675 -38.498752154570546 85.15375747988686
0.808878787 0.4868523809861104 167.79014084523953 -0.12424663800258749 -21.78710219301627 -7.601508205643715 109.35560383973697 -23.926979338181905 114.82633912689381
0.849272727 4.277908779308977 167.5564621893849 0.46127679028757873 -175.41012308115683 3.3425454478235626 -73.77958862434144 -13.003169779677734 51.458900692055884
0.889666666 4.38713792936909 -120.58088951949183 -6.843868136762872 96.94397073550925 3.730410628597118 86.85745289068916 -10.014841571756977 86.37783086317695
0.930060606 18.847773221220255 -3.064196887773394 12.433007934444738 176.92255626345047 11.718061474268591 24.043380608647627 6.657596249492441 163.69556149720492
0.970454545 -6.36865165628388 -41.66094607657046 -4.631556133167942 -22.571804654493622 2.717408816312135 -4.323064143872891 -21.77676337862735 117.02991722435137
1.010848484 6.404180333544826 -101.74692345730993 0.6516933857979067 82.76063642063211 -0.6443037161053864 107.36001185888189 -12.014911064101877 19.143200156934547
1.051242424 -2.0286335128864583 -79.96847497038179 -10.566200486366812 -11.637112724947862 3.9241567526872774 -29.250921656882976 -21.208721375171542 29.060480458693306
1.091636363 -3.1756293301843512 -140.49023117703925 2.460211822907332 9.847864037710604 -6.826573117210152 33.166755981720776 -18.170156512009633 -82.91751299432295
1.132030303 -2.988425579778262 -139.18024511715896 -6.8797507439893035 -69.571421304795 4.060896975041402 119.80453626614757 -15.639852551993771 -97.86197782796003
1.172424242 -21.411624804619116 -72.58541995253289 0.6359411955830263 -27.404176192552228 -1.4254970947133048 29.673532268333183 -24.076377666578708 -33.35340274707655
1.212818181 4.093880411134863 116.50613627187681 1.2913845057331348 43.932424243370235 1.1570370667946523 -47.72301444499007 -2.8843841332080618 66.16738749534208
1.253212121 -14.79498362711648 -157.48681493999445 -1.5952393372227778 4.6775350264033655 1.8990217276760597 4.833679097592841 -17.175034233815058 95.99451827340343
1.29360606 4.295563044508838 -113.19003821638596 -1.7962565568885267 15.158052027432385 9.975601832302994 54.416047133170956 -0.5145662879162795 95.64014540572194
1.334 -17.63621434145518 -65.0320981244876 0.7676659400565227 -33.992367315245566 -2.8053146284731123 53.23085362719601 -17.674251666968757 117.93505026816291
1.374393939 -10.70722673120811 8.955816065065493 -5.733428143188652 77.85705507419964 -8.164488852709335 -88.70452520502528 -6.763256045711294 150.52740914039995
1.414787878 -7.609201099795932 22.168275966550798 -0.3612833740277063 -7.514520794817356 -6.2061730611040735 32.636967388480564 -3.766871692784641 -168.63054951704976
1.455181818 4.283376767581945 39.45693480743543 -8.946059684938206 73.55929337937494 -7.6881970837680935 -136.38296851290877 -5.41359223186228 -44.48329382583367
1.495575757 8.213570642530602 -18.17061659183249 -7.15063007239562 -116.97961268384604 -0.6610179123617989 21.05976422449853 -7.457086208047945 -8.134283010552862
1.535969696 1.1746551065587738 -30.06240601152781 -2.149851288913638 23.594450410045884 -4.9898018011642 -79.05601831907974 -14.906833678781094 8.222546775725139
1.576363636 6.980740318490759 82.36069958468232 3.333834912076506 4.207951922017054 4.40659310831823 -50.235924098312786 -9.216160324654057 104.41155871202652
1.616757575 11.945002219165517 13.393505686695818 6.040796820863542 174.57679018167318 4.914287698128359 152.1881178316415 1.6577851675482957 -41.64754054984666
1.657151515 10.306654688425084 -122.7012722458685 -5.314048588913407 34.41336964033164 -3.4810436617710208 -60.8548030612283 -23.735603314039878 146.37436517590515
1.697545454 8.955771613478783 39.195627692269774 2.5061148519867387 -32.96197005469725 8.979056608100516 39.8787220607883 -12.504593063393648 4.704036859273677
1.737939393 0.9160814122644527 -161.76384974443562 -0.4775407450788272 23.043256094776705 -1.6683409309758606 30.89643424489986 -15.324044615631074 108.82682270616824
1.778333333 -5.348064724192531 -122.43541033729058 -4.783627212350034 35.292367504752356 -5.0179980782539175 -40.695270659430996 -19.71946743489988 148.11945378364803
1.818727272 -2.6219420138693166 156.24142875047048 2.0515465867373477 -0.6887121188385497 2.811732446128535 49.96084598504061 -14.30299548046116 12.50126247511199
1.859121212 -4.131057691666722 -71.50856667638409 -1.7207800675208615 6.150904621573108 -3.6837355013327544 -129.42089377134099 -11.947904090056971 137.87187278634886
1.899515151 -10.449108503428604 -69.5937643379646 -6.918977268521614 41.63617075329526 -8.123062654460629 -39.3272468750073 -13.582258656293394 101.71833011604402
1.93990909 -2.0543254355113056 -103.47193205182306 1.5314179999322013 29.79558978923899 0.8864074290240099 96.3056947121375 -5.613102335974575 37.88415634130836
1.98030303 -9.08582582199142 -93.34498044949231 -1.296331623784578 139.7786248767421 -3.107992661473029 -30.189696410515158 -12.917219051414177 43.581128352589865
2.020696969 4.001016249228976 -81.16370756961861 3.7647083048874896 128.7889379717213 5.751143197175725 39.57241500867466 -1.9449367668320443 22.17883107043289
2.061090909 -6.691270110213447 -62.96921082332922 -1.000766314844343 103.75508636206919 -2.732749863560363 73.99164375542111 -9.149302565383541 -8.318871669294928
2.101484848 -1.3308522952524156 7.448253840268273 11.851537295290404 -115.86156298096523 -4.715652316055267 19.823293238900707 -7.161789263484447 55.58095333320244
2.141878787 -6.328439837940211 -87.50928827431025 -5.933815438676322 59.251871186302594 9.180582189262745 51.96100016537871 -7.614860983100323 -67.99177048270563
2.182272727 -8.691984085171544 -33.93592555950338 -5.548834909742437 123.78637453319023 -4.032273792692807 -24.011891142081616 -11.100328438918044 -76.41624293921835
2.222666666 -1.606740940037871 -24.19972146061301 4.090209365092491 84.82864665587431 -1.6135606763573518 126.22115578889587 3.1448007468399948 -98.4345426819598
2.263060606 6.491373042099005 131.0216210847168 0.8161180424362436 -21.935124470001043 10.060697308379257 72.44881079589669 5.619533624785796 -14.816764669007318
2.303454545 -13.617973944972404 -51.710642087514294 -4.727693841592236 28.473528987045476 -1.4902244413489014 -23.650430991807244 -15.385220363961082 139.71942196057938
2.343848484 -2.52815260851601 -85.04856693064202 -0.7889388931997742 -7.754188366930067 2.204440564455608 91.09762106384092 -1.1876135945432573 103.13195150886176
2.384242424 -25.08444441223272 -86.36402089577724 -4.602211654570938 24.561284025713643 2.9377779409095477 -13.043762782920034 -20.263161406172184 110.28879515107046
2.424636363 -41.86201099223072 139.79577199836837 2.0490671107205487 2.197727056698314 -1.1364958517710098 -4.244004315433279 -17.359297933220937 -66.86582553373287
2.465030303 -8.418965738242992 -9.021139418921303 7.233098748801479 117.54574886463003 0.3492355771063843 -11.691806459593252 -3.3834096512576153 109.31150065655345
2.505424242 -11.621680684609426 76.21021854954633 -3.3322522411453765 -50.155269260433016 1.2593906369135757 -13.91246968921717 -25.048273215295353 155.49929547631083
2.545818181 -10.595421550113924 65.05310084146113 -5.683976103448058 -127.19423049681245 -6.191033847659546 -2.804825002279019 -19.355409829454715 50.32678064622551
2.586212121 -4.05853421058644 35.041347922479595 -3.359383675963673 17.1785553786402 -4.976393926883403 98.50925914272275 -13.456401166357601 -52.21695955685343
2.62660606 -3.2037765744277373 8.405925043586421 -9.453219757663778 175.27512443229577 -4.076978741931578 -61.872700362443716 -7.238689238775956 40.833171393241834
2.667 -4.00174845124001 9.444391083564248 -25.563247578788626 -121.49479054039931 -22.008454100828025 -177.4960066007237 3.1544963669800867 -15.555741350002142
2.707393939 -7.2125599088099985 -75.15771984265334 1.5636876927262653 37.7914432435144 2.7088069722890613 45.48510441430479 5.635738358774222 -88.95017968277884
2.747787878 -17.306320909580258 160.45305974091198 3.1595188903682816 -4.284134809003616 -1.8732464187416222 12.594511045321006 -13.371605909657497 -15.230359013789133
2.788181818 -13.46065419834984 97.28172326848747 -3.529956471345751 10.03495208939863 5.924765572670103 -22.915229375476777 -29.5223840558237 -5.567930780135094
2.828575757 -15.257454016107609 17.429580051161317 -0.12473212817615244 -5.63443526239634 -1.4877583178346023 -20.392225386577568 -31.94239041936719 138.55411773195976
2.868969696 -11.56441484593429 40.2481529321167 0.25561121670390846 -32.83708490754433 -1.733253160206516 -17.16443113373391 -11.752396421725946 -156.49133173647544
2.909363636 -11.546472879162017 -4.914474191833075 -5.043757536529746 -45.81824351213019 1.3539484053958812 5.127759848796871 -11.108430088216089 178.20785234570022
2.949757575 -12.678248948723196 39.77043175999281 -0.11339697077844865 -62.928479005897366 2.9348350330847284 19.500606514568478 -15.103015923508503 -123.12469877029989
2.990151515 -23.926220485860217 -23.81558093230149 -5.199303244220744 -26.599966008253748 -1.1461889165055887 10.069690024816506 -24.292146582157798 155.53367579524885
3.030545454 -18.57090360501732 48.099685966213556 0.8429532914872409 178.54721323070956 1.9688448560849745 12.527163857867425 -10.002461281666658 -170.42342672083095
3.070939393 -17.27635875260118 -9.300409233408368 1.3149256050623097 24.151707304255492 2.7038940829076905 7.320769499847623 -12.763741835948037 135.24839522648412
3.111333333 -15.186853304225728 29.767766610195963 1.9424878482706978 50.08441690672759 0.23477479769928816 -6.589924703953582 -16.88477456219552 -150.62896777982297
3.151727272 -10.47249840989382 166.77823904248828 -1.2283509505511978 -35.74615576310352 -0.07053058812487262 -31.605721389161012 -13.856896215296556 5.9684880953867525
3.192121212 -4.062407907321516 36.48522506491934 -1.4271199582347571 -1.7413813628241754 6.347374495264458 74.17619406663789 -11.545606438568 -67.26344383576183
3.232515151 -15.197954612745527 120.60282103913394 -1.5552368198552682 3.1386384411786734 -4.33932472098765 -37.72382952291591 -20.2484466523941 61.120383612429954
3.27290909 -21.08214151048859 -50.191156782568434 3.091734197910663 -0.9554569329759941 0.4639352241839362 16.111895048724907 -17.408881920439395 -144.8893293841521
3.31330303 -17.940158416442245 33.27158605939412 -1.4467073183797643 23.551508182065255 0.35864322139956045 10.643362337249386 -24.619146041522303 -85.58956617596267
3.353696969 -12.821508212513812 44.92157154230449 0.9476750152733816 46.66240794838 -3.0033798493182333 6.121702167737663 -29.132349953605875 -30.111362673877373
3.394090909 -13.85805475887395 -168.6049306891456 1.9734543527149033 -16.00386020610179 -0.2255604737710061 -1.562783880197173 -32.468030311502616 41.98176340996126
3.434484848 -5.199514349375068 -90.3902138055703 2.33154995932529 -2.6161162799094924 1.697374204571457 8.721935777616359 -16.487527182750394 101.41293842474033
3.474878787 13.639913797010848 -166.80502265543413 13.879708091381357 -19.451727029659427 7.343412134755476 -26.712633599194444 3.6147054254167497 93.1788877034234
3.515272727 -3.835017430737971 -149.95806263426263 4.507916866036576 10.38771439030308 1.1169730166877252 7.278781603364361 -13.507291596588026 169.10332173061934
3.555666666 -29.606027728440523 -159.1367157442102 1.3088947151915242 -19.933073852611624 -1.571449758820692 26.56046663368284 -17.748671866845672 -45.031182256214414
3.596060606 -4.6820277854220835 70.55441047177632 -2.8758542267581158 -25.233391759076817 -5.049814049841635 -7.745890563365218 -5.769911202401051 -16.384751452561467
3.636454545 -13.608880950775823 149.72444885671078 0.6154693065271204 -32.03916094810677 -2.2851246196708104 -3.426508298795179 -5.812082149298744 1.3795647573552496
3.676848484 -22.453328014109857 9.86732225902582 -2.2034661029302134 -3.1418978458220486 2.024107939315345 10.42164693212508 -15.062114561531354 155.30369131842366
3.717242424 -18.767539988541195 -85.47430429081307 3.0760866643296856 -7.251442985290987 -0.04781927469446791 6.336619215115325 -16.760934533239684 179.99679328645226
3.757636363 -17.773129556129085 22.508259888018532 0.828509422600306 1.1847555010218556 -0.354347005471191 11.53214221250016 -24.30184857995552 -89.67190089777827
3.798030303 -22.99672108661816 -57.28439840138687 1.2024343796077483 -1.7929337525572941 0.4376496592107732 7.645257697059757 -30.874637839148757 -0.2748898703682045
3.838424242 2.7492345414312584 178.76845029378202 7.418269429811648 -117.19547993216885 -0.6637403549284178 4.902125165328073 -12.391386914105475 156.62701046918784
3.878818181 -15.488191592742663 114.68522608453215 -0.30226337961099975 -17.091825813560376 -1.5768280743292222 11.619540802157411 -28.65585649554088 -138.56700598393118
3.919212121 -7.030506871894736 98.0696105497268 -3.9147083888706575 -34.664132838685305 -0.10661720554810712 -8.57066111791946 -13.465562519576252 -122.29148295817248
3.95960606 -14.551232409213931 -2.759205287081526 -0.4567156465649191 -3.453814592916811 -1.987012410900225 7.794873319044461 -44.78576741095508 -141.68140725993314
4.0 -33.04689208392657 -103.38515810523779 0.7184639524676573 12.814577165013306 -0.7443820188980073 0.5943393011905485 -20.409450343797126 14.007277381251921
