!Created with skrf (http://scikit-rf.org).
# GHz S DB R 50.0 
!freq dBS11 angS11 dBS21 angS21 dBS12 angS12 dBS22 angS22
0.001 -2.00742403977821 -6.772795009275224 -inf 0.0 -15.2221016299114 48.42964286764686 2.5092644697645006 129.55204867916692
0.041393939 -9.59521694551322 -4.726143750524878 -inf 0.0 28.875895629010753 159.0336108658057 6.769999151653387 -9.151876331566903
0.081787878 -10.270069209727865 -21.29937382630794 -inf 0.0 35.95623958547475 -44.99865789702001 9.291392077261547 -6.7689489546293915
0.122181818 -13.097519017958101 -49.377593563824014 -inf 0.0 56.025712753266546 27.984834437730445 7.186906299708422 -140.2965070165286
0.162575757 -14.676529851609875 -111.27717969489133 -inf 0.0 35.75928344782136 56.22783803833659 -13.423397931507917 -92.49969360207879
0.202969696 -6.075166757766666 -173.17085720767173 -inf 0.0 34.59940206731566 149.5590955440417 -11.736376926550518 -14.003951289670992
0.243363636 -0.5830606384354922 164.17438518325667 -inf 0.0 36.704202098915715 -119.29562287534786 -9.142991900528973 41.33849540805295
0.283757575 -2.533756081939877 145.7583884384661 -inf 0.0 37.6717875915619 26.65347443825318 -6.647471718800887 47.09682661996712
0.324151515 -7.119332129381006 138.43029978154647 -inf 0.0 25.30313585159226 -165.30732344542642 -5.401710668804101 118.38846602366603
0.364545454 -12.818212011351893 143.46990412353566 -inf 0.0 36.549814987376436 84.22284826339146 3.3927095594308403 174.15207870184258
0.404939393 -17.749197823221913 170.64466093702427 -inf 0.0 31.55553035039886 -67.03248544110765 2.7772680934367933 -141.43942207734338
0.445333333 -18.29675235247673 -166.77552703489943 -inf 0.0 39.18868849126072 59.33390694547939 -5.244170983854476 -101.08077564659631
0.485727272 -17.698364480218927 114.94460356557097 -inf 0.0 39.92469155432851 164.55291288477167 1.701745609421865 2.6425342166085497
0.526121212 -8.782931592579134 -60.07290471635307 -inf 0.0 52.7830753554316 -41.79494480562288 12.401115338492305 -41.381470791838105
0.566515151 -6.292519564452021 -85.91592359464659 -inf 0.0 30.7355819686498 0.4514227909559232 -1.544445184014236 -131.271085885829
0.60690909 -1.7486629510847735 -88.92088836435546 -inf 0.0 35.92833769602556 -177.12086004065426 -11.146169062102675 -109.19892712780525
0.64730303 3.4506660594343 -122.02774980535395 -inf 0.0 31.827534193157035 10.932869144348853 -13.423607758950913 -60.38043706338112
0.687696969 3.3932338641964233 -167.32731779747115 -inf 0.0 35.07398529317696 156.31419597633743 -10.670175333798454 -38.777059363834915
0.728090909 0.8808025552076977 -179.21662287081784 -inf 0.0 49.36731866872446 -40.59050261093733 -11.080582855677186 -85.74305525040991
0.768484848 0.34031722271377995 -179.56577093672774 -inf 0.0 44.995544057652175 114.65479099114475 -31.80041964587634 -43.39008268695718
0.808878787 -0.504935693754814 -176.2421602350325 -inf 0.0 39.77188552269335 -51.83100882126429 -19.14051607586536 71.9321735249887
0.849272727 -1.9219588977005067 -162.9029842503608 -inf 0.0 42.974596254428306 60.682180800613246 -12.66154522705792 81.83132153523034
0.889666666 -0.31469575941529576 -143.2378162692036 -inf 0.0 43.5841674299757 133.68103198278945 -7.900251189707093 104.92584790873767
0.930060606 2.660710305708591 -140.73852719270096 -inf 0.0 48.93380925106647 -153.2927341102719 -3.116163398361162 136.01187527800994
0.970454545 6.059994804475643 -176.21958175242008 -inf 0.0 52.44323025519924 -173.61684494227543 -0.7767023870179719 -12.308599086232753
1.010848484 6.671681003431233 167.90711735904725 -inf 0.0 40.39279689816685 90.1303102869346 -4.996034097789987 19.632280058494263
1.051242424 8.836037986512762 127.64379059539925 -inf 0.0 38.394275557498474 153.00572588806781 -5.899996256721192 50.81195556336015
1.091636363 6.401375059740863 50.83397407550201 -inf 0.0 38.42784014358073 -146.8688857661013 -4.409216622040068 75.9734013793241
1.132030303 -0.10438972893000376 48.463577708590755 -inf 0.0 44.810596176600434 -58.21497178547125 3.293227509571987 89.02228147981499
1.172424242 -4.296429125762274 54.361551437912986 -inf 0.0 27.58052076777026 127.02322376413015 3.94581865871021 28.37625274337734
1.212818181 -10.953124415346231 88.83167388521002 -inf 0.0 30.14264619829465 -55.47001600817402 1.1613845437414485 15.044180028851452
1.253212121 -6.5158710236811865 160.1038093129384 -inf 0.0 27.899264399593964 -116.6823427276031 -1.1347436257644223 25.27075332454325
1.29360606 -8.269802333762199 163.0942575270154 -inf 0.0 41.08888872042738 -134.71316014409993 1.9547444420584659 45.0068795546514
1.334 -12.38790685410898 139.65526988697337 -inf 0.0 32.028241056258935 -52.95825786900517 11.543703200850393 40.41736716166401
1.374393939 -12.561017457420867 87.14100831559978 -inf 0.0 25.129190596705122 55.071234810815426 4.120714164776377 -52.17307108187463
1.414787878 -4.790987693862261 65.26074751328049 -inf 0.0 20.42564717293068 83.45639567515875 -1.5264567296727756 -23.35715884151277
1.455181818 8.819077776139698 46.87661343626902 -inf 0.0 16.323641456623143 -14.11467303711875 -2.240412284083346 4.390420313552553
1.495575757 1.550516323612146 -82.37601509355319 -inf 0.0 28.907158967734187 107.05407866608248 -1.9789583827994717 9.213476402727384
1.535969696 -1.7677845674350592 -102.08020833330586 -inf 0.0 26.4518163778239 -16.253522442383588 -1.9067394382853373 26.271639013685437
1.576363636 -0.37101818624066174 -108.17460768142588 -inf 0.0 28.393734865228694 160.9510933935525 1.8252958085920699 28.627446734463785
1.616757575 6.487959633370784 78.13462408849615 -inf 0.0 5.058509956968643 100.49806930984565 0.2246480331403271 14.47639576018773
1.657151515 -17.54544141891498 121.01462000557608 -inf 0.0 24.164347982926117 -12.254959274366833 -4.186467413090585 12.509226643670289
1.697545454 -6.34093013490819 174.3570843041247 -inf 0.0 33.24198443183509 72.84712101904256 -6.315098737125541 45.79728350010196
1.737939393 -1.4440803293309354 -169.8931459818777 -inf 0.0 24.14578579632491 -38.268214820587424 -2.3584152672101864 46.88611796476749
1.778333333 1.9815279640127368 -159.16383642142645 -inf 0.0 27.482637275867113 -24.42138436957023 -2.7255121232017747 91.71849497942695
1.818727272 3.1079649353069843 -141.67495144624505 -inf 0.0 28.691413495313654 166.16986045649648 4.244178143919839 114.18328755995539
1.859121212 -0.5944614509323848 -127.59919291180267 -inf 0.0 40.72101944240064 13.754700534765332 15.177404510928802 148.26577230800842
1.899515151 -2.6501025926733317 -113.36114047258175 -inf 0.0 39.12631215921533 132.94677957240734 11.504380521722336 -5.180082815895543
1.93990909 -2.855644109423377 -128.71684969064262 -inf 0.0 39.536682033199014 39.5154794018091 10.201075039461243 5.8989986006143615
1.98030303 -9.391968940655442 -155.9968555604261 -inf 0.0 41.99088544916688 169.4755540941218 16.93856570957911 22.441968005098055
2.020696969 -15.387319698604927 -161.1255616744535 -inf 0.0 40.26286664165753 -4.308097130525697 13.497388427361056 -37.7528539511855
2.061090909 -19.460730269216228 -151.58880385445232 -inf 0.0 27.51589236197958 -110.31142015759038 7.245275824277286 -26.730954958376095
2.101484848 -13.082424088062425 -141.48740093255986 -inf 0.0 27.032763100538055 94.8738769025764 5.3881071732995025 -9.734479123968496
2.141878787 -8.239477693738571 -146.69389680628487 -inf 0.0 38.71296258775348 -63.97822093729225 5.950969062558534 2.6267966377795804
2.182272727 -4.337358567064891 -153.52014501226986 -inf 0.0 38.45537102890473 70.78477618459456 6.526250740581339 -21.432361713916784
2.222666666 -5.8000945826382635 -146.63203188898117 -inf 0.0 15.059802665831635 33.04781971540465 4.745031990821837 5.559149292365815
2.263060606 2.6929121384680488 -85.90787829267661 -inf 0.0 40.31839095685228 -130.6846814140218 9.12051738661134 -28.995981331998877
2.303454545 5.033370504844633 -91.04477741184901 -inf 0.0 25.07306683298257 22.60524788742564 7.116395808448117 -28.809906145950094
2.343848484 2.461147344146986 -58.703788129481886 -inf 0.0 36.555019523944104 97.67166092536465 5.526599282479411 -13.37537089842216
2.384242424 0.015277748807871092 -73.4925529383962 -inf 0.0 37.22503408386841 103.31452782643674 12.718655293752501 -14.584614396758376
2.424636363 -4.1131254756611675 -51.42276398056148 -inf 0.0 30.269709606281538 -135.26659907604352 8.45747009481427 -112.38918293941259
2.465030303 -3.6775025968699033 -42.1067052077804 -inf 0.0 20.360449936947465 100.54427505778371 -1.178590863796261 -84.27799185007554
2.505424242 -2.123525456693725 -53.3156434511296 -inf 0.0 24.644382526106376 -27.812717641710968 -2.7604382757542547 -20.496593691841483
2.545818181 -0.990144604547115 -58.1510066452431 -inf 0.0 25.698710308707536 -148.31542726003465 4.686333925945236 4.813589331404111
2.586212121 -0.694738379766937 -48.610585621076055 -inf 0.0 27.9917260765895 -113.34636528951893 3.108661042970413 -45.65341941152573
2.62660606 1.7659776504726663 -26.958679177664887 -inf 0.0 2.9593564640740184 105.86102883802224 -1.9891201782875272 -23.471610317894296
2.667 5.078176569512932 -12.436274414543433 -inf 0.0 9.122549259079635 -152.7735539018901 0.2883945591037178 6.869290295320291
2.707393939 -1.5727397074910752 36.6600894036901 -inf 0.0 -7.232041998211124 -144.13445860528273 1.1438006928478737 4.550801224238314
2.747787878 -0.48805798914378107 62.10055829498977 -inf 0.0 11.812024861769125 48.92382575379373 3.0011168776251402 17.47070484622482
2.788181818 -1.851443085868014 85.06817840975366 -inf 0.0 29.07465075552393 -136.97639970050727 9.967497749587096 21.368503599964512
2.828575757 -1.794610761312023 98.99902657914775 -inf 0.0 18.87530555833964 -16.517378509713037 6.889447466816733 -100.94012682253818
2.868969696 -1.5494369870240545 71.8951036314231 -inf 0.0 8.970194696456332 -122.80693678382904 -0.5472722050255995 -64.4294865878456
2.909363636 -4.669222783495594 72.15746084454442 -inf 0.0 12.043989687145462 143.3392548518116 1.5658444368487514 -55.09610660155781
2.949757575 0.39203971899271806 97.63268286929761 -inf 0.0 20.48167554920298 41.86767664628452 3.1115796276091863 -47.787142600388734
2.990151515 11.315541592923356 110.92251518104744 -inf 0.0 24.008651235838467 -74.6259909439349 6.625431889408279 -78.30423037588726
3.030545454 3.437038446892806 175.35547051846584 -inf 0.0 15.523523288605361 118.24933311658326 4.882495768051195 -78.96630185659353
3.070939393 -0.3696361143608383 151.12628081722633 -inf 0.0 12.354934896903787 12.39809168978151 4.6580769982328105 -74.30557417709332
3.111333333 -1.6045718230542672 149.95888050057914 -inf 0.0 10.630274090065164 -79.07353280208596 2.7764377764946695 -67.76767541139357
3.151727272 0.14975083805142292 161.7051708396134 -inf 0.0 10.14850864736073 154.09054308638332 0.8075629839267396 -60.02953968343926
3.192121212 -0.19081354443151893 169.29518165902707 -inf 0.0 15.607071880404318 108.29654298946993 -3.429465337254945 -56.714514453738715
3.232515151 -3.9642277719285635 157.31682356103133 -inf 0.0 4.01193101821193 -94.10331742683623 -2.3056617163199924 -42.483460762410516
3.27290909 -6.125015789344436 143.59796774629984 -inf 0.0 1.6624261872127233 172.48224026509595 -3.297466073320887 -51.451404465521016
3.31330303 -4.062840796359986 132.55638691422928 -inf 0.0 4.684926880019285 16.903340299098033 -7.230869352631024 -58.49722313523323
3.353696969 0.1242484953737159 130.06769183918485 -inf 0.0 1.2230715224016095 -97.37951081348301 -9.502242430737608 -56.57978770334664
3.394090909 4.99337245498848 105.56782396972984 -inf 0.0 -0.1963628387101652 118.95716571306153 -7.5866893806715225 -24.934237419853286
3.434484848 25.797725039560703 -173.4643334877068 -inf 0.0 0.8061039463072701 -113.21733251841333 -4.853397937591865 -20.945091571747025
3.474878787 4.003234358397682 7.104123682792967 -inf 0.0 -5.726816921130111 -111.03287021199115 -2.5318197839921353 -15.754151913246302
3.515272727 -6.6150402199297265 -7.2741059213116275 -inf 0.0 -4.288254631004599 98.12849743811661 -1.3233853700571876 -15.990227603164037
3.555666666 -4.167583862790374 14.028313230881574 -inf 0.0 -2.060714672845612 -13.492813418322637 -0.32704248818766934 -15.11504306812163
3.596060606 3.6894715355034586 -1.8515452120744127 -inf 0.0 2.665419334905204 -118.53967902181301 2.657327399798823 -16.861111409448423
3.636454545 7.616856207463018 -169.90332631603454 -inf 0.0 5.201174767786275 21.7931795879323 4.142073743344522 -7.844247051931263
3.676848484 -16.016157661641355 134.98469311989723 -inf 0.0 -5.012152007106674 -110.61503828198143 1.8305693287747704 -22.295015750981698
3.717242424 -15.076940073844224 141.78338054527265 -inf 0.0 -3.574529418041789 87.70418089113174 -0.9020072923195005 -29.03340150025668
3.757636363 -8.257079405039534 140.75034754739193 -inf 0.0 2.338392047026007 -61.9715502545384 -4.674821734193072 -45.38953525098541
3.798030303 -11.00051452870169 156.22638627810505 -inf 0.0 0.9405860258127481 139.0220102996914 -8.429186341810059 -43.61986024126936
3.838424242 -7.721287311959424 -179.28180400645638 -inf 0.0 -4.850961896372531 -21.158332417553904 -12.831474031077299 -27.947568475257995
3.878818181 -8.239633978077887 130.67638961363141 -inf 0.0 -6.734409001120124 174.3722594848459 -12.441991109623235 6.781540640333679
3.919212121 -3.2634760569728383 126.04109568294727 -inf 0.0 -7.337188088020543 37.801401370375906 -6.678509320463732 14.079349992017468
3.95960606 -4.333714211363134 31.032876256266682 -inf 0.0 -4.203219386374768 -84.7025312863537 -5.2998532761728745 -17.308300363212023
4.0 -10.591089792288045 70.22263412904087 -inf 0.0 -3.5030084600696836 148.8638206621621 -4.631678721883315 -57.0050792220516
