!Created with skrf (http://scikit-rf.org).
# GHz S DB R 50.0 
!freq dBS11 angS11
0.001 -0.00808132167677354 -1.3138941077508572
0.008998 -0.07089808935744736 -6.806566673569105
0.016996 -0.0378964901061347 -10.132809761865408
0.024994 -0.10397184682096981 -14.887352444592672
0.032992 -0.2520706208467175 -19.776405267216195
0.04099 -0.05459495232755311 -24.464971496581935
0.048988 -0.11979094628412602 -29.02626937481144
0.056986 0.06583774659529391 -34.13411278256739
0.064984 -0.07284461873873029 -38.268034920260206
0.072982 -0.015996732383658976 -41.919043305159754
0.08098 0.086933054209201 -47.909522033585965
0.088978 -0.13154090776231675 -50.019105790698795
0.096976 -0.07401741042841768 -55.16581969886035
0.104974 -0.3124445249665286 -59.22750752889669
0.112972 -0.24280362900370156 -64.01542043800592
0.12097 -0.6408201887921823 -70.0329315542402
0.128968 -0.7147393824944472 -74.19932396963415
0.136966 -0.5927261143157639 -79.63305616709621
0.144964 -0.601684745531925 -83.93538211363061
0.152962 -0.4464058230148823 -87.75866379408494
0.16096 -0.27778305438931233 -92.37077139707051
0.168958 -0.17253841072455067 -95.96202752715374
0.176956 -0.5137285828560191 -99.93350272680256
0.184954 -0.6400171651867812 -103.19704585960461
0.192952 -0.8666954172220852 -108.35753091234898
0.20095 -0.7077952184675335 -112.55349780117386
0.208948 -0.8910236955900339 -117.57643899657788
0.216946 -0.8382318143053431 -122.14430889449999
0.224944 -0.8574158702126533 -127.49053388794235
0.232942 -1.113412513577525 -131.812043739663
0.24094 -0.646418456400133 -135.99866976893273
0.248938 -0.6962187885249654 -141.10143591535228
0.256936 -0.7561703254946833 -145.68026957383913
0.264934 -0.6690836461944728 -148.28621692667045
0.272932 -0.6899985842512034 -151.50127840492027
0.28093 -0.7196694754767572 -154.73487667952955
0.288928 -0.8862346400776162 -159.54874004177674
0.296926 -1.1837225298569425 -164.2026754978655
0.304924 -1.1663488923131373 -167.97436859160973
0.312922 -1.2537546356298155 -172.6361451177355
0.32092 -1.098727144372385 -177.27475865223226
0.328918 -1.2679931121978583 179.09224745941592
0.336916 -1.4772811274426156 174.68081439329418
0.344914 -1.1994236684409958 169.77562685700843
0.352912 -1.3506440451711008 168.4722571388311
0.36091 -1.4521661622766138 163.2616753474483
0.368908 -1.5441216068647012 159.41869117737323
0.376906 -1.5186991857906287 155.54222105789083
0.384904 -1.4899936092932564 152.60674750966027
0.392902 -1.668874594384143 147.09801360283137
0.4009 -1.55109985207987 143.98757846163508
0.408898 -1.6606937428801918 139.31314991873865
0.416896 -1.7112338459725769 134.015360966367
0.424894 -1.8107410614585218 129.76020229666995
0.432892 -1.9428091224922615 126.57792915755749
0.44089 -2.036808837999501 123.21336886359853
0.448888 -2.0072565192642835 117.01842255587052
0.456886 -2.125688422033058 113.67212798780163
0.464884 -1.8955902624720455 109.27362764973662
0.472882 -1.7336454763407936 106.78695024892053
0.48088 -1.9465386193298744 102.82129108124732
0.488878 -1.8404937184933765 98.59699572840479
0.496876 -1.9686688873503433 96.680748918065
0.504874 -1.9789041005625054 92.44430151045127
0.512872 -2.1314207771061393 86.15737763575916
0.52087 -2.3816319253361464 84.28228039007402
0.528868 -2.3542806490030426 80.47996377640402
0.536866 -2.4739961358880285 76.99205145204087
0.544864 -2.5148643320431545 72.00047249985884
0.552862 -2.8549297383241985 68.26239937957772
0.56086 -2.957664381742125 63.00387619578426
0.568858 -3.001051610232502 59.37522787655291
0.576856 -2.9328726784682786 56.06713381626107
0.584854 -2.85582994958331 52.049744018034886
0.592852 -2.946452772048689 48.26179971317115
0.60085 -3.063026750197734 44.836625093679096
0.608848 -3.324398748295692 40.72198926913034
0.616846 -3.410282594854621 36.342915073814694
0.624844 -3.7038480180557416 31.904359281754413
0.632842 -3.7133490513331884 27.6403828366854
0.64084 -3.9493015185017337 22.78273145174482
0.648838 -3.9167882084032457 18.942251458066064
0.656836 -4.103643225726143 14.236651962051983
0.664834 -4.325329583567771 11.303883353120353
0.672832 -4.404714618354429 5.972899898125037
0.68083 -4.471331274602946 3.019468892395505
0.688828 -4.6500735577848245 -1.2696085377824213
0.696826 -4.73746232341707 -5.360286073603114
0.704824 -4.990709619400792 -8.937975599909725
0.712822 -5.015116312549484 -13.527818839223508
0.72082 -5.145045818249856 -16.894727120384548
0.728818 -5.594520478158945 -23.39039651491258
0.736816 -5.6875139746994785 -27.036460344714904
0.744814 -5.764715244804002 -32.36809857389164
0.752812 -5.775967655224358 -35.527647013401506
0.76081 -5.885478519903703 -39.46776654386099
0.768808 -6.395059943328205 -42.710396272774545
0.776806 -6.439701054502565 -48.455495063481365
0.784804 -6.60085790028114 -49.81721777098495
0.792802 -6.7797021044822445 -55.055274666867746
0.8008 -6.738681504968124 -59.4412732921851
0.808798 -6.917221459405379 -63.04609075894325
0.816796 -7.276135847568511 -69.36252888717891
0.824794 -7.692818559669164 -73.53410141292808
0.832792 -7.402331836855799 -81.44511061999168
0.84079 -7.368701106988876 -82.46877761446031
0.848788 -8.052246990439617 -87.29540479317173
0.856786 -7.694813057288721 -91.54026299022489
0.864784 -7.717071026512011 -94.18878389918098
0.872782 -7.684713179111489 -100.51998568279014
0.88078 -7.847021035202754 -106.186093556746
0.888778 -7.994576535648115 -109.02501633176816
0.896776 -7.9916276530315935 -115.03567664275381
0.904774 -8.27751082649631 -113.85001204986351
0.912772 -8.537923175518845 -123.17299809541556
0.92077 -8.423050666929047 -125.76661198070363
0.928768 -8.801388750843675 -131.44924499746242
0.936766 -9.275263056079766 -136.7174575264562
0.944764 -9.082967712587543 -140.4618222204239
0.952762 -9.232636789335197 -145.84190108301763
0.96076 -9.169080408473855 -149.34619078805
0.968758 -9.271536286767363 -155.21435882477883
0.976756 -9.14933542760932 -159.0228296602929
0.984754 -8.922921246974706 -160.71792126958374
0.992752 -9.299510850116862 -164.58816505051936
1.00075 -9.586290718832192 -171.0171167015203
1.008748 -9.0035115232314 -173.2660480431596
1.016746 -9.46261090513216 -177.52451504921842
1.024744 -9.344990715911095 177.20174330378526
1.032742 -9.32634802418239 174.40094830851302
1.04074 -9.405234315519595 169.34527409420224
1.048738 -9.469495951153764 165.92841257619648
1.056736 -8.910366672234906 161.81929687585884
1.064734 -9.046983006348393 154.36514564324068
1.072732 -9.14803006762657 157.42496375476466
1.08073 -9.408952332274993 152.27718587311034
1.088728 -9.768802433157797 145.04004551049402
1.096726 -9.843438522018788 145.20906861494984
1.104724 -9.651436836269898 137.70776709206731
1.112722 -9.585702681958512 138.96131541122648
1.12072 -10.281012428124159 131.83570928962718
1.128718 -9.703695916184913 127.08293170654248
1.136716 -9.425493938407751 126.07172645028915
1.144714 -10.03037397414587 123.93034030339932
1.152712 -10.29218364512165 117.02715428811244
1.16071 -10.231617341374761 114.54094100966665
1.168708 -10.725819142056014 112.50316780810626
1.176706 -10.495601887735722 106.94533043839655
1.184704 -11.191147437219113 104.25742522307904
1.192702 -10.578191441541309 102.3844606148191
1.2007 -10.779664850805569 100.54440590197214
1.208698 -10.889452204925135 90.55857898619418
1.216696 -11.42053551108459 89.51593185644838
1.224694 -11.715838496899927 82.58439276901791
1.232692 -10.592685596722616 81.81792856733473
1.24069 -10.921289672839203 81.38514110441822
1.248688 -10.414601129239244 77.14060200100776
1.256686 -10.306426772281892 76.38357999991995
1.264684 -10.768075205161601 72.32603678698098
1.272682 -11.427030989725555 68.31961062338944
1.28068 -10.87401968974774 65.683630282866
1.288678 -11.652435264878875 67.70013733096134
1.296676 -11.982588923002194 66.6304088118016
1.304674 -12.047714936428779 57.530391274949665
1.312672 -12.332313074385413 56.12340888654676
1.32067 -12.8234197346757 53.95885492107096
1.328668 -13.383707005417193 52.611606168002204
1.336666 -12.54332909711575 47.004635650598225
1.344664 -12.873957403750214 47.6108055865085
1.352662 -13.205494451697653 41.25403318709542
1.36066 -13.36375469736629 40.774922117259386
1.368658 -13.904225678827446 37.38837281442636
1.376656 -13.373288463886583 32.70210932147379
1.384654 -13.803507101082008 32.559246749521435
1.392652 -13.293002073804164 32.47756506579264
1.40065 -12.89671250543668 24.760068428262663
1.408648 -13.786894791100845 22.593841698903372
1.416646 -14.925137274175825 32.12487039506313
1.424644 -14.72705374325347 17.703262862338992
1.432642 -15.114890583285785 13.17076791469639
1.44064 -14.503809495108584 14.75610617157452
1.448638 -14.359390939428557 18.687488669416812
1.456636 -14.733300131313978 10.964167578497895
1.464634 -15.599703402020603 14.50784514655116
1.472632 -15.95273286189142 7.452378353627732
1.48063 -16.1940890785394 -1.833304545008066
1.488628 -16.16953841533245 1.049777194524458
1.496626 -16.08013910771216 7.603660052404016
1.504624 -17.1568229425852 6.37112880289353
1.512622 -15.937685817693637 -2.34658549490451
1.52062 -17.362408128540437 7.919367003157103
1.528618 -15.912642954841086 -12.08898300889745
1.536616 -16.530312659945665 8.471157333947405
1.544614 -17.610159634123452 -8.488367641162645
1.552612 -17.90537844765863 -14.003197494176021
1.56061 -17.16865877575422 -13.272687595536722
1.568608 -18.167757166270107 -10.008717923329773
1.576606 -18.70974049706976 -15.547854149450837
1.584604 -16.365631704364006 -17.246530073653403
1.592602 -19.411475204476382 -16.69583143447373
1.6006 -19.320985387754206 -12.003297242105539
1.608598 -18.523208904262415 -26.06041170345338
1.616596 -17.65019448678675 -14.43137309002975
1.624594 -19.11373908103417 -10.598016847630127
1.632592 -18.85972441655036 -20.216732081594415
1.64059 -16.971843933272474 -27.16654304702508
1.648588 -18.227270485987116 -17.802165732758958
1.656586 -19.50058652483268 -19.629669525517155
1.664584 -18.76530411876544 -24.365239274387484
1.672582 -18.122265594844226 -35.338745755450816
1.68058 -16.761471781917443 -34.12196037359806
1.688578 -18.218033978727767 -39.32069184635554
1.696576 -17.41140362463042 -32.11251557224309
1.704574 -17.417934437269015 -48.36449147247382
1.712572 -18.32826625210683 -47.98989918541354
1.72057 -17.206989957101626 -49.75351939501272
1.728568 -17.187045013175286 -57.50733577107006
1.736566 -15.716403967069844 -49.03150864586227
1.744564 -15.426000926744553 -52.256274657967204
1.752562 -17.754916509542124 -52.39115726160486
1.76056 -16.286240575199148 -64.49461219400568
1.768558 -18.071479831335267 -57.54392737514441
1.776556 -16.399502095774107 -58.15965329872287
1.784554 -15.097300227060327 -57.94128347567787
1.792552 -18.157381726328914 -65.45729094330052
1.80055 -15.647746382538356 -66.65417894680238
1.808548 -17.375893400986012 -57.30761858237093
1.816546 -16.938138012085123 -63.57656246559609
1.824544 -16.268291957636315 -66.25773589148969
1.832542 -15.990496839734327 -73.40858024472351
1.84054 -14.966464959386862 -73.97711103283262
1.848538 -16.453761164461977 -92.31265128891391
1.856536 -16.576891745945584 -82.26604914407318
1.864534 -15.41626222914434 -91.61517306638792
1.872532 -15.799454510333168 -94.48908247005468
1.88053 -16.921775239495005 -90.00870643665813
1.888528 -14.336650242861106 -97.18060502339421
1.896526 -15.241380592961665 -100.28195831811038
1.904524 -15.63968114531821 -113.37946580116044
1.912522 -17.115041532939212 -117.82207377768931
1.92052 -14.685703732803645 -105.62393323875146
1.928518 -18.557003761548923 -116.45561113616128
1.936516 -16.056806648756627 -122.22926269940515
1.944514 -16.47609874683914 -102.83415912728294
1.952512 -16.673924057970765 -116.65633169663592
1.96051 -15.166981815183028 -136.04929942480084
1.968508 -15.886795817063772 -130.27743628810148
1.976506 -15.458826460778152 -128.03603397531185
1.984504 -15.712975280001245 -140.48372969744423
1.992502 -14.442800142030329 -149.88240314689693
2.0005 -16.24073359544118 -147.6138394141308
2.008498 -14.087299538370019 -149.72578248627298
2.016496 -17.43861651706235 -155.95319857873352
2.024494 -16.774207961076176 -165.95899041169093
2.032492 -15.052911390164738 -163.0105636502009
2.04049 -17.210331140129504 -157.4434583771976
2.048488 -15.09777404498754 -164.27199368000677
2.056486 -16.10578282769271 -171.5516663595861
2.064484 -15.387732252799404 -162.7478937956284
2.072482 -15.428057801929182 175.21309316937734
2.08048 -17.593683724269482 172.92268700800003
2.088478 -14.22530743809572 164.7672720942657
2.096476 -14.001914931194472 164.57555415264812
2.104474 -15.903770464999173 167.49913115376552
2.112472 -16.536670899296194 158.14892371688993
2.12047 -16.3982158080912 127.19964886420763
2.128468 -13.600100496333303 146.9869086567708
2.136466 -14.971210100113572 153.01174964042318
2.144464 -18.095687499130463 131.27738245153967
2.152462 -15.285333467534647 132.640386990928
2.16046 -15.63515139750939 123.18409525428011
2.168458 -14.805916217072818 119.47783642674898
2.176456 -15.714944326291738 115.4076148889628
2.184454 -15.325137805148884 101.81779411677498
2.192452 -14.434511875988541 91.59501173385966
2.20045 -13.75473358298646 93.90832439934469
2.208448 -15.687135071379966 108.09591070201328
2.216446 -16.562830558556914 103.11998704822184
2.224444 -16.566584028459232 85.96691639365507
2.232442 -14.043470758808098 85.45467985077866
2.24044 -16.185190503731338 55.594332353207264
2.248438 -14.04743927649498 70.07239576857835
2.256436 -13.609071349109872 52.17900830587548
2.264434 -14.455565116785909 51.020133012003136
2.272432 -12.294393228741123 45.90713948672036
2.28043 -11.609173468588562 28.641807449875735
2.288428 -11.413215645844144 41.278408478301216
2.296426 -11.768984498308095 50.88920578716134
2.304424 -12.784417439761956 27.80249285241129
2.312422 -11.591108763365789 35.33390329456744
2.32042 -12.824427782763488 24.451181232982165
2.328418 -11.399784529186135 27.930525736388308
2.336416 -14.487815747617754 17.4578428060248
2.344414 -15.236612698431022 36.72055604526913
2.352412 -9.549077572717895 11.956234431619402
2.36041 -13.730449903252278 -12.367276115165973
2.368408 -10.83226029655135 0.866703540790781
2.376406 -10.178866038111089 -10.620856895473391
2.384404 -8.953662708066785 -10.083412129934873
2.392402 -9.344562527697775 -18.966035331568815
2.4004 -7.681550863019271 -12.084195604865108
2.408398 -9.503308062470248 -21.402139442082976
2.416396 -9.79079785572611 -1.8218087642493572
2.424394 -8.91863387540396 -33.55457527709717
2.432392 -10.407222894253923 -29.239722366053062
2.44039 -9.60817476552533 -27.31864853190745
2.448388 -9.343052811766793 -31.227651876580378
2.456386 -9.522221426940638 -46.879308769600144
2.464384 -9.743941039294386 -59.22962793622807
2.472382 -8.583919212990498 -54.24683490982268
2.48038 -7.610441094406399 -59.06775592157869
2.488378 -6.749525297146134 -48.20650399819071
2.496376 -8.226696252497502 -59.81583809577392
2.504374 -8.028118012102581 -53.03643492042024
2.512372 -6.405763168433119 -53.9745231095554
2.52037 -6.631933989042019 -65.0389549413434
2.528368 -7.796697986451164 -77.51986634076313
2.536366 -8.604866639283555 -81.7938951609807
2.544364 -9.639287520307594 -83.25280602883976
2.552362 -6.911068779196406 -84.45273441791873
2.56036 -7.448495711681335 -89.60018625179553
2.568358 -6.149238288637825 -85.00115072802463
2.576356 -6.095386431442016 -81.96499322357212
2.584354 -4.175770975618553 -93.14564452478437
2.592352 -3.849671153167905 -86.19973671150672
2.60035 -6.869104705075867 -104.85627962793862
2.608348 -7.383129366323635 -75.32876871655577
2.616346 -7.159639631720238 -102.73594731527515
2.624344 -10.82223091091069 -113.08391639936858
2.632342 -8.720061922113837 -138.63946678105623
2.64034 -12.20404659046057 -142.1591770149048
2.648338 -13.04331243732959 -160.13744459763018
2.656336 -7.35094014756034 -178.63789092589232
2.664334 -3.379263348884459 -166.26878610722505
2.672332 -6.118616281950748 -142.63536356869054
2.68033 -4.867290142235874 172.6364807885301
2.688328 1.114718305224461 -177.12983262633523
2.696326 0.824518784540656 -177.56254327863527
2.704324 -7.8152308754971145 -138.4111950278724
2.712322 -6.13169499804772 -138.85916245492766
2.72032 -7.825344965964462 -147.67948810405835
2.728318 -6.9917767867483 -141.17017095891106
2.736316 -6.771390487310207 -152.8500444550753
2.744314 -7.568703905360542 -177.46032858702466
2.752312 -7.02259074911796 -164.2347857288152
2.76031 -5.861172864513106 -167.43205619450416
2.768308 -3.838101304096364 -177.80089852765755
2.776306 -5.0780562380841126 -170.49813943572516
2.784304 -5.961538372554039 176.20769736517886
2.792302 -5.731618462260791 177.44752073508187
2.8003 -6.1219379829863385 179.76218551465513
2.808298 -7.28622125554896 171.59487509193792
2.816296 -4.426688072938768 172.23103307830237
2.824294 -6.102664276502294 159.9950567220593
2.832292 -6.3554464898379095 163.57289875342133
2.84029 -5.041427072096127 159.2880208023691
2.848288 -5.433798762150783 141.1352795515229
2.856286 -5.714565043400773 137.81090708872517
2.864284 -5.489060528427093 140.13374433737934
2.872282 -6.1190477577887235 134.39698827342426
2.88028 -4.661058037143726 136.65491094781004
2.888278 -5.793085406040001 127.81229074383256
2.896276 -5.695128434867511 121.7360984150045
2.904274 -5.892156294790528 124.31731484376013
2.912272 -6.207786309955061 107.76926320240216
2.92027 -5.890896999229187 100.10269676850548
2.928268 -4.86083550584312 107.38472682883709
2.936266 -6.145831212607851 98.40850626850467
2.944264 -6.318022126221687 88.06910738240434
2.952262 -5.842188865049829 78.62591076779098
2.96026 -5.570129081442719 82.76123203258662
2.968258 -6.479701301370401 67.2711030884571
2.976256 -5.471369843604452 63.93369372479825
2.984254 -5.811440705501328 60.017278847455216
2.992252 -5.42454809579983 51.550968452571226
3.00025 -5.179887263874688 46.33658288216698
3.008248 -5.585325818593616 44.35272344448154
3.016246 -5.405517015665841 32.414047892033835
3.024244 -4.7583881627798466 27.20486114183684
3.032242 -4.152599863074525 26.33521330876708
3.04024 -4.4904273898127505 30.769421495824457
3.048238 -5.212440938498645 23.211214694875213
3.056236 -6.1857770512592 13.444678369359778
3.064234 -5.291812867983796 6.790503231866117
3.072232 -5.015924272793293 -7.803471466732366
3.08023 -4.925115911336931 -9.154515521431279
3.088228 -5.031071179451926 -12.009195852130128
3.096226 -4.499896770622692 -15.674558034769216
3.104224 -4.631995283253822 -20.42797249939538
3.112222 -5.044527816870618 -26.795810973081164
3.12022 -4.984041841308504 -28.548199136272437
3.128218 -4.37589512178241 -34.68466721825021
3.136216 -4.170081402880797 -36.50063294452419
3.144214 -4.518184401458403 -41.04410653653477
3.152212 -5.25965115605246 -48.35151956368345
3.16021 -5.13563180156134 -57.75991787360633
3.168208 -5.40269794075956 -66.66539103628168
3.176206 -2.3051480146098395 -71.69186242244496
3.184204 -2.937727098592094 -67.21693320119753
3.192202 -2.77502992892535 -58.51368946617013
3.2002 -4.071994033538776 -62.52762408827999
3.208198 -5.3047491479825295 -69.90526322069974
3.216196 -4.507651334150725 -86.55739650905483
3.224194 -4.467249536356392 -86.74888520929123
3.232192 -3.6793662530136695 -90.55158772629412
3.24019 -4.240154425387991 -93.96385348483355
3.248188 -3.512333651529023 -91.02647932163951
3.256186 -4.333112625330174 -104.66174059377096
3.264184 -4.743031930321575 -101.66508559360953
3.272182 -3.3960572136542195 -109.03778413876806
3.28018 -3.2374822621515804 -115.49126581183606
3.288178 -3.280958005232258 -112.72537434595299
3.296176 -3.5965084157667935 -114.23726084898567
3.304174 -3.752584800889113 -118.94122626836285
3.312172 -3.882678387737899 -129.68584181635995
3.32017 -3.3531681314321036 -133.99622132698227
3.328168 -2.5463974772865794 -134.46209409553046
3.336166 -3.096355752894673 -132.02044028105266
3.344164 -3.687020368178921 -135.2701386301949
3.352162 -3.65171695487314 -145.32700517413633
3.36016 -3.564136920784339 -150.776126510385
