!Created with skrf (http://scikit-rf.org).
# GHz S DB R 50.0 
!freq dBS11 angS11 dBS21 angS21 dBS12 angS12 dBS22 angS22
0.001 1.0441176419317784 143.30687648245828 11.979853703237088 98.0018180888316 0.24138417889995376 54.561119315383614 -1.7828445514524285 -122.8991006366064
0.082612244 -46.99560740538762 -7.27387552501992 -0.045351422228408544 0.14825743708653982 0.06162941499844644 0.07335205951331861 -34.77707287270555 -9.732609949131366
0.164224489 -38.607962879456196 -101.66191753758888 0.02129868126388501 -0.02219915206062058 0.04785366704039575 -0.15278655724574117 -50.92221892544365 -176.15374316768066
0.245836734 -35.0981841026427 165.89328896235645 -0.07737796999908937 0.13220014990118575 -0.08236058964391071 0.23562420160067118 -41.41708970770794 151.39070093123445
0.327448979 -35.85822382505042 -100.72487921511606 -0.05817211390047791 0.12145039667400213 -0.01199156144492809 0.08714029805190673 -33.22034232495026 51.621522531097995
0.409061224 -42.758215166987185 -5.50830865961203 -0.05876888715797817 0.10444897513297242 -0.01864677401934646 0.06261584106130476 -43.68862874112803 -105.59446602846184
0.490673469 -45.95712908303054 -143.34655611678596 -0.0724184589482619 0.19957255894824802 -0.03759386960074067 0.015641795426171317 -31.25763738420328 119.86886002108066
0.572285714 -45.605115149244 76.12208603205164 0.05531972981023542 0.05752274901596844 0.054491894558471046 0.15099337130657176 -35.35287065536628 -177.0947282024258
0.653897959 -34.2610585637892 168.4423306174971 -0.004213857197529056 0.3778535036495991 0.00986722609404505 0.01890905841231686 -36.51779825018808 -17.3900620569356
0.735510204 -41.24545266699467 174.825056582566 -0.0944636208809028 -0.06644241507683496 -0.08803675579193751 -0.09294572236222441 -34.98727851426369 169.3768382136372
0.817122448 -50.14769727775249 -31.00263074945551 0.016580419332669495 0.2876194494607266 -0.05088793754097514 0.15208708900087564 -36.963604352075514 -135.29579666229563
0.898734693 -37.43820533925235 -51.851444569350235 -0.048000937016128176 0.004455925383121104 -0.0027764236456212553 0.37681029306962044 -41.41380394739549 -11.968101257596738
0.980346938 -39.02948711249029 -128.80386387864115 -0.08228074133598327 0.050638088151974445 -0.11698392279210926 -0.8533612020033017 -25.439976192021973 -17.5435568273452
1.061959183 -34.73030608504581 -159.90600534413315 0.03779927908886793 0.44435444675383007 0.12017750788186568 0.1926528089532704 -44.81527750411567 -84.76045098167796
1.143571428 -30.1581342253553 -147.55597997154263 0.08635978843145806 0.6207871896630178 0.022921772099282853 -0.9305716822032755 -38.734645381248704 49.843349223163926
1.225183673 -35.02653386553644 120.09960487096886 0.030049880401486852 0.5982269209249993 -0.07983408541782247 0.7737013683200561 -39.406950509308935 175.34233893819567
1.306795918 -49.51350744006412 126.39973304811575 -0.0012196244929502146 -0.4671327174807647 -0.035004266619839505 -0.10786959417929042 -48.29537011162386 108.00507028339106
1.388408163 -38.902744273705565 42.0663022990741 0.03812808965025433 -0.4900268558607116 -0.06345683327817589 0.5623638961951813 -36.25199599637055 -169.87068642306127
1.470020408 -47.896633360642994 -72.87987583985478 0.02865605496237687 -0.1710955197522336 0.17820930379312683 0.12197736261141959 -32.838622691929665 128.27302485821482
1.551632653 -30.990819217494064 -33.9035371181789 -0.20973770248364076 0.9397843187207707 -0.1470713152936061 -0.032943558941604674 -26.20609605397855 -6.4914326062908785
1.633244897 -31.18317640016779 -3.3856589339393763 -0.0026256566819639273 0.5167621335736554 0.05077424920301647 -0.0676683946126326 -34.937111494157 -113.69736613739643
1.714857142 -25.54854916395213 104.5234495755003 0.10458903655634444 0.1675788437306612 -0.049568199175949804 -0.024105113658656505 -36.303297792373726 -46.406747908673125
1.796469387 -30.73073479844225 60.52828713494761 -0.05539893253763187 -1.047761925611856 0.17312914218172726 -1.034150442152449 -27.859767794506038 61.91949656130103
1.878081632 -36.88185546138214 -109.87522291062518 -0.05853053439218815 0.7332305920182159 0.0011769714340556126 0.3621031871931192 -44.8157672781705 56.53939819551366
1.959693877 -38.377629564632784 130.07810891733956 0.1510664211807399 0.8160183295744565 -0.05249144944660179 0.5025114582915977 -34.378453998330585 -158.31392593116672
2.041306122 -23.18471770314276 177.08502631286441 0.16116233941580205 1.4669726206551985 -0.04347023303660685 0.18384130608901955 -29.868311799974293 -119.3811247502985
2.122918367 -28.395999009636633 -2.3920578915911905 -0.07855005579664606 -1.2781639531028253 0.12634010253919245 0.6859818200856989 -33.50396099428767 -101.37499241238658
2.204530612 -22.3764252454 11.169730679656327 0.17875582036894283 -2.3532981910946313 0.19246456451840951 0.45403560104361634 -26.82752900478436 172.79548439328744
2.286142857 -24.134659552374494 136.9086682127276 0.30109016032763397 -0.015243712502361884 0.05975929699127526 -0.5220289375064301 -28.69390078401606 -94.84325841420619
2.367755102 -26.99731754547239 179.50387850172282 -0.013160712843820572 0.11969515453570224 0.15189250257605255 -0.570156457744647 -34.69582212656144 -2.1661180076123707
2.449367346 -22.91525764025096 -150.60772542359 0.1661816724572288 -0.5253745589346546 0.6697684779323818 0.1455537831927319 -22.60197198316263 131.85562027307878
2.530979591 -20.36099447597269 28.662337035646356 -0.052541160739266464 -2.4660315446178758 -0.15393080919452123 0.4360564099534771 -28.516740177622154 41.23854973921808
2.612591836 -16.301798122183538 -92.44282436857645 -0.5070397522992866 -0.7353831648434712 0.06525397325023755 -0.29478758761773116 -28.974960883951113 -174.10732240532548
2.694204081 -21.99275772531953 -157.2041913199667 0.1803676876940979 4.333358599073632 -0.02510701386575554 0.981595217231743 -20.630212908474704 112.6181191869458
2.775816326 -20.608748495923123 99.87032017531706 0.7647383802218555 2.004747976370832 0.08235559613449128 -1.249023396104142 -45.18192727969324 8.54208368178969
2.857428571 -36.26134143945621 -135.1968017697761 -0.05097602286788376 0.6240690954766657 -0.05383822626760935 1.371873087268453 -35.48273487001927 -124.20717541895489
2.939040816 -23.394887580947636 90.88368777009526 0.38514329671038744 -0.6843611329838453 -0.007984324903814233 -1.1677635250008218 -37.24846016212523 -115.25555975522222
3.020653061 -26.8687567162635 -120.88658040115347 -0.13497342601217371 1.6121434802316235 0.11877262527688683 -1.6193213964822213 -27.81095092112836 42.6514870318226
3.102265306 -32.10042680868795 72.15719717915185 0.000926395138428438 -0.09273723665843102 0.043010167269009233 -0.3440419111308575 -28.328682265352757 51.63974241545709
3.183877551 -26.88547291228255 150.06953429661698 0.14823808393467694 1.4298305021696673 0.01392230336277599 0.32004206103582616 -41.804859674217454 -59.3914227216134
3.265489795 -30.792928831373448 158.15353664590415 0.05464445315660169 0.6457363941463643 -0.06309299204419734 -0.3530886054320184 -37.78573218089033 -32.32737891400424
3.34710204 -32.191075094580356 158.65763211482414 0.0063386166488850725 1.537063770997684 -0.2082244139383792 0.7406466240487413 -32.37640713717969 -93.43231775826409
3.428714285 -30.844942347305494 -61.849924013678724 -0.24286602239226102 -1.0294513535321919 0.08878734263283308 1.9517171065156504 -33.55943020517045 167.77791655506707
3.51032653 -35.15843657222684 -86.32479051974127 -0.10709352376335596 0.2329293978371668 -0.02332895473613328 -0.5213739434304723 -36.40312860729752 2.1250412553345055
3.591938775 -27.01279642092562 84.01818799255582 0.19745244280894036 -0.13522464257475653 0.011540858819798418 -0.9064164819166143 -37.93310054506288 -2.2783079127448342
3.67355102 -26.89561424034141 153.86768610738474 0.192940089143596 1.1447777617455936 0.18235750980680943 -0.45584867129142126 -34.57365092939444 28.850526850954154
3.755163265 -33.02015792862469 59.06316196229572 0.03584450895964477 -0.5028706918602661 -0.001121962540103336 0.022576976156416406 -37.7611270786215 -7.845379264698528
3.83677551 -32.78820252294045 43.7291124704665 0.11671266489382376 -0.9099946627092863 -0.17958669358242813 0.7284034876577514 -35.56653919408565 -93.90542602112055
3.918387755 -35.6495459576248 128.9824309529912 0.24958844655068974 0.23897871982923946 -0.09345887425503407 -0.8158607444852324 -37.03297652566423 53.698523991859226
4.0 -38.003305828764766 -73.05466163375455 -0.008965789784258852 0.4544135106133657 -0.031758674685151256 -0.5787370561487226 -37.00496532157056 -9.467288567329081
