!Created with skrf (http://scikit-rf.org).
# GHz S DB R 50.0 
!freq dBS11 angS11 dBS21 angS21 dBS12 angS12 dBS22 angS22
0.001 2.216086055060676 -8.859688946586727 11.081144656723275 19.514220942427233 -10.411138167959923 132.80695888277654 0.6521896152332665 -137.46434253190913
0.04099 9.137657474931412 68.16863688744603 16.49080792555273 -45.997457834077686 3.2788517366791585 128.59740953186554 8.927147602385492 34.59235744017496
0.08098 -13.5490316757854 -54.24852126852751 -16.340269300666325 -80.14743075297145 -17.852199922084125 -138.1042040390038 -6.270345745165069 26.604512397214446
0.12097 -6.330787673373351 98.02705934937707 -7.6610461438017 38.21368400282717 0.3632754540882641 -36.389308446282236 -18.21197247673542 127.63883021691598
0.16096 -3.4804574069172327 -162.76668393482535 -15.206115839952554 43.66492068239633 12.008423274199496 148.2441857685718 -1.2798030480802505 -93.58106571725963
0.20095 7.131912998375843 105.25786463434858 -0.9104220581828149 -145.41957779357196 2.593279878953747 -162.39206829415346 -14.69094382505812 3.6446738686741194
0.24094 -1.2790440845929312 -174.85818785756862 -4.1617007682367815 85.18465189889609 -2.1744704457496606 152.0131837868433 -7.221260180389243 -95.08984938984129
0.28093 13.817765599987643 176.44689468683725 6.9562202821553685 -37.503820157206604 -11.377869315758717 -97.95723734261558 -13.73176396973605 -8.534672490718917
0.32092 -7.29596436300228 153.78227805710807 -10.29976925780131 130.80224554194987 -2.1994595270714408 -27.849585821264522 -20.669382379019495 172.3303701669033
0.36091 -5.550479250125877 -159.93934548790045 -5.379435068475372 -65.56177150379047 -5.363545665857213 58.50240615371998 -8.888671820093563 107.37257258410615
0.4009 18.613701186093103 55.97810508877122 22.20814931646816 -125.98576294857507 -1.640226954573356 -8.984132684687724 -1.4860377730317564 -174.67331960553656
0.44089 -5.38571486984214 -172.3829381982123 -7.434651998636981 -148.1881160859666 21.662075092763754 163.702569013768 1.775724091373014 -43.074649542245055
0.48088 -1.6712025698133417 131.8681028910218 -4.04022277147715 145.4090260703331 -9.11461480777186 -53.86135305120462 -4.607912572659486 -79.35678946884758
0.52087 -22.093447859053576 -16.169337184086285 1.2837515339136232 172.42571595629371 -5.019124254086062 101.13633602339462 -2.3085409899974345 -5.218407178928914
0.56086 -16.929787914496718 22.983807424134113 -2.8808300526353503 12.61295200109398 -3.662642015152537 -59.60918791966859 -33.204089615672714 -165.54080687890036
0.60085 -11.096545867682547 152.24002275615442 -19.33780645779392 -29.160690289243256 -10.341671238945928 -162.1806986864677 8.625931174899439 -59.29823407948229
0.64084 -3.835242816645886 -110.67567839723199 -4.31925386149471 -11.640450334548483 -13.52115091038396 81.12481883967848 1.9130680292638602 167.26873504785027
0.68083 -0.31396297763435665 -111.2200620389968 -6.587892449102418 -24.473042013512377 -11.469349292624498 -27.498049701772764 -3.7455656289185413 -37.60758163291331
0.72082 -1.4901052016861815 -93.64293409149742 -11.815515326534289 -78.19678559357926 -6.792024729046661 -44.8705863600656 6.048297394128212 -103.04704789802447
0.76081 -15.485746622764287 -73.88161135398505 -13.767003600410106 11.53411384941912 -12.216380429097631 -102.45256780307523 -12.42950241872941 99.9797329597054
0.8008 -1.8381705363274612 167.38139293298937 -5.417532678606554 -49.963052217758865 2.182851844759065 -144.94381785940288 -16.254385051192624 -141.9966033651791
0.84079 4.560370056843227 130.0964030849439 -20.03985625797072 -113.2203452045331 -20.122429751620366 155.52424771612507 -3.9657106058289515 -170.23357460995584
0.88078 -2.468510918810684 -136.52259688686652 -15.998296309630218 -152.03387076129414 -18.848846531892875 41.02096121603336 -16.267561352595628 147.30561970738628
0.92077 9.645909059689124 -86.18481844369062 -18.064938269755864 10.664230330910467 4.5438242831940645 149.10507497404413 -7.239151500284494 -179.89994721711568
0.96076 -3.7353001956226874 -155.7447326846908 -22.33726172284201 5.695242221174223 -4.03434241051171 55.45065503035507 0.3959002194024531 134.8374291496947
1.00075 2.0471156552659937 120.70384548139666 -23.988545287337768 -28.248032307054043 12.291169565033508 53.11730463967949 -7.83054858318783 -121.37848403460858
1.04074 -6.721730853828946 90.06963822038665 -9.726127251268586 -54.4433031697856 -21.89967743254712 25.92425669255173 -7.478758331552006 167.11170658863674
1.08073 -1.8740491006512983 -162.72017601835597 -18.2183402295169 -83.78868342805673 -17.018452319870608 64.94968774845508 -17.789343622038523 45.83886811584149
1.12072 -4.326193181997653 54.757563196261515 -2.1723513754074912 -120.49046174634225 -9.523965732760823 117.21428179553529 -11.437884337186638 165.96148172253808
1.16071 -10.345379168312345 79.67191275589138 -0.6832151943891427 -11.846917738798945 -10.044787717047894 -42.21968370642846 -9.333583205279544 -135.56220593074028
1.2007 16.13878403160505 -70.97288551074712 -6.341065240693515 -156.99016666044398 -7.58368896482944 -68.710031165438 -33.75522772493677 20.523369938739833
1.24069 -16.178035725520537 -25.595873104912968 -14.66726705172202 31.493556202519308 -10.553847476762305 -17.870239789828947 -5.725092683836274 -20.766869686020655
1.28068 -21.04808488921951 143.76120753361405 1.5807685584738287 39.98555468426494 2.085095539163882 -152.10889172680479 -6.775562357038936 -128.83259014348116
1.32067 -8.800245229685647 -28.237044240019866 -11.810257620487278 -97.90286966498529 -12.420953541585337 168.20443078968265 -3.3380892777577937 -45.30828883573081
1.36066 -10.50395682563729 -167.40260238016376 -16.030130468421156 -129.55767381199976 -13.633112146062075 1.7906862954677494 -8.552336880585507 88.88194612638216
1.40065 -0.7857830224085517 -177.41174503629802 -15.548171565801702 76.95580331464149 2.9027219304905447 15.347187674106156 -3.2483900569669153 25.70075116643755
1.44064 -7.677050433511202 32.19756007561132 -4.925873062852565 41.45965819793343 -25.415342407499452 -78.34505781994815 -20.17759129816817 -57.05825278276994
1.48063 -0.8087955205239978 174.96051341189636 3.72626499573196 -23.89512519301505 -16.12619263758824 45.50044440870028 5.567342513917853 47.54599727662455
1.52062 -8.726094970883054 -29.629810912411227 -40.695915397448836 -35.85938861835103 -9.11739454054298 102.55435612626724 -5.46584374071021 37.9771886525668
1.56061 -4.841849396169339 -154.74038851718387 -6.520100743388402 9.844360648713172 1.2287206299156794 -3.3122291492086626 -15.747001748985232 -125.44175646346471
1.6006 -4.209316394199879 5.963025178927492 -11.352149769329342 -71.78758518147215 -6.45887796760039 -29.589918327436774 -9.891219657228833 -77.00657593109237
1.64059 3.1324466286799573 105.95907142773194 0.6007569997046831 -48.885571096566316 -6.253649244512001 7.3428135711042675 -4.250386424358566 69.95947881864616
1.68058 -32.44588146558121 62.65197357117491 -3.6994843232097105 -87.48936058812963 -5.681604566423134 24.810964273545554 -12.497013543167327 -178.83957734228932
1.72057 -13.76565039941844 -52.355604786323724 -2.814768481557877 20.232068030880267 -13.200508951152564 -91.37317673324763 -2.838609811318518 -95.9270068079315
1.76056 1.9704453267613427 91.75084134459067 -3.1418755227253694 140.6770697796814 -3.514019931984217 -4.497461139015896 -9.141418956679296 162.78739883378708
1.80055 -14.920390085553155 76.5978478684613 -11.838131627097702 43.467342747981874 -16.97553478650488 -50.907648009713526 -0.8616303127350043 -5.404573652475495
1.84054 -23.267219052306515 -167.0976555794749 -13.039849799541354 -64.3616898815339 -6.862556282628873 33.10012912537234 -3.3107144407504396 -82.74656884153325
1.88053 -10.04530098661652 -36.715313681637944 3.400159677252396 -12.363106844902532 -10.838519124377793 2.8570645138128574 -9.684401797732182 25.77785308900488
1.92052 -5.914387507979285 -136.34052501004828 -8.364981549732672 -142.89953900834524 -11.710743263127995 87.69960318735299 5.521938504356355 137.62653147068272
1.96051 -18.718183553446295 -50.84665981272176 -4.4199965982654374 9.129306163744593 -6.9673714064919245 -57.47537648962811 -6.277587031245769 -177.8814795973196
2.0005 4.578664400999941 -49.36024701920655 -3.68767907514943 31.274243018534857 -17.316958264651223 31.038748938402655 -2.8922973132870258 64.95566591427412
2.04049 -18.061699637219174 -100.51505848494928 -7.131711256538994 102.84023699939212 -7.3695257908494005 -81.1368906750301 -13.50715386197498 -136.77945315821808
2.08048 -2.7061490113634026 80.33326226295307 -7.4057586768365 62.195629717697834 -6.194303107165318 -4.849592282913414 -2.1579460047173398 -154.98067848557392
2.12047 -3.3635452713406706 -87.94777576513182 -2.4491305723969545 -50.67166425762915 -2.4857923716272037 44.55327209935014 -13.035270251044079 50.76785388677032
2.16046 -13.739482598404742 -121.25119628905664 -12.779339906763497 -157.70037001330255 -1.608429465934043 43.76018784365243 2.9781937920494816 37.4944712040146
2.20045 -6.450161944094306 -73.24799503991746 -13.420472676133532 -149.8856100962615 -8.090389207626073 -93.76358795435861 -2.161176969392658 -140.90514599984883
2.24044 -6.763675047325133 -96.76464816913393 -0.2641653010484365 -7.059830792414575 -9.91447451717139 62.43761048209808 -4.373600611870072 -67.06435065223268
2.28043 0.52253161122339 9.744730251461979 -3.955956901377106 95.83753155988725 4.306367986470687 -22.525489266422078 7.777821252504163 64.03442798920219
2.32042 -10.693374049797537 -118.43794052093273 -5.1759789262861 -47.24510324212061 -3.38655902382702 22.21482111578866 -12.648609534278988 171.56158404785265
2.36041 -10.769746031603242 91.64455525002992 -20.40689054815051 3.836208900001373 -13.280466578610286 16.972158189570806 -1.9961808721319227 -3.7406761068417835
2.4004 5.1912536598367325 37.00135123764496 -15.549454522091825 140.04053832460508 4.275594491832548 -42.627537632754645 2.1907704940686648 13.213888193858594
2.44039 3.137709391488907 -53.316855596338435 -2.247218025820004 -48.904444014881875 16.01481438920859 -44.17345775080158 -2.9687583288857433 -64.55838692239949
2.48038 -4.957729632961771 179.11371047026714 -30.4521829536794 12.61155281757707 0.22813199329744974 -72.62892684315807 -9.64292105260409 -177.9942174778049
2.52037 -6.14002723060287 -17.4091284985931 5.879991505136077 177.25428412156546 3.375377670514019 15.046050862708121 -0.694143292572943 -151.45935357429573
2.56036 -8.130990466987862 -8.128853051138734 -21.39628560909694 164.2598557032054 -11.871130947772624 141.213106364218 -15.870466180650826 -147.0413028087226
2.60035 -10.321290737277995 -29.57339042813881 -5.466819281870944 -65.24822314123242 -12.061109764661504 -8.392442850216836 -11.733068850307157 108.54550245188112
2.64034 -2.8498300297386803 -110.93550608443184 -13.37659590405692 79.77046728910554 -6.5413580090911285 77.89017951539681 -10.223877345130553 165.64393985232147
2.68033 -2.1471781033216524 -11.107761899616788 -2.9773923241508546 -44.21547320747462 -20.725697096291103 8.094843133396202 -7.159339681617288 170.254260415125
2.72032 -9.264713702417822 25.303099042248373 -13.583944999689432 -16.74280113750248 -9.747187068158741 -41.908377672308454 -7.653914710054303 68.651222760331
2.76031 -12.931187141992943 -121.36047883654402 -7.841882961836722 22.318582905447094 -12.856797440947945 -41.54522955996823 -3.3747067321242903 -49.58134518648143
2.8003 -19.44009415192642 -26.446194682761536 -11.93198543730479 5.834545823254605 -11.646210967258444 -2.045728755623158 -6.286754638320541 177.14563321982925
2.84029 -16.715734002164 -117.03807023397911 -10.258897644775395 -48.145317709773174 -10.796322103004385 19.12301731454445 -19.847847197876263 -166.2993433872711
2.88028 -4.707060206843596 -59.819610973176125 -10.739353039586728 -12.698414013654718 -11.519421139543297 13.111077114967689 -9.239412842225356 131.04410617794787
2.92027 -9.475300352196115 138.36061815072526 -15.962042587418605 -48.199442696789944 -14.611843280858103 31.26759749544487 -3.8501888580222223 145.62791133365687
2.96026 -5.39577439136499 -155.47585345818123 -18.11937756153916 11.121615525495976 -13.889051371979091 -7.17368211470896 -13.994081208583822 141.02071004989867
3.00025 -10.891340328322496 -141.29949659086444 -21.21855012076505 43.3536068984096 -9.755535787361264 5.946905464205135 -0.23051340139285204 80.55129820326825
3.04024 15.845135743714245 -108.78500226107393 0.06328947187673638 -62.673454935955284 -7.888804895880427 -95.99129282353235 -5.043549054082117 -152.67303183983267
3.08023 -7.1938785088282655 143.0784842968938 -17.299821004276893 -3.6906837658504204 -14.692639648386969 -4.254885621027493 -15.147732716095671 149.27808302346676
3.12022 -16.016839899260415 155.8030145019925 -11.904756301584104 1.9725260121806565 -12.48111911468024 -14.961272157761545 -6.96946206468675 173.63211011645603
3.16021 0.6421402355678069 94.55915150193655 -9.69705999811308 19.58213690978467 -16.80332761553746 19.717302770345395 -14.011397707013204 169.7310544604662
3.2002 -25.16762779400244 -43.211391159614685 -14.055433753418086 -7.776348339821344 -11.306763920352875 -27.259997431581162 -17.23343831034073 97.5009950534958
3.24019 -8.496158679006147 -161.6418170559885 -13.679124498660705 13.689305077080666 -14.497467954821781 43.23164978637826 0.7096863967364166 131.89583451417815
3.28018 -5.230028467334322 130.14049152660982 -13.60801349058638 13.407514647717864 -14.050980074331651 -3.1144762320789527 -11.824457948937422 -167.98924026746212
3.32017 -2.5642352478799664 172.83637564656738 -16.454855650222093 -24.169092419207725 -15.842132271427223 -19.36070858800127 -1.8584258956521142 -148.4512497053499
3.36016 -6.0272455692726465 -35.50272835314916 -7.000540525850774 -24.58161138489499 -12.571599202926297 -21.671977648999565 -1.194182968452273 144.22387585004174
3.40015 -21.28291814753866 128.13071744366252 -14.767317132204095 -22.782652533855828 -10.368663944026542 19.480314740441035 -3.4501702076856193 87.54847206886298
3.44014 -8.709751795375997 -154.0881332168557 -11.879688324449615 5.63332583056089 -11.858670411214733 -42.80041606950875 1.9412746057354846 -104.65443994787027
3.48013 -7.763011446939087 154.87837314455066 -13.490318398671652 34.400382668529 -11.537232272331504 -14.45881372230938 -12.991905275019203 179.08398831272402
3.52012 0.6387943904198551 144.20025404558143 -14.078207113084222 30.870688306058753 -12.950361789221853 -8.12630747537417 -10.91435404434205 -146.82322730905398
3.56011 -8.783638143286135 162.2199970912315 -14.619829760983782 -22.584802947526644 -16.80299680468915 2.9439204633650284 -3.912800252470257 163.10332844588476
3.6001 -16.396337997511843 -162.67423161136094 -15.67480880684873 -15.969261872167014 -13.554560695419385 -29.332308018727257 -11.241231369593589 179.2258351036629
3.64009 -0.11623380931913606 179.779478731497 -15.405974221521717 -38.18677412072395 -13.536029139286391 -18.867003981149704 -15.246214049501221 -145.6293528299157
3.68008 -7.692158760766629 174.04156511066336 -14.848968684775706 -19.483990948954247 -10.689922385608273 2.5600764108534166 -22.47016890925446 -142.03572349231578
3.72007 -12.88714044725102 -151.0999927035103 -11.036058579633963 -13.616030736866781 -10.065668541141704 8.929456442909927 -14.515254730179716 -133.5015837591445
3.76006 -1.8556529785034965 -176.84158958728662 -15.768117877454863 -4.803406157619749 -12.962339115848753 14.358815006801711 -12.506475744654225 143.0700189305718
3.80005 -3.898777962010731 -137.85635832450708 -9.055924118592888 -31.849277283681936 -14.40751400262631 -10.734858958929708 -10.577490832922592 151.49783799679116
3.84004 -11.376072574523501 150.98723764877423 -18.94637200788057 -2.382578037120635 -10.092782045196929 6.042339146132092 -6.813697004587317 129.61571763119628
3.88003 -1.4180174397531362 141.74330465529187 -14.070366331079814 4.282716110758566 -13.792685784777907 6.853385265508501 -5.3567177701906585 135.5047431198411
3.92002 -9.702527252332558 137.71032634776725 -12.997379511254367 -9.222164592163969 -10.35612658977952 -22.36763092841357 -13.752990379720533 -110.28331124519958
3.96001 -1.1521563381173143 -169.0884648899386 -15.152432610890179 1.0610546253613633 -12.6302286756932 -13.113126124277152 -11.284558657687981 -174.17444222610015
4.0 -18.142656543996768 116.16053088749578 -13.309976107414274 17.316445799234778 -13.833230010840854 -18.942502121489458 -6.336434803632999 -147.21999006781542
