!Created with skrf (http://scikit-rf.org).
# GHz S DB R 50.0 
!freq dBS11 angS11 dBS21 angS21 dBS12 angS12 dBS22 angS22
0.001 18.69968083721166 -117.49142802995965 -2.9092697961115377 -170.35294709368537 19.469643448436557 -144.30292478793973 0.5366302750641274 170.99121320721898
0.008998 -9.733988733829706 27.792594542397975 -1.3943183379844646 -12.677481995970876 -2.310387485135536 -12.704676413053416 -17.237457364980344 42.726424022204306
0.016996 -12.705594781157272 -118.19620609273417 1.0164635599280245 6.426931517951988 0.5909235074710374 7.061811101768957 -15.259257222473108 -87.89440859494853
0.024994 -24.73460354708245 -75.49799220055884 -0.09331482311243094 -1.303735462496483 -0.1378389677019813 -2.042854455282542 -25.77518720826764 -96.91224384127266
0.032992 -23.676931807287556 -163.8703763972648 -0.12135826029572001 -6.142363354591358 0.04090496601074635 -6.853398371267153 -21.422313100428283 -49.22382766224412
0.04099 -25.954608798014668 -119.73095158320554 0.0730247980508342 -8.306548002918321 0.011022369046814003 -8.919905972108369 -22.195329656323587 -64.0863031304554
0.048988 -37.01897698797018 -48.213368980150456 0.038095738619749575 -11.446578652006846 0.033083901982076835 -11.387428765091686 -27.15586125705348 -25.5261036947015
0.056986 -35.25239620846 53.55720434298517 -0.015671197039262872 -12.74272574736988 0.0585563821831136 -12.634791894391197 -36.97132124454929 58.363539009155616
0.064984 -35.97205665179424 -120.04373262128452 0.1395518175028779 -14.277875829897987 0.1655501888145924 -14.743349654330347 -35.4683270311902 -92.81454513681926
0.072982 -31.43910100240252 -125.24271014175162 -0.10027131208972057 -16.448855942877945 -0.12863968366184464 -15.941949051351749 -30.57822114183811 -95.3014836989064
0.08098 -35.01677168948071 -121.32460819037492 -0.276289586009042 -19.68364578798159 -0.2987790690865938 -20.116485551330328 -27.53548622852987 -82.16445156675033
0.088978 -25.59825072353022 -105.35681578673471 -0.25582353396061497 -23.60886227967289 -0.16774116237979292 -23.591285715099467 -28.390649834311667 -76.67225974457747
0.096976 -28.23434666614763 -68.35492993079903 -0.04761661797503974 -26.33201826005251 0.1052226948776336 -25.18369676677125 -33.98526993104531 -54.111291462618325
0.104974 -34.781565036873104 -129.90098291775334 0.19094119362560164 -27.604011547242063 0.2028704129496081 -26.835477190256658 -27.369533568639017 -67.47813192324851
0.112972 -36.50043898893581 -102.88603927589102 0.26453961319131847 -28.32679878958182 0.2170391611668848 -27.236244724467024 -31.064415093082314 -96.37879657695959
0.12097 -24.82532642136112 -148.15912158324278 0.08634874858383648 -28.43986651680592 -0.019914575233349364 -28.388815922292288 -31.511760891238737 -98.53839070161935
0.128968 -26.29515696807897 -160.5295537920787 -0.10659762510629767 -30.547110410853584 -0.32394890720705904 -30.72007863624331 -24.06495823873751 -135.27247714949942
0.136966 -19.733362229448655 -153.1723075099549 -0.3925074091546018 -32.9506464423571 -0.4941474078948857 -35.37653679772083 -20.00629656049929 -138.36849802157892
0.144964 -19.49484421709828 -122.19356883797883 -0.41189888854999296 -37.70786944268921 -0.35677593918507433 -38.96723746605863 -20.40939057022407 -126.22095987668851
0.152962 -17.034457450590125 -117.51237634405248 -0.20592092994457664 -41.49418740535058 0.08514147497495024 -42.82277061362856 -19.237983745926844 -103.93017840031486
0.16096 -21.634334533135515 -85.3133187469427 -0.02015996608097989 -44.56451001373231 0.32624948131011444 -43.399216265046306 -24.390980127179635 -86.5533986309306
0.168958 -21.429628006991397 -97.33410531703225 0.23790239759569626 -46.151583171697304 0.5720642365438757 -43.51940060154304 -22.46214484814558 -120.92381460437527
0.176956 -27.080940178384267 -104.89163269722417 0.4072907140609499 -45.87950331629575 0.40988247985940945 -42.79038495145794 -23.132381521434304 -154.43251837110986
0.184954 -25.706061553063858 -154.80361262380382 0.32994836159960106 -46.17400979641914 0.2352030589806684 -43.6108419532549 -21.344846622378494 -167.2618545713352
0.192952 -20.00643956869801 -149.35620340404708 0.2630107275832872 -45.68605841039403 -0.1310351258134934 -46.04309472372824 -22.5104679943422 -134.38546165699896
0.20095 -20.120044312962754 -155.5877448746094 -0.13749508361312052 -47.57705716778851 -0.47642052644527877 -48.38374474726001 -20.525399731481222 -141.96443574580397
0.208948 -19.295739002115692 -144.02813582138234 -0.2771772860528399 -51.68139531596862 -0.32261549925981914 -54.537999394058936 -19.744458678460134 -139.9662415352706
0.216946 -15.754774837468403 -149.55938171052625 -0.39422807798555976 -56.84870172036456 -0.11877530630869149 -60.91443142828508 -19.60768361269811 -145.46343466262718
0.224944 -15.094593172834589 -147.53383955981286 -0.054253001506734296 -63.55812572256516 0.4250887105730735 -64.31827442813503 -15.551828366819203 -152.2189020726262
0.232942 -12.749459214196337 -158.31777790784585 0.2670303195405629 -67.26731367600233 0.4415245221310682 -65.62970336340469 -12.885031396497173 -152.31062322573527
0.24094 -12.175369347318679 -151.60944702893778 0.6303832905898171 -68.40463822966825 0.27705260169636337 -65.02442945967995 -13.295800038692068 -145.28800342369993
0.248938 -13.406561035827798 -150.67380840089663 0.5974419548287031 -68.18780723905185 -0.33843721883785416 -64.76882895751555 -15.063987142447235 -135.9723041812308
0.256936 -14.601200252552395 -140.29361391056628 0.32563023951807235 -68.84455086956338 -0.7563252259304841 -67.52784642592248 -17.080299528642744 -130.59518275667529
0.264934 -19.223171397927313 -138.32833833146398 -0.2633885691768311 -68.50243209084103 -1.017056810405907 -71.18851290917078 -20.854636361695043 -132.65406684483432
0.272932 -21.274477383617565 -135.3594468056343 -0.8049014031940748 -71.4788242759073 -1.1263003682122745 -76.44814037295134 -21.12627669371008 -146.13053173865964
0.28093 -23.726773510091878 -157.53169540419492 -1.3419109589531508 -75.48724532904569 -1.024349734315724 -80.17873426454562 -23.334971321705282 -165.26450953308412
0.288928 -18.019602957681204 -171.3799341369838 -1.413635435472298 -81.10859595478364 -0.6888721897311162 -81.06737530876838 -21.207843906148987 -161.56086598126265
0.296926 -19.046627227400418 -179.2326590096216 -1.1175873671169532 -83.24994197093726 -0.1893894289035598 -82.54522852859562 -20.04695980767866 -179.65559276752498
0.304924 -15.327058144770389 -168.96575530242535 -0.5557419163139559 -85.06489459368711 -0.07399367787308192 -80.64926279559842 -17.10192950490615 162.18369823063733
0.312922 -14.203546693898234 172.04152279253023 -0.01287429976841588 -85.50822997988097 0.13216220290917408 -79.79604907395388 -15.593020086659152 157.9835901898718
0.32092 -12.504898849770496 168.1880880009899 0.00988644905184686 -84.77639861320164 -0.02291868160656004 -79.20682522474736 -14.077999817266281 164.84915920714218
0.328918 -12.947879676819472 172.0484487225618 0.1427246876631839 -84.4347420551024 -0.5092737484140883 -82.8145876348771 -12.878789848123052 169.23991881196463
0.336916 -11.729271821435086 -179.35336218796417 -0.09078057382437209 -85.87568778401588 -0.6941224004063319 -84.07129660038309 -13.516107846817896 165.5942107113438
0.344914 -12.768140724259467 174.66750155861968 -0.4456177340304853 -87.62603843129804 -0.5346343500870337 -89.48365743628102 -13.998602372902003 172.177902230931
0.352912 -12.738762523273348 163.94256565754827 -0.7595232778708325 -90.88900661521986 -0.5156772389775901 -94.3348260946053 -16.372190684098015 -178.4893288162892
0.36091 -11.230933054454795 173.01138655676465 -1.034827191352696 -95.04152876423335 -0.2621090542790492 -95.6475555669079 -14.609602731717555 174.06434222506027
0.368908 -12.125018936068715 172.56851147148683 -0.9332388328702946 -100.08933504096181 -0.10327251537909035 -96.52535941100324 -14.300494065635194 162.6267973588177
0.376906 -13.825485147830591 168.19817590471064 -0.7968711917390838 -103.16958734857914 -0.0806202810698499 -98.73416298771434 -14.249769226114514 161.79180167851308
0.384904 -14.907164223414306 159.8092840719886 -0.6060559020622073 -106.57765319065503 0.10547368821439966 -100.68152386422264 -15.726859501064862 163.6712324763168
0.392902 -12.112845413974036 154.90775240890247 -0.4371034073954791 -107.27871357619487 0.10027003618394094 -101.05722282766519 -13.36232943584574 154.64334572344023
0.4009 -12.759156806587766 157.9839489695209 -0.01571978945225355 -108.43112653122651 -0.0797707358130256 -101.74804597655515 -13.997814402719314 154.93658128449974
0.408898 -13.075553547684066 153.95347064283868 0.07839268252131693 -107.8392317508244 -0.4450986593328 -104.29363206374879 -15.145262631623089 156.56334475064148
0.416896 -11.928397911172741 158.21030019412797 -0.1514868891838811 -108.98533069871856 -0.6896281786792174 -108.77792259277224 -13.836859671583388 152.1486130347666
0.424894 -12.710562501171115 148.8318455854821 -0.33847166485401636 -110.3482350377336 -0.6590995390040767 -115.12693569091597 -12.964231500620382 147.18359627793382
0.432892 -11.567581539706413 147.26952748308952 -0.6690283714043384 -114.06582578810571 -0.4484340640980101 -119.82222867738363 -13.901612808305625 142.48060586496953
0.44089 -12.355643878810769 144.58240162977194 -0.8639468611910727 -119.1311193410373 0.006527817212624332 -122.70269327424532 -12.478062912570705 140.50551100083473
0.448888 -11.636395829618635 140.29670001458402 -0.7286281011367588 -123.96800313650813 0.3177707707287922 -124.80017236818907 -12.87220217521677 134.12979717142116
0.456886 -12.217850145903359 137.91738084752419 -0.44358521469371687 -128.31029004290332 0.4280325460178194 -125.24273080965088 -12.286453393631621 141.72103131933352
0.464884 -11.919153434655632 138.20125783224316 -0.23282856674415908 -130.9317019689435 0.21010007266456118 -125.18811852231251 -11.58056862869756 140.30734378748522
0.472882 -10.896118350504974 134.2252867264436 -0.027289805295131385 -131.1764080297664 -0.23717901235995154 -126.47567113710458 -11.87022673946549 144.44369465844065
0.48088 -11.394484392456823 125.94494275241038 -0.05905304568113671 -132.2201874311935 -0.7314123483074485 -129.99409214933064 -11.81980746860588 138.46323618250813
0.488878 -10.625827384874176 126.86822461330854 -0.2324122825119011 -133.6768921817316 -0.8594575287094857 -134.96521471938783 -11.963994269851515 134.620199784195
0.496876 -10.654189348445088 121.6856075659955 -0.4443498749819907 -135.3600828088371 -1.1429595719942853 -139.23397886608075 -11.191455977815162 134.00888992081298
0.504874 -9.97862527637659 119.49169187880882 -0.8028176817638831 -139.90868880069317 -0.7103011606798759 -143.97340342846846 -11.868278669868388 123.17838940947192
0.512872 -10.487584648802784 123.90959149995645 -1.0616861916594162 -143.9824556934313 -0.6938998373108014 -147.57977828877566 -10.967193259825642 124.28918799000914
0.52087 -10.327208694265803 113.55579853378309 -0.858159714512151 -148.93142123045 -0.30685670157007283 -149.12234779004743 -9.064467341650905 117.65489996553698
0.528868 -10.749694912087516 109.01475549350276 -0.7072876634112821 -154.70933076911436 -0.2568068322552997 -150.89951835200293 -9.43065456922431 116.77924297455877
0.536866 -9.430991303206815 102.11619887942202 -0.5082950783313779 -157.34141185153175 -0.1892107193591391 -153.42494328069242 -8.466343273661272 118.41320071263144
0.544864 -8.226140383252297 100.68541287192926 -0.2857600796435867 -159.19932512032324 -0.39493264731445576 -155.3763292673034 -8.466702341494475 118.54999309979604
0.552862 -7.1059540647362525 103.61762931255963 0.02358667719334528 -161.7018881283899 -0.45345864326268615 -157.81206826361625 -8.79944890662071 114.92626483831268
0.56086 -7.432873843137986 102.89956591627413 -0.13796754953775583 -162.5830163977709 -0.9177437046233063 -160.6800881635736 -8.914522355116372 108.11504972831672
0.568858 -7.844563275259297 102.88309321348193 -0.41526001877316776 -164.00670650094563 -1.0223065102185473 -164.85450296173516 -9.265761163769241 97.55960358371549
0.576856 -8.54444503321744 100.57040322297134 -0.8900492858313573 -165.09563447780405 -1.0098329939987718 -169.59354311491964 -8.72603520413646 91.21955976091537
0.584854 -8.931081502650532 96.13834170096622 -1.170432809167493 -169.70020815223006 -0.7669317316952058 -172.9908363901577 -7.476692292554788 84.84817623767866
0.592852 -9.255776903165652 89.92196834385167 -1.4475131066713125 -175.02951768498366 -0.7486461447656829 -174.54026764146346 -6.784824111823329 84.52252611682233
0.60085 -8.196947009315133 82.67642772574928 -1.2962708246228238 -178.200999407942 -0.6614719843407969 -178.53526558692786 -7.148944449049246 86.2519249691542
0.608848 -7.344287314898921 78.8170874330984 -1.1216667946485241 178.69793491959138 -0.8941969344356129 177.61825875260453 -7.604392200138279 87.67373693509892
0.616846 -7.417235759732856 81.89835424447485 -1.1002980999907113 174.48224318228907 -0.9778674240545921 173.81205336479906 -8.306437838623383 78.83249621224888
0.624844 -6.986482588344645 81.14106038272013 -0.9832042702890215 171.07720501782856 -0.5937344872223209 168.9603280319664 -8.441841246643168 75.56158352945982
0.632842 -7.114479319233888 81.20625788009762 -0.8463202772090392 165.35939841350427 -0.5951346832179295 166.4799874116477 -8.329825158014184 68.93507743822079
0.64084 -7.194885925964871 79.76170288781387 -0.5897714259430542 159.79771273086266 -0.47364330408380445 163.65669337224693 -8.599731922718362 62.26715956797938
0.648838 -7.802563475437655 75.5469783649576 -0.11637698166641225 157.1176927527856 -0.552317940118917 162.34262305031962 -8.980034951527887 56.1106265311843
0.656836 -8.615615135511693 73.05309567800332 0.6508021401174112 154.35326409285256 -0.5558300879875295 156.7310631250218 -8.305408055613503 47.73629257786832
0.664834 -9.72594882696933 61.31109681650571 0.8745329362327368 152.9148866965546 -0.5595375907697934 152.10392882226213 -7.899031135336246 45.102935063915666
0.672832 -11.114584811488006 49.23446713340338 1.1327525733359198 147.884354222289 -0.35882815642928456 143.25062921288108 -9.514016900959593 30.519760836063163
0.68083 -13.941783444299322 36.66980339386888 0.7065214101833782 140.61217004228925 0.10734790695641246 130.45526396087578 -11.600130238042873 30.58960338002483
0.688828 -18.465794513273078 28.53877067414036 0.1430568115412574 125.9194588412386 0.6124385374494987 122.33670400443899 -20.273315969932824 -16.2317204871687
0.696826 -27.230776857770323 85.82701764422802 -0.0450027550747529 111.40363642772283 0.6009961663874361 116.28843718047918 -20.120002120430307 -102.92413669021981
0.704824 -16.77214906355013 166.8369145379742 -0.35162778564093733 99.2579602079312 -0.1445749704173161 109.83585061395799 -14.587208700446034 -145.12817685273995
0.712822 -13.022293322910532 165.84100981572695 -0.6610787455104596 92.19110928798888 -0.8583689353986222 101.96323074970942 -12.616360992374485 -173.99943214745443
0.72082 -11.150960126823865 164.62294959441414 -1.0636452414175448 86.53332919336295 -1.8088582693472153 90.09699995699862 -10.959171242863324 172.9462522797573
0.728818 -8.246458039998375 156.73320061385814 -1.9866514438499894 82.26978058232388 -2.6066004811358834 77.5597593821664 -8.210392721600329 163.92272345007024
0.736816 -6.895887212812727 152.66875745936946 -3.21959035032009 73.92515351668872 -2.858694040796789 65.61001676737334 -6.678988970146456 152.75170315507415
0.744814 -5.050346493060277 143.21571341288674 -4.1057857463676415 62.30966279893707 -3.207078942494184 61.23156142490371 -4.940775095713111 145.01124464204997
0.752812 -3.1868375829688493 135.75060348980148 -4.615371823088544 53.64986397353077 -4.381055041740834 58.729720212319314 -3.320386994501989 136.85357760424046
0.76081 -1.2726929685501625 127.84787969595119 -4.843848650909432 48.11030672789713 -5.743588634410911 52.12409767435725 -2.945638968892583 129.36677081144492
0.768808 -0.8030340945939852 121.0889373595659 -5.622634842595541 39.68234480668323 -6.336302341214769 40.04160343573721 -2.9182476340946306 115.09717989408212
0.776806 -0.33695111042165077 116.74304572932527 -6.200164858445792 33.1398653481001 -6.7309050363705705 27.398914332504276 -1.5027789081552947 100.4352243900216
0.784804 -1.0104790748433248 105.61395187855048 -7.270823565193691 20.61733415199039 -7.02649158229905 12.041212107597586 -0.8368716983933411 87.46658985895188
0.792802 -1.5691246302810427 95.68327878383178 -7.897161037366455 0.36295895518938753 -7.270146593480174 -2.8307320534690295 -0.637068993261982 79.84219516355245
0.8008 -2.795394547212944 84.11696186170191 -8.394133101226858 -19.56371424841763 -8.019617226165119 -23.044604553355992 -1.5784922051586134 79.91446679837259
0.808798 -3.378372221068558 84.58093326930982 -8.984207759318553 -53.38889253998367 -9.607796407785385 -60.14450066852335 -3.699980277107189 87.109694912663
0.816796 -1.4032322112865392 87.89792472814327 -14.507993973810125 -96.58461278166838 -13.806685943818195 -100.58456258962273 -1.6156354604713132 98.52387865155468
0.824794 0.4194808252047726 78.0378075415237 -21.75501264955433 -119.96582819351579 -20.86359945943629 -122.47791653447595 -0.6762847767732438 92.951412314813
0.832792 1.4633410745397215 71.16358801197106 -28.493335956150982 -134.83789849766728 -30.499838087981797 -130.68764057804853 -0.14377184419516884 79.5535722166154
0.84079 1.8944292407128736 68.9371744272997 -33.64310908592139 -103.85771261442854 -36.85320910474577 -126.56433568384203 -0.42903709729125333 69.31261658792687
0.848788 1.2390978115536921 65.68570340908681 -37.438737942877594 -60.58151578169844 -40.64633600110188 -68.53920490393698 0.41503081431575 55.57312425833237
0.856786 0.794731663611517 58.541165417766756 -60.772376492746496 -58.309459783168 -44.61828839283659 16.204630571774764 0.44186762203376295 50.336712113354835
0.864784 0.22482887682439803 50.62934646337062 -49.38283838373838 -57.43279474340474 -39.569650086813695 88.19107689377957 1.0972469575499404 47.863976379622486
0.872782 -0.29525416265388427 42.83479837688271 -44.14118156651927 106.52550191798062 -50.76962921809318 48.76896603280593 1.123036354571875 43.416824233864325
0.88078 -0.1505238003766818 35.70671067900219 -41.04781211158044 -70.00835215546003 -39.019353047734754 92.17284443700942 0.9280293357915882 42.91316515355183
0.888778 0.0567650503069269 29.919736156567748 -43.04907433855564 -39.03266159712781 -46.285375705028756 -106.06860134211068 0.4450467060228152 39.64117876404987
0.896776 0.36421003171250477 25.630973904489363 -39.52766598416488 -48.21282970357684 -41.84773035695264 -103.15745051536295 0.07595646382669902 35.182121915456754
0.904774 0.37920262367935964 23.437357839526868 -36.72903933421886 -96.0874633476965 -34.992955801851686 -69.17866111160092 -0.01866212282613132 29.94289959717988
0.912772 0.04269836876153327 23.654111750135097 -37.269259550348025 -77.19769688279032 -38.75761537464386 -129.28509705939183 -0.3063456052415241 23.35028223968542
0.92077 0.06244386569683243 17.545923317363567 -37.78942659636825 -101.02164958286248 -34.20134724671241 -112.29070684178892 -0.05498064545625348 16.91818788600805
0.928768 -0.344600694183324 14.83691980976758 -34.18978292850602 -106.13562683873845 -32.474455378744935 -94.83365502091564 -0.11726618097757494 14.126063899912332
0.936766 -0.23780799685062137 8.778838816215654 -27.53804544457053 -84.16916463784314 -30.477273692562576 -91.60400586829766 -0.03984947827215413 11.907282802055528
0.944764 0.2882001278185815 6.804138472149479 -30.181224485713255 -95.66275428859589 -31.294241317268007 -99.4092421649276 -0.3474977869408301 9.980504066119673
0.952762 -0.12630942521432317 5.435667168674378 -30.211052359311385 -73.43536869894398 -32.397868938859816 -101.6923296207287 -0.1099075274500285 6.215692600484368
0.96076 -0.288224876607057 0.744399079677273 -26.60872168460415 -82.25685920580706 -28.253390709075315 -98.3173620431454 0.014151044786180933 4.368373965559722
