!Created with skrf (http://scikit-rf.org).
# GHz S DB R 50.0 
!freq dBS11 angS11 dBS21 angS21 dBS12 angS12 dBS22 angS22
0.001 -19.1640154209272 91.1521595959004 -7.197134184737112 -40.3122825091516 -7.015455361580862 -86.33723700667676 -7.791661849482066 -140.95647851392096
0.082612244 -6.169442478833074 163.0084470411221 -6.229245057694238 -21.226065945073746 -6.1873417223332865 -21.414405949498427 -6.332377603453619 168.41442918163978
0.164224489 -6.425432645682202 140.7387438441163 -6.188501066421868 -47.7496670433589 -5.638574919113565 -48.25562533866415 -6.270544185034095 148.5057840139572
0.245836734 -6.254827026144727 126.90504060325934 -5.2497059725628015 -65.95786542300321 -5.642458909982839 -63.84373483940179 -6.001850850437226 141.36606105458804
0.327448979 -6.682031582772821 106.54053919664744 -5.26921770611371 -86.21256987944886 -5.921666297111729 -82.70992016354764 -5.68678518674922 125.23217053559482
0.409061224 -7.868812701396752 80.69244870476348 -5.4135853054773255 -111.09060806860197 -5.494617695945197 -105.19591027532537 -5.627280718326494 104.37632983613668
0.490673469 -9.115188116235434 53.77398711495396 -5.409041798180214 -133.34841484754753 -5.901834079442473 -131.38471102109492 -5.740032159011158 87.43636268259316
0.572285714 -11.043587524609277 25.199163747725454 -5.453524190443742 -156.21834622795623 -5.540387280882494 -155.1995571829516 -5.245255445909994 67.26507227026755
0.653897959 -14.122281408806224 7.860066426070984 -4.397005416294627 173.602739048482 -4.05697110517003 174.60649102906322 -3.8254462292637994 44.46822402567701
0.735510204 -21.109497081004157 -56.714079486817255 -4.976360723075551 141.56344185912334 -4.945276346242299 135.70776893789807 -3.6195264607514077 14.778940896477641
0.817122448 -23.198672002038066 160.86774986533632 -6.187366644555786 119.91498846729941 -6.6171715164542615 101.86294095964386 -4.247005727919355 -24.295603773120213
0.898734693 -16.00341776182759 86.64097455174333 -7.248560193391413 80.1677146918255 -7.485458963551008 70.20752199833551 -4.535921815553259 -45.25432641491976
0.980346938 -11.909713811308794 38.421819567900414 -10.487546470002286 49.06108484467944 -10.48289120139678 38.25870009231161 -6.954617524719224 -64.020875106599
1.061959183 -12.217268432788739 19.509893641443675 -13.482367199304033 21.590915299590527 -13.698828045719104 24.011654322738295 -11.712809958431865 -91.64347209650153
1.143571428 -14.504020075694458 -6.144352262758382 -16.36619900628758 -8.643588589013516 -16.044934996262334 0.8775826291438397 -13.115532359675173 -127.28500241968673
1.225183673 -19.387252676271444 -38.93141142419491 -20.265613356413112 -24.603760840736744 -20.873212687254824 -17.91976188391638 -12.629183162591406 -145.4883215075862
1.306795918 -19.485820989740827 -91.6043658485254 -26.161901642218112 -28.883072892381485 -24.503679988766113 -32.214869139015605 -12.744829344429672 -142.56820218533716
1.388408163 -16.70294975402415 -115.45682190151994 -32.875103323851974 -50.579113303933646 -26.972859700584507 -63.49877874585072 -13.446277097843897 -152.23368796120226
1.470020408 -14.255276433726223 -145.90751345491847 -36.5248058501113 -120.3709305233958 -39.61140761807372 -92.94902773680087 -15.651560101170134 -159.61954248474876
1.551632653 -19.80461983828991 178.53053131374855 -29.57752991359242 131.73964496146505 -36.02808717176408 140.85907233739115 -13.939204674659349 -167.18296379465068
1.633244897 -15.239693923334345 117.50680606242376 -23.953386348881107 99.85172822272243 -23.9330273260976 96.23859153058741 -13.980661100964465 175.68554438054875
1.714857142 -11.184214614795987 92.01837911034993 -18.818167306495507 65.93380950477244 -19.187542440605462 69.25513885959684 -10.306519021380565 131.45017883397213
1.796469387 -9.355228031356353 80.54812083048361 -14.769373388774444 43.4499690165099 -15.359667390014025 52.12243150251713 -6.119986759937069 135.42277886193284
1.878081632 -13.963915852144508 67.6328889677532 -12.21904571562743 19.605507405937253 -10.149808982800616 27.590001026079705 -4.569586146593617 115.34044172158599
1.959693877 -20.8319451243596 49.98045121843462 -10.411933091392452 -7.057499881928074 -8.45942094561148 -4.241094107704444 -3.574148133531741 83.40893178141874
2.041306122 -25.803950153279803 131.8625284422755 -7.154073638396145 -25.41883335933238 -5.666011000030894 -40.344468168612394 -4.15872283880642 53.33462935099593
2.122918367 -14.993568966074037 96.11707536603146 -6.629642896062929 -82.85251537481103 -5.2226628183816715 -99.53468388442535 -4.260008982579946 16.425417902233125
2.204530612 -14.223199322410133 89.31100687205114 -8.189542350251246 -106.2112503800173 -8.649683908412541 -122.49505621739532 -4.870768683154661 -5.801376916434583
2.286142857 -7.542048407033154 41.43748002700408 -7.188175381995572 -133.86810154401192 -9.306486715399096 -134.99666662915763 -5.893458777194892 -19.030308378909858
2.367755102 -6.842068376071815 36.515528863649585 -7.893621150666745 -159.74534066889663 -8.081510527709556 -167.21897048797365 -7.4942326489943625 -22.450477122331566
2.449367346 -4.51138112659789 12.090633226465144 -7.076904927656002 178.6892812466665 -10.279337003782846 -178.5252942139302 -9.371653826306542 -39.24008950111387
2.530979591 -6.276814319185187 -1.5705762268712933 -7.433319262588435 141.0410386469777 -7.526734750262246 157.31695669839348 -11.504619772457394 -56.29651642011291
2.612591836 -10.461450934912069 -2.3925340246440716 -9.9638003994347 120.50813412431881 -9.092097549367281 127.8423982132321 -13.833956767594875 -77.0112665962738
2.694204081 -14.54106882633024 -20.171138522149125 -9.300592238215943 111.43981313812309 -10.009160425838479 118.63124673450457 -13.135289539906559 -108.14136862640886
2.775816326 -11.15355914112602 -80.14197422471166 -9.823744049685029 88.40285559564576 -9.817779430781446 104.75969122992731 -15.130170341527108 -136.02904694313
2.857428571 -11.868560978993257 -86.95807248484924 -8.448626780384416 81.49968202497958 -6.3379833062495905 73.525935897018 -16.581967164131424 -4.904658570861711
2.939040816 -9.884167857885767 -78.72174537805105 -6.583731137367819 47.67904112305089 -8.627330557592218 51.02266386312917 -11.896499274062894 -58.63581189289343
3.020653061 -11.354032690122558 -94.96265918550345 -7.175512114257925 29.970120514595948 -8.144262773533343 26.37008476247716 -19.439850641207894 -105.73886240445798
3.102265306 -19.25940445735273 163.78207496913464 -8.421160651520568 7.180700415920094 -8.575895939159865 6.501245556276815 -14.842700933957854 167.75286768799452
3.183877551 -12.51512950521758 153.99939471278472 -7.664545061748037 -12.943704848376441 -7.856941832267416 -15.685444582799548 -8.112810593114135 160.7364650224099
3.265489795 -12.12589486263435 134.3928348542834 -7.242246925154918 -26.821347580278218 -7.724679340222344 -20.999238293748483 -10.357830323519632 151.2852403692683
3.34710204 -13.231138213199532 123.80960275652268 -9.875470370615385 -58.592282927424655 -7.825275282950425 -69.23120114286853 -7.797282604692953 130.14403776408
3.428714285 -14.28666053019695 126.69986775138865 -7.569814113925972 -73.34906544924571 -4.965708986329032 -66.02583455937219 -11.528644508657283 108.92827655832433
3.51032653 -19.543071387486577 61.413636421174395 -5.966840076279196 -106.61893497930474 -3.595760212827206 -91.03918501998788 -6.326420621047864 90.02171001852771
3.591938775 -19.503331426437526 39.72710937270126 -6.154127390736073 -138.12020724095032 -3.193748608280722 -142.8163434083249 -3.5041635284694914 74.33901383693208
3.67355102 -13.431803642713284 116.03262485808274 -5.687727193801485 -158.38002018514982 -4.543259899152922 -162.8826754240652 -2.0371931980337337 39.73689966304269
3.755163265 -6.349870897659175 88.10423227291514 -6.963074152928562 166.22699261126994 -9.390138615430036 136.2001944918735 -6.162081136772351 10.011735742478189
3.83677551 -7.076214384546217 64.24444881672649 -7.9058304199461205 127.70333747613138 -9.438194525671282 126.03334364282675 -11.994939623820635 -39.061307040406284
3.918387755 -9.545879966197079 38.07828491480716 -11.885797041996732 119.08484100180753 -17.62900971623162 148.05384226865561 -15.883769651059065 -67.84160430665824
4.0 -10.750009158236328 28.667062100574547 -15.881175678839274 90.30095345236569 -11.875980217852323 96.76167879865314 -20.160484573750356 -75.28731857059756
