!Created with skrf (http://scikit-rf.org).
# GHz S DB R 50.0 
!freq dBS11 angS11 dBS21 angS21 dBS12 angS12 dBS22 angS22
0.001 -71.3965423163904 -117.53148320161053 -inf 0.0 -91.96855814130906 -40.913530134553824 -inf 0.0
0.138896551 -63.740561700581296 -130.8806395029962 -inf 0.0 -98.6290171378078 -139.43824694948606 -inf 0.0
0.276793103 -49.06819225245033 29.47822521622955 -inf 0.0 -114.88597549406694 -45.0 -inf 0.0
0.414689655 -55.92217158082433 40.038705115769055 -inf 0.0 -90.76344005982418 -52.115967129496624 -inf 0.0
0.552586206 -60.71926843497609 -149.5784942571735 -inf 0.0 -97.66961194151376 119.0767982464144 -inf 0.0
0.690482758 -48.23145756831232 141.09101729734635 -inf 0.0 -87.52499898059949 -154.97881327902817 -inf 0.0
0.82837931 -63.98212344406181 45.4879328625171 -inf 0.0 -93.77511206219309 -97.12760224859373 -inf 0.0
0.966275862 -53.74493118909405 -125.56651464036882 -inf 0.0 -90.53594979849619 -19.98801345286157 -inf 0.0
1.104172413 -55.2609918503296 -124.77774670409195 -inf 0.0 -95.6199181922426 32.46723758492482 -inf 0.0
1.242068965 -63.53471638281044 72.91292414658223 -inf 0.0 -100.9350661478213 171.8430045337551 -inf 0.0
1.379965517 -53.73758005270175 75.69767554429643 -inf 0.0 -95.88051016542026 161.565051177078 -inf 0.0
1.517862068 -64.16253714652653 -6.949819793278944 -inf 0.0 -93.18074392793024 100.01925805402452 -inf 0.0
1.65575862 -56.49977677314069 -173.27316244713276 -inf 0.0 -89.11111073620972 43.52634004232469 -inf 0.0
1.793655172 -59.472283548217845 -131.4628960504379 -inf 0.0 -90.28743005635015 4.763641690726178 -inf 0.0
1.931551724 -66.1760227416824 -50.877977012224314 -inf 0.0 -99.28743421840133 -69.4255435408468 -inf 0.0
2.069448275 -71.22392716225738 58.809146999290384 -inf 0.0 -93.57602095163753 -165.96375653207352 -inf 0.0
2.207344827 -58.698659363763056 31.361189333742512 -inf 0.0 -89.79390888699004 25.556862736288988 -inf 0.0
2.345241379 -63.88224775456237 2.7316128809916913 -inf 0.0 -96.95362855525858 26.551607775280324 -inf 0.0
2.483137931 -58.42157787886574 -166.71459944052947 -inf 0.0 -88.65618795554575 -130.80951430279777 -inf 0.0
2.621034482 -55.561170962392964 67.6554390436783 -inf 0.0 -94.80802401457086 77.91180281986087 -inf 0.0
2.758931034 -56.796700451757346 84.35450325696169 -inf 0.0 -86.95464778655172 -44.99327751035432 -inf 0.0
2.896827586 -46.870671214453054 -42.59322677871261 -inf 0.0 -81.37455693303606 133.19274882352582 -inf 0.0
3.034724137 -45.52250664568881 -81.28096627959548 -inf 0.0 -86.1247181434747 -46.03873883988304 -inf 0.0
3.172620689 -44.15144180444595 164.04488244817844 -inf 0.0 -85.25186543254806 72.40775712327176 -inf 0.0
3.310517241 -42.97365059292822 60.53728358513743 -inf 0.0 -81.8923118731589 -74.42645054350245 -inf 0.0
3.448413793 -42.311149938004384 -52.48058165310876 -inf 0.0 -76.8230535104785 104.28114791188446 -inf 0.0
3.586310344 -41.284664201756236 -168.21519467824692 -inf 0.0 -83.7577645907996 3.370710719558465 -inf 0.0
3.724206896 -41.322369981665915 104.30751875399088 -inf 0.0 -75.57531470293804 -131.59732809348836 -inf 0.0
3.862103448 -43.37836772265504 -5.926409403810154 -inf 0.0 -74.70773013851824 103.17207256039961 -inf 0.0
4.0 -44.347663943468575 -89.83197766783356 -inf 0.0 -76.69379052806251 -13.555080901535336 -inf 0.0
