!Created with skrf (http://scikit-rf.org).
# GHz S DB R 50.0 
!freq dBS11 angS11 dBS21 angS21 dBS12 angS12 dBS22 angS22
0.001 -70.03856769482705 -118.42519362321634 -inf 0.0 -90.53390440713582 -70.01689347810003 -inf 0.0
0.138896551 -55.361263022799214 -128.98650187223208 -inf 0.0 -53.00400396781026 172.30213439229547 -inf 0.0
0.276793103 -55.171757750287014 49.25385926697626 -inf 0.0 -54.78032125699816 105.46859502874416 -inf 0.0
0.414689655 -55.571010305667166 -5.954082401997064 -inf 0.0 -55.224604668660916 157.00529069982215 -inf 0.0
0.552586206 -57.04802056697549 -89.43020031005194 -inf 0.0 -55.58972459973748 161.828043580429 -inf 0.0
0.690482758 -54.33822204177734 128.9558305486482 -inf 0.0 -53.24212573138624 136.86732337394918 -inf 0.0
0.82837931 -57.95749138852197 -13.882794260555645 -inf 0.0 -53.365972897982914 93.392248296328 -inf 0.0
0.966275862 -59.09925735459575 -84.94246311598899 -inf 0.0 -54.81385838148131 102.9675479577745 -inf 0.0
1.104172413 -54.62257237354852 -174.66348374361203 -inf 0.0 -53.53371293224038 141.09733704978777 -inf 0.0
1.242068965 -59.52362045480625 171.21718459674824 -inf 0.0 -53.83982564372634 -133.22755997578994 -inf 0.0
1.379965517 -59.173031298609466 90.33067877506492 -inf 0.0 -55.46878025978622 -145.93854425842468 -inf 0.0
1.517862068 -64.57376095069232 -86.17731920002485 -inf 0.0 -56.18846658970746 -177.55912133140708 -inf 0.0
1.65575862 -71.41804453748296 -120.08059991835668 -inf 0.0 -54.61486741239944 -146.82023900485584 -inf 0.0
1.793655172 -65.54567406098434 -151.09284413894855 -inf 0.0 -56.83063436207716 -106.38967413819928 -inf 0.0
1.931551724 -85.5074136895133 163.2984432143644 -inf 0.0 -56.41925486785538 -82.16979285887213 -inf 0.0
2.069448275 -68.01118681114201 129.94551544646973 -inf 0.0 -60.467229069998005 -49.45699685870873 -inf 0.0
2.207344827 -61.83345363361045 38.056104335201205 -inf 0.0 -59.718701128614455 -95.14982794946158 -inf 0.0
2.345241379 -61.352544273848494 -28.352411586073114 -inf 0.0 -61.28936724366673 -95.15605155680025 -inf 0.0
2.483137931 -59.98797202953292 -153.07748636417818 -inf 0.0 -60.897088826356395 -96.87508798860549 -inf 0.0
2.621034482 -57.23411412070476 53.2993082879711 -inf 0.0 -64.18387389862347 -157.38922495402835 -inf 0.0
2.758931034 -54.98666395517398 67.43978045236337 -inf 0.0 -62.28151387849064 -46.4717588184625 -inf 0.0
2.896827586 -48.479630762322444 -38.16805261104876 -inf 0.0 -58.871110347377964 -50.11274000694147 -inf 0.0
3.034724137 -45.3766167039294 -92.08162035375597 -inf 0.0 -57.50110583213611 -12.487240318141586 -inf 0.0
3.172620689 -43.55953833856407 163.76694509976127 -inf 0.0 -58.32693029713538 -7.705557516303114 -inf 0.0
3.310517241 -44.129894936760365 55.61508514854102 -inf 0.0 -58.5151141066694 -15.077294284938327 -inf 0.0
3.448413793 -41.66022880182225 -60.293412881957124 -inf 0.0 -55.70622559683295 -35.413692988958 -inf 0.0
3.586310344 -41.77262284292817 -166.8187514118981 -inf 0.0 -54.92014475260043 -46.14697694065266 -inf 0.0
3.724206896 -41.726736395846736 97.49609270300047 -inf 0.0 -55.78053849031437 -68.40663800361523 -inf 0.0
3.862103448 -42.690905844279825 -10.46366036491543 -inf 0.0 -59.75693289236755 -74.96860433528038 -inf 0.0
4.0 -44.881840712171204 -90.68934885041487 -inf 0.0 -60.88742452029089 -59.57547163936559 -inf 0.0
