!Created with skrf (http://scikit-rf.org).
# GHz S DB R 50.0 
!freq dBS11 angS11 dBS21 angS21 dBS12 angS12 dBS22 angS22
0.001 10.701918460882204 161.17762941134055 17.888045774638634 38.10020106098527 -13.7590012400934 -13.654750241585042 0.2620422854434492 118.17759672516137
0.082612244 -7.871006568104376 -172.7692856941832 -34.056558670706345 83.33033596666684 -35.811832515575624 79.7812674531584 0.3419920127882541 40.502362255296525
0.164224489 -2.847299677323407 167.9211698949679 -25.76537244531614 70.91754596587171 -24.548404740848902 63.698329559057946 0.5403518828530669 83.98383151822372
0.245836734 -1.875792692322944 102.17657876610984 -19.781423379995474 -2.5891742805842495 -19.53771865223477 -0.4391802103394652 0.02401073725357545 136.22243406355759
0.327448979 -10.240379007569157 76.22006516730382 -22.796002746711515 -29.828346091520462 -22.497958818315237 -23.94036519520677 0.3319339042167472 -179.15717254432954
0.409061224 -13.417854816993898 80.01568670837342 -22.313594055988034 -32.70474918713964 -23.6598238772139 -21.584736726695954 -0.9267767983694774 -134.84801311777312
0.490673469 -10.200663531114547 93.13418836561779 -19.409501650824005 -34.95993473130232 -19.34846391988703 -38.40646563208225 -0.9999186172649177 -93.304614952899
0.572285714 -5.255053527109117 64.3517242942585 -13.50087212616816 -64.38923925570263 -16.72442729249213 -58.94887891763304 -1.432668416915053 -57.62673648513161
0.653897959 -5.843867362049469 -13.463859808177535 -12.970111212660251 -111.31233644433559 -13.431080319480348 -114.04597181688035 -1.1228236597111112 -20.031736823450434
0.735510204 -8.622227880253826 -91.29740736716012 -15.044224919747345 -118.00409498630621 -13.348588536598225 -135.16409299170402 0.5196604818529256 22.9548565226806
0.817122448 -4.298294628085339 178.79066220777554 -11.52922173321873 -133.84552286660696 -9.236931757742536 -146.1645910591397 1.2486248733230267 72.88296202786616
0.898734693 -3.3174874699098607 44.98889841605386 -8.887656300887329 169.05726360853842 -7.97908752389886 -179.78709107368914 0.8210389045926876 128.27131266466742
0.980346938 -6.6232559470601675 -34.33971568125045 -10.55589164812876 150.49222976167079 -11.462215745094284 155.72401628553638 -0.06737549989018815 175.2366713488877
1.061959183 -14.17327784004901 -123.6131001565963 -9.150604821638142 138.64473600738205 -11.004108105463308 142.51070603270088 -2.8874168028902405 -142.51597004655324
1.143571428 -6.401829192583417 74.76021384446769 -7.819637904784677 92.51044265638792 -8.737014991838016 111.4901472776737 -2.902680964089198 -105.74771490927272
1.225183673 -5.835854232501379 -11.897584670140324 -10.33597998538611 47.07669020201331 -11.42404674989411 56.28015916428578 -3.338064607044612 -69.0063136942634
1.306795918 -9.157748269324893 -93.98454747569507 -11.285559656235849 48.542363091391366 -10.908749606036206 29.979896918882456 -2.5600715898742754 -33.06035316261014
1.388408163 -7.379038100790365 -151.42215131348974 -9.575113737264688 36.82459475461512 -8.70107307447336 8.08819159235455 -1.2459881917097484 0.8612690726247283
1.470020408 -8.5171619642472 164.99820337937552 -8.531105902907331 12.84126431317996 -5.961894720350544 1.288260115172942 -0.4119887954354389 52.87974809994537
1.551632653 -13.042962154229992 -32.6472118387788 -6.818644915667073 -29.51509391583525 -4.234707211564094 -14.439894360657334 -2.9179292216705566 122.03718460995263
1.633244897 -9.597521501591348 -109.3258034066364 -6.981335984097208 -51.75770297944787 -6.2443458744218825 -46.38530891066078 -1.6969437620506231 -179.2022322975615
1.714857142 -6.539635394877851 139.67525587599152 -4.778494087670012 -71.08227076684994 -7.359274041437867 -67.67920126699246 -3.0748570787163576 -145.06728644047288
1.796469387 -1.4831283193619171 62.96413401815394 -4.845782575929861 -103.50099783548418 -9.580805460292218 -90.16834645188376 -4.234088286605827 -109.22955502562786
1.878081632 -5.389063488602483 -6.731684415743706 -5.95419127384187 -137.96331918987175 -6.469554264703367 -128.11999902255485 -5.890703111735851 -75.97077959034657
1.959693877 -8.336746116944347 -154.06715470384214 -6.751452739664485 -140.99378205857175 -6.344078232442141 -172.2819598701503 -4.050585560765963 -36.61780437500598
2.041306122 -5.390652971980322 154.6421952975699 -1.7743674250195625 -167.01460377580761 -4.966448922753302 163.83698824303914 -4.305949311084378 -8.063893778698743
2.122918367 -14.11639811403627 19.4384791214601 -3.2678124541721267 130.80592644234844 -0.5851183602086076 123.93899032640796 -3.6842103891415396 58.58292032064729
2.204530612 -14.172565677319216 -117.88007764043687 -8.267748144143932 103.38703972203017 -4.269453389369157 107.25276159818308 -1.1459761521481773 111.21931328567652
2.286142857 -9.682181084683762 61.45605966809644 -7.607580800509837 87.10898368572086 -7.216028049494719 110.757592834291 -1.6117759310112167 176.77718326198223
2.367755102 -2.2553788338770246 39.722697422592454 -6.820920902817555 77.65136526129163 -7.8904133036062385 101.63248348910017 -3.9293231195769502 -143.18119713028253
2.449367346 -1.1355544725951248 15.712958738667941 -5.440717337932836 47.38997645995516 -8.917721969336789 77.19467416134441 -9.958297273411002 -113.36399538661894
2.530979591 -8.857770661941299 -6.572723211292979 -5.403697408828383 6.508137649025382 -5.852715540113777 8.785205017726561 -8.231957764630259 -43.10836967087188
2.612591836 -10.729913390436913 54.096981278850116 -8.868387829623105 -33.06408149267751 -9.23218473693158 -24.971137065205017 -4.397606324221513 -16.94304199605826
2.694204081 -14.675676974532276 -19.51648369983767 -12.395089125729735 -30.761301006464425 -9.651453075233094 -43.32243695275869 -2.1704609682042895 -4.970916546330988
2.775816326 -9.192867307265049 -75.15092551026699 -8.31274891073816 -46.803859200651424 -7.055666685603277 -59.59813525473891 -2.4346339034394173 30.68224285104618
2.857428571 -9.09923421108375 -86.00066415726619 -10.943764636168043 -78.08574512660883 -7.1412999157955435 -66.68782156188313 -9.29701961399915 114.0069225044038
2.939040816 -9.248745371815305 -73.46767144552511 -9.934495133921128 -97.93389258230772 -10.397900740253903 -78.01037462943404 -12.151122886655614 -138.76829888615947
3.020653061 -10.76265652107132 -48.17934002662246 -11.605099435258081 -117.98408136554333 -12.607390876176275 -119.86504284732472 -9.123180686986695 -104.00308996477544
3.102265306 -16.783388925972716 -14.010621135330387 -13.725315088522214 -123.85352306430093 -13.137188961803401 -144.58153144453007 -6.705466972102801 -77.0780019004557
3.183877551 -13.212693858157486 167.0795064343044 -12.406392913903924 -136.69718101925403 -13.22740037795586 -140.9325974146256 -5.439901744592794 -53.784517086360836
3.265489795 -7.843206033369805 161.6198548367939 -10.994014271613771 -154.86194770061095 -12.657941888475646 -167.0871011446764 -5.6455724308441715 -27.277547838834597
3.34710204 -8.283512484644678 160.99764305707777 -8.942834510414329 -154.75873284706887 -8.882922290560053 162.11842755860343 -10.184630715984095 20.628806577110637
3.428714285 -13.211411139803364 -162.36323365049702 -10.336570819094602 165.8090949747631 -5.309843362655009 171.50098866210269 -6.1433557888973125 108.01897066653291
3.51032653 -14.587614857908164 -129.4134669466492 -9.43597378595719 133.4961699590779 -6.4875766401707855 153.80608023361427 -5.526882947080184 166.56279752701798
3.591938775 -29.508531938795283 -75.37115117897405 -6.688936678098537 116.25071344917454 -7.393846122065608 137.97782840582582 -7.487924812723548 -163.64353512847143
3.67355102 -12.09065506122062 49.23525352897287 -4.751616341837287 99.749376959704 -11.42793857079148 106.64411776398624 -8.363274891428832 -121.64878440121248
3.755163265 -9.342187463626994 55.73828005515565 -3.8907679772114525 66.83907824444944 -7.152418735407979 67.50983807517258 -9.899299872022127 -115.82093675222829
3.83677551 -5.748139931723344 121.554761344366 -1.1371973212218651 52.34504961272084 -6.696230702633182 34.59224217344737 -18.16704196090954 -54.573454925008065
3.918387755 -5.5432524704560135 121.31574490559203 -0.2819316446404825 15.499414239443222 -4.232555580269121 -14.527246045759341 -10.31250756012955 7.657306926467865
4.0 -12.50058001647404 138.00126013998192 -0.7722254122493933 -27.088384968991594 0.4599872166101282 -24.48723771902846 -4.1541513273582815 46.769232980822984
