!Created with skrf (http://scikit-rf.org).
# GHz S DB R 50.0 
!freq dBS11 angS11 dBS21 angS21 dBS12 angS12 dBS22 angS22
0.001 -18.504469248644167 -134.9885060576568 -23.019964878411727 -8.693425384407284 0.4795341030652869 -7.84624287031828 -18.080814608547715 -72.48258665470775
0.082612244 -6.155244736751971 162.90593865955037 -6.091927461458388 -10.578252794539416 -6.083140578086324 -11.390237546342997 -6.354668244397694 167.87431413018223
0.164224489 -6.448668746983475 140.10477925857327 -6.127369664015525 -25.651581532894532 -5.753167595646794 -27.34820864376679 -6.160545091368296 150.76286102931607
0.245836734 -6.249328812535817 126.5021959426299 -5.03637816248372 -37.74437200246148 -5.171172104585665 -34.53719321120374 -6.0759694696711 142.20669324147482
0.327448979 -6.8510624840591134 107.46212605113148 -4.941186772244634 -49.49637261208967 -5.0225691874648435 -44.5545759650921 -5.859982641307713 122.6747304458461
0.409061224 -7.92814482434874 75.73764854834702 -5.014411164371712 -65.13923918294842 -4.697974947287716 -58.40951700178371 -5.457664121441679 106.57887984552546
0.490673469 -8.754553018388428 56.0092841202029 -4.2007694682746655 -79.74717025701862 -4.616293957267677 -73.33036655972508 -5.4295081418180615 90.86099959260413
0.572285714 -10.640316354071517 26.59425652488157 -4.485285208603331 -95.05687879551378 -4.934896064743544 -88.007560594303 -5.320297018044538 70.08392655290724
0.653897959 -16.388164798292422 -26.099113278604793 -3.8198314888159066 -112.85711971580919 -4.19632180306851 -118.30732713099968 -4.646555442768607 42.59558594146529
0.735510204 -17.7383103530071 -70.16505699666428 -7.257837361092467 -131.8814080833337 -6.623137427260712 -144.66718452775652 -4.809254321265415 9.115974243947859
0.817122448 -19.982014772243875 -170.80314958506526 -9.86216769339331 -135.4719316936025 -9.38487817436175 -147.09509546598989 -4.450076039822994 -24.17274558531633
0.898734693 -19.45156132838644 99.8208307696766 -10.390991122514716 -127.80132028167992 -10.613851255269761 -135.4687005122588 -4.1171478063822935 -44.35708593731384
0.980346938 -13.355771910133141 37.93037925806492 -8.185455826986988 -125.28003529992222 -8.206982610789114 -134.79463732864085 -6.218673429185234 -58.48943171923728
1.061959183 -11.76027778568734 7.065468613741873 -5.61577887534791 -140.8461928520058 -5.941577339227 -143.1474974157732 -10.483036210775179 -79.07657411795286
1.143571428 -14.082692771762005 -20.969764348013854 -4.124222580745302 -165.82367840029175 -4.449943555097701 -162.8072734540617 -11.713978400063315 -116.88177543867269
1.225183673 -17.183732936409108 -49.955388360963305 -4.751954143002668 172.2317807560602 -4.7261315279295575 177.518819830023 -11.118608567866538 -136.3175416950627
1.306795918 -15.635518150133915 -88.08465030651665 -4.904218725219937 158.7997190727941 -4.244983053996252 165.96102229949642 -12.564410107482635 -127.52525661980296
1.388408163 -14.053723469488855 -118.77671386669023 -4.202282207246147 139.36404787864888 -3.7970967410260186 147.72695707855127 -12.982988608492118 -137.81171290496204
1.470020408 -13.301437323008836 -135.87752808831235 -4.50172863018043 121.77654798302795 -4.805512161420943 120.49488770340673 -16.971929587315017 -140.1370880983221
1.551632653 -18.911239679784625 -155.16043219795725 -3.515211671284089 108.29700017305557 -3.9878982791830238 114.08572725230972 -15.144408637335637 -155.80865397059665
1.633244897 -16.96099702194417 140.61913131471934 -3.7195882795935162 79.24919101592644 -3.549033147264304 80.08490177437395 -13.108438933951682 177.9425369040601
1.714857142 -16.319334276978342 100.10697964453114 -4.6416473906353515 64.70818750994503 -5.211875552242239 63.756316597537975 -11.823081865159978 141.97854335245637
1.796469387 -12.78775080872948 62.811358200558956 -6.501696034132033 41.278505521709974 -6.725010031713711 51.81907677270749 -7.672081459977819 141.95041641089279
1.878081632 -18.249992996698403 53.95847653321161 -9.935148005743962 25.753414239487856 -8.109408221709337 35.27591867275953 -6.9946516316910845 117.93161362096973
1.959693877 -26.31199256752682 52.38915897129861 -15.234270073738717 34.2532714223601 -13.343776135477832 40.970318791267886 -5.008137297654441 85.75990975997946
2.041306122 -16.10283354522286 -171.63383289078988 -13.23430667569989 71.89696187950538 -10.898255574434916 53.67820992397554 -4.676215526260959 57.962494126870055
2.122918367 -18.622771828083764 128.45172142819283 -9.987963112608783 50.93387155329995 -8.597459705286951 38.16859567219353 -4.92388374521236 25.998575788369084
2.204530612 -14.066458610865267 126.09834359637047 -9.269916401034788 40.3163812046425 -10.116738679534285 31.679623410640016 -5.947741349504482 1.3216671542361331
2.286142857 -8.519012852518086 44.44359116985127 -7.580012066439013 22.30270965706983 -9.857374426459806 22.257247635748207 -6.835586989871389 -24.729235957098346
2.367755102 -7.105810766594375 28.827991158374907 -8.270942903199018 6.417344557027251 -9.337713537983955 9.269264730339597 -7.868904823925666 -39.64685929979594
2.449367346 -6.546577093226485 15.650621820036946 -7.099173849337287 2.940776401425201 -10.898810661602417 -2.332547697141807 -8.67232644895443 -51.87522815015192
2.530979591 -7.841050294358548 -0.26752309018697806 -7.471388728512238 -23.48360674979686 -6.491136683456266 -12.02589246774238 -9.15619432939667 -40.93601814647143
2.612591836 -10.044816387042513 -0.7708536797383828 -8.469130433396138 -50.3699050483967 -7.640254327625792 -36.17416008692659 -17.2199396796451 -74.84296462369578
2.694204081 -17.727160616198674 -42.0324436285337 -7.94828264291891 -48.13315656494814 -6.9829967343548125 -31.11143840921066 -16.003104113531 -177.09802103132947
2.775816326 -11.120223211092512 -84.73170627172031 -7.498508308060284 -68.80509628966304 -7.374364422699015 -44.530431213299764 -11.644127251882527 -148.8172694123162
2.857428571 -11.266933163380255 -86.10074804553707 -10.834521066371819 -76.87685963631272 -9.56887448904819 -64.83423548078659 -18.579388992257712 -170.51905083634352
2.939040816 -9.609130736477226 -81.5811184556833 -8.139465213941229 -61.319262646948346 -9.827506029869836 -48.80617525388713 -13.09543334041499 -86.36174304377874
3.020653061 -10.451906099715044 -92.11619199286916 -6.49438292979946 -74.99683101131191 -8.48319509777088 -78.8577815487193 -13.423638320420523 -95.77721968665828
3.102265306 -31.410276310417657 116.60058148643027 -5.705909515809783 -86.90530280899608 -5.3578340442112316 -102.86452118996979 -18.54941608090465 -107.24726647656064
3.183877551 -18.341189624974877 142.40262642217743 -4.503105123579373 -99.88273696988934 -4.006381519750349 -100.0911606924482 -17.869541436128372 168.10123394457267
3.265489795 -15.307914885022607 165.79467093763336 -4.729857080441182 -127.06720839679306 -5.231972409393357 -127.80701632532084 -15.422430395439902 176.0290762150997
3.34710204 -12.770843205751936 160.00400807869704 -3.9866043094418533 -135.43273159789842 -2.286040146080153 -149.54740150745718 -10.827875239696239 150.00571076173748
3.428714285 -15.822523659868008 175.54952781956146 -4.456162437612809 -155.25807292518905 -2.537534143489038 -140.46322427112574 -13.5703211533584 170.9872579074736
3.51032653 -16.893579903262616 -161.39077338474524 -4.5308636965466125 -178.9393395175683 -3.9140723474190486 -174.44259957892208 -12.416200564349689 155.29802225563697
3.591938775 -18.404679061393526 -168.73446695016398 -4.266090357043049 157.3920484590279 -1.8698683641659029 165.5616140503405 -6.7144399559112875 139.91270949625502
3.67355102 -20.020789586566856 141.85706902547747 -5.582449410565803 149.1793301881007 -6.389380485211847 149.7022095663166 -6.522884000349515 75.15628600483743
3.755163265 -11.603074312443331 105.54007609342462 -6.8477091981422 152.02878477558286 -8.579051251035716 121.04526145108295 -7.879815421886298 13.022669148109747
3.83677551 -9.009150607000402 92.65750455096882 -2.7340710614782227 140.5897572918175 -4.655784933439863 128.68147988911048 -11.506809285005808 -45.89480498217213
3.918387755 -10.835642323742059 87.06957307497169 -1.3686571243395074 121.27063242705594 -6.834400535615567 128.0039873763257 -13.498343785494072 -61.18529051424788
4.0 -6.932317650908124 62.84470400514301 -3.9153649826131747 90.44122045855407 -1.85105759861574 93.1963442286006 -16.300237835168353 -88.50959039203502
