!Created with skrf (http://scikit-rf.org).
# GHz S DB R 50.0 
!freq dBS11 angS11 dBS21 angS21 dBS12 angS12 dBS22 angS22
0.001 -19.86160292512221 136.5048895028752 -12.201855930807774 -38.90955882800455 -1.7614552844198963 -48.99470502964953 -8.275586424203524 -62.228810709980806
0.082612244 -6.3147264017512565 163.78464803987208 -6.231937923799602 -20.66703152036558 -6.1317292318777294 -21.091803309190315 -6.4746472667345785 168.6020447105477
0.164224489 -6.382404973635756 139.8801656533245 -6.17980903265974 -47.0227114000471 -5.634390594915427 -48.52881017127376 -6.350175087059215 148.66629722603483
0.245836734 -6.3524349883714955 127.05286458705707 -5.337718884091547 -65.86588946458961 -5.74173401720584 -63.176431083134126 -5.895800186362079 141.36525751158067
0.327448979 -6.616023599586742 104.72247222429486 -5.203112423884536 -86.3440895282863 -5.851041666117176 -83.19975289398788 -5.630825745059714 123.63736424391934
0.409061224 -7.563916795233633 77.41046912912681 -5.312812587486778 -111.45657759576942 -5.451395044802072 -105.96715223365909 -5.628484393298304 106.11108032435774
0.490673469 -8.979850988838196 55.935882249615254 -5.144580680473783 -132.99180263591808 -5.867914406067001 -130.46173290518252 -5.483758533032491 89.85674498993674
0.572285714 -11.680659203481651 28.303873548672765 -5.330440180532752 -156.29314947679796 -5.542560480497098 -156.01431912250186 -4.97641959255936 68.35095881798384
0.653897959 -13.838029097661146 3.7848944880385806 -4.41948122610007 173.94912085260682 -4.0464669992269355 174.19732933975033 -4.015403983175794 44.658820935509844
0.735510204 -19.72120917720853 -57.218091564743496 -5.0719097350352405 140.24895522033987 -4.8649682187296746 135.2209172461224 -3.960930080551293 14.277272066496158
0.817122448 -24.415140352264963 159.0397687525143 -6.15934688452792 120.3279027601357 -6.640620014817636 101.98427365733548 -4.182171824415245 -24.947558604788814
0.898734693 -16.0045059793552 85.86471662638914 -7.403639739054556 79.63748170067909 -7.643559217217705 70.49256838844877 -4.737809369082676 -46.20908649485031
0.980346938 -12.176851803856135 38.36662716605169 -10.536709206310498 46.9184823410837 -10.558311644318524 39.07908149609346 -6.887525951105653 -64.0276044135064
1.061959183 -12.17044430117603 16.8915363054572 -13.450362257499451 22.831830220072725 -13.930998546178143 21.093357113084892 -12.077175549135042 -86.16787632292733
1.143571428 -14.015383942176648 -9.126950552631705 -16.33244926588933 -7.424692369845225 -15.70011250507405 -1.2356925116696755 -12.153923048781897 -128.84913583792724
1.225183673 -21.052083585201448 -48.40400588588992 -20.235428881321702 -24.83840499349128 -21.14413447085266 -22.387769925736997 -12.242542708855739 -145.8489329938349
1.306795918 -18.747904892888442 -101.52114717893646 -24.530187368129482 -33.73188890701893 -24.255227160411433 -32.670785214089626 -13.529083807733793 -147.92600186426873
1.388408163 -17.864900874224674 -124.95435691326858 -31.873527351312447 -49.90530536627167 -27.366418409489434 -68.9618840119031 -13.90159746120479 -152.45856409628482
1.470020408 -15.680309079913716 -149.50583596012282 -36.58055218581072 -92.94041617460813 -42.772979286595046 -96.16691057772414 -15.000864276084936 -152.74997139327667
1.551632653 -18.495930625336833 -169.56448650125168 -30.20450492990152 132.58780547496912 -37.164574364757705 132.45372921596325 -13.720122974756316 -172.50181702093778
1.633244897 -15.641928395979408 115.95737215998905 -24.35735465141554 92.56630252762872 -22.56676585154238 94.05644322787624 -13.633001818749458 175.2481582628064
1.714857142 -12.004918502369645 93.28597964238276 -19.914196065848348 63.085726224645185 -18.910155188542348 69.51371612938351 -10.061889549584624 140.40396676743427
1.796469387 -10.174285134341808 77.48898733813373 -14.791243203011962 46.4264302432811 -15.064575237676706 57.657410571680956 -6.15197137248309 135.80181214083836
1.878081632 -12.194977758501418 63.38933938054486 -11.85345691652024 17.56179181556021 -10.517675204115447 26.71222541446576 -3.9386928237581653 112.67772295079406
1.959693877 -18.829696940243373 44.88298745179823 -10.368298536051023 -7.522707846013881 -8.076071457976102 -6.095519273636651 -3.615748866918762 85.70057161374012
2.041306122 -24.690753738334582 148.93131254821523 -7.120718798576404 -26.235035807688664 -5.477243944609917 -40.04843361654818 -4.066357578359807 55.74982406749257
2.122918367 -15.946483052073653 114.92330328487158 -6.617320522882835 -84.46410088044917 -5.68249385290533 -99.68380265261631 -4.525821962103364 11.632229982383697
2.204530612 -13.857339279186272 92.40628913064354 -8.094872022583946 -106.86033803413115 -8.134207613621365 -124.16121490118483 -4.472440250826183 -4.435546104586195
2.286142857 -7.551003171430361 48.6526349500659 -7.014329830852571 -134.2163789304939 -9.063029410135151 -137.28650426323142 -5.393001234553467 -16.435775696858688
2.367755102 -6.893168641177966 34.57528877394082 -8.217273073951532 -159.42405020914657 -8.273152834914967 -166.95918031098563 -7.42104299875783 -22.324831808949963
2.449367346 -4.771157773344069 13.165220772045576 -7.238227136503809 179.071605703108 -9.963801851539303 -177.69471669262512 -9.50031182707807 -42.648979007244286
2.530979591 -6.293229483402046 0.6987788735008832 -7.318285161093621 139.87791339292718 -7.310498777741192 156.58197335341845 -11.59830867210999 -42.885920695882064
2.612591836 -10.139820999425444 3.435884313282124 -10.006773507511092 117.81692443923043 -8.908564003297522 130.02461872195113 -13.432414465110782 -70.8606353369316
2.694204081 -13.137746537011289 -32.6191408467378 -9.396791574053584 112.7088274658706 -10.915444728595581 116.9404011815243 -11.987065375879782 -107.6988200604718
2.775816326 -11.230417559094054 -77.95293938501206 -9.750482549172794 88.60607447731667 -9.609649934938487 104.59780493017966 -15.193160181807038 -125.19517434176083
2.857428571 -13.451555345229114 -90.45110726453898 -8.050853923992861 83.0990408824614 -6.486577053796738 71.80192387909933 -15.780797846561509 -0.8606885450858235
2.939040816 -10.911914039398216 -83.91468269882667 -6.249866478790176 48.37858465166495 -8.327681851214962 51.52352505520565 -12.381850281393314 -57.81919046270196
3.020653061 -10.918398146382973 -83.3325372884228 -7.652514031423564 28.68728996841225 -8.410950047442341 27.145643823948674 -18.42645246563897 -111.17021004669012
3.102265306 -19.48689988321711 -178.05520339105846 -8.24231916745257 8.100608322146297 -8.685204348811538 5.910144310967727 -13.821127353299197 168.0883456225237
3.183877551 -12.724416346968667 147.51347961029234 -7.565206654321837 -13.292377205777944 -7.944713422475638 -15.203610496611244 -7.618817857385335 160.49487486023773
3.265489795 -11.83709774376917 134.34916177823857 -7.140269495386083 -26.533327933083815 -7.72065817560244 -21.78698934358853 -10.320187012276794 156.58411257718117
3.34710204 -13.459872706908369 131.9317034867677 -10.03801607717078 -56.104810958241025 -7.97776394843037 -67.84898328935293 -7.732976459931465 137.33126756735945
3.428714285 -13.7536801211739 133.7499879888337 -7.508046174886892 -72.4027301995204 -4.917888831791432 -66.14404782206961 -11.621797811457997 113.32215085529369
3.51032653 -22.11481595638587 65.86622847282497 -6.175767490474188 -105.95103048437463 -3.702118798447077 -90.602903919237 -6.7439128871733125 89.96299727207901
3.591938775 -17.635485576852435 40.711399005214055 -6.124095120071366 -138.79722481713205 -2.8056092889590762 -142.97278516155333 -3.0750490469460394 74.53206006658533
3.67355102 -15.247675721880158 122.25837855776759 -5.817665387299689 -158.016796049254 -4.695193301233433 -160.89452806019256 -2.0724119962133885 40.50989698334457
3.755163265 -6.780250972540709 88.03450403060559 -7.230375559713899 166.1053212506824 -9.601794117300335 134.68873015390446 -5.9323077436540315 6.583537096973172
3.83677551 -6.91581499324894 65.76263778077974 -7.980334950283215 127.19152077740574 -9.467331791645478 126.69479844085075 -11.894211446585654 -36.834210307859145
3.918387755 -9.392773808264348 42.509154586865925 -11.786310004114462 120.16268326759506 -17.91305542780115 145.78489240640874 -15.285533741887132 -69.10379020357759
4.0 -10.216230353488832 22.90874203268159 -15.8891797424572 90.20478877699377 -11.777748095289631 95.85003281568815 -19.656455892248303 -91.09378758920441
