!Created with skrf (http://scikit-rf.org).
# GHz S DB R 50.0 
!freq dBS11 angS11 dBS21 angS21 dBS12 angS12 dBS22 angS22
0.001 6.4897704142266015 93.47465123237518 -3.4756063454440707 -100.06753345876946 6.288391850199984 25.813375998203785 -0.06595048519060538 -178.08665805868227
0.008998 -1.1115925741772599 -165.4407623564289 -5.5770844520637075 12.455985379750398 -9.496877488886826 45.00463097882431 -8.048207167046657 -114.62023384915362
0.016996 -6.633890384898262 -167.53304795765612 -3.8486858072506096 -2.3002912681214056 -6.244794135928062 1.1379966082399533 -3.7358543103250694 167.47005586635413
0.024994 -5.94348063707789 172.11965705413394 -6.117067628295874 -11.899415556511382 -5.761914380636352 -9.136801192482437 -5.250361201971048 171.00295391867127
0.032992 -6.1756663888700825 179.13714439824145 -5.703462075256679 -5.18193480687813 -5.635188227539762 -5.673702281159605 -5.464614285799097 -179.70461246640994
0.04099 -6.010600459129129 172.8685133594006 -5.977622772727487 -11.62548763458009 -6.291109291038067 -9.509688551550548 -5.789213958626272 173.42690524672184
0.048988 -6.271261770558917 172.23063895398653 -5.993882816018282 -12.533753913227427 -5.998185025631023 -11.323822783409968 -5.846451483374614 170.80512210607657
0.056986 -5.862659466601052 165.72935289032569 -5.843358591465325 -14.982083917925758 -5.925632138037607 -13.729204376752236 -5.805212402248593 168.4033422612911
0.064984 -6.031750592395313 167.87714441512023 -5.549802348974908 -15.60819336107036 -5.705733845845614 -14.481133319543222 -5.93519082730176 168.57978733679914
0.072982 -5.888610071660603 167.5527829668488 -5.942446260304942 -15.226382873853803 -5.875914485673839 -16.836176524409474 -6.555709963290487 166.69204363553493
0.08098 -6.249867979563392 164.7822956653437 -5.894906777824758 -19.255802648388418 -6.126733377393171 -18.235156587993213 -6.294185723111106 164.36095920033932
0.088978 -6.3441277239774285 162.64708345862135 -6.149515451672727 -22.624606978312325 -6.131620209497793 -22.150857628902223 -6.08976283096475 160.54108915589586
0.096976 -6.035229366396945 159.00494793257783 -5.8354595563934 -25.919019579669268 -5.720490109023223 -25.177045626230132 -6.094661936149052 159.07978510402043
0.104974 -5.911705854998788 157.24931992014646 -5.507218802257582 -27.075197794200992 -5.374096911095632 -25.999157876828722 -5.758282424927078 158.13177288505594
0.112972 -5.644755596343069 155.80790895505868 -5.3032302228989625 -27.384487118176967 -5.455006938762726 -26.41722378209629 -5.8761604362995055 158.1965314778303
0.12097 -5.927140002802811 156.0297550649739 -5.402121927304824 -28.692296873473644 -5.699625000439632 -29.08558934718621 -6.184612163225115 156.1849403111062
0.128968 -6.379619132824041 154.91828173643555 -5.775535587235947 -29.552228309050566 -6.017176306112443 -29.28962307794116 -6.1861525657164895 155.95238546355924
0.136966 -6.49351308297425 154.9715523244593 -6.038019377447494 -31.318700750538305 -6.307609597827691 -32.99221398412561 -6.70172821616876 151.06202999658473
0.144964 -6.522062574522157 152.29180699759831 -6.301141991372195 -35.72626151027099 -6.2013170396823245 -36.018372097067314 -6.601240712679113 148.7331993341939
0.152962 -6.710676517709144 147.1378834596324 -6.367544066696639 -40.22571960595142 -6.080292439656418 -41.868246084140026 -6.782728507147474 144.7019285655725
0.16096 -6.6862941051743 148.73727473426763 -6.526954092068368 -45.325490297195486 -5.661353196819624 -44.45460998429814 -6.124802505288479 141.82640317332903
0.168958 -6.307159142639898 142.80991064820495 -6.0198219092247465 -47.48535832058029 -5.423841868833127 -45.33008145740462 -5.7037273316824075 142.13092979930752
0.176956 -5.899475796966639 142.15013472942888 -5.2472404859705515 -47.940290867366336 -5.328788453251178 -44.73838686373594 -6.156927162280032 144.9378218750121
0.184954 -5.8229853193685805 141.19694298598375 -5.275714933544182 -46.727314096435514 -5.382154408413776 -42.85070680848362 -6.272905381001177 143.24280351337606
0.192952 -6.17426827503674 143.01706282085914 -5.5064354845685815 -43.8911193991681 -5.709562125700952 -42.60210695618248 -6.513070499010631 141.48760767427726
0.20095 -6.310186496678687 141.5347774601285 -5.793115087374842 -43.425941506071986 -6.224098281502486 -45.481224326415294 -6.809600313218931 136.73260300067898
0.208948 -6.880238395955852 137.23189493486646 -6.023035031425072 -45.939612943901665 -6.207927159885572 -51.64344076512728 -6.917141447953824 130.82458315202976
0.216946 -6.658154628944953 133.79198866662946 -5.997231631873628 -51.312655739674625 -5.791369718168137 -56.84182422214632 -6.6937569538525645 128.14294064768552
0.224944 -6.714647661191807 134.8722842919231 -6.042052247843335 -57.33922154517685 -5.137873409617697 -59.042450103625534 -5.805719566361386 132.35575215926207
0.232942 -6.063128230241527 133.39028714854834 -5.307532397311318 -61.06884146912883 -4.947009114151235 -58.23672843678564 -6.087870281598953 135.35921438381928
0.24094 -6.155799656258397 134.64629150610764 -4.866497519300456 -60.972954455983455 -5.284925362242778 -57.57613047504088 -6.657754906716015 134.5429872713804
0.248938 -6.654379650842184 136.3316355632053 -5.141757633370493 -60.21111174115636 -6.111980767465842 -59.892567601998444 -7.390962128367184 130.5448307518611
0.256936 -7.272887912310937 132.47183867131196 -5.572862666455531 -60.4805929225824 -6.3614685988811095 -63.683104832277806 -7.5016095015669375 123.59606941579264
0.264934 -7.935251937941249 128.34882726475738 -6.098743413908996 -62.8638954708552 -6.589179628249684 -68.74316414797886 -7.227650105827202 118.38831507314377
0.272932 -8.29704962408662 118.06894921224874 -6.431577774035551 -68.14832769587697 -6.24422914751462 -73.2861814342855 -7.276192745590036 114.02391338250588
0.28093 -8.248663545436507 112.55152577084002 -6.432163834385225 -73.47859005493402 -5.732763208793744 -76.63646371454448 -7.042603063739237 113.85445156867152
0.288928 -7.482007126807612 109.19169598003977 -6.004270943798028 -77.47447765948581 -4.9728337035800765 -77.48190227389061 -6.11394677536622 112.13761252980342
0.296926 -6.354994539124734 111.14487415170636 -5.435497594717243 -78.65869227235117 -4.694535832562183 -75.54658554115821 -6.0876904483054535 113.27457095859211
0.304924 -6.834186177888442 112.58720765823773 -5.180142636734181 -79.32880620331193 -4.8451161836622365 -74.42383840340268 -6.734475371903958 114.70316598631271
0.312922 -6.156684952118214 109.98086001165424 -4.7753860816502645 -79.39472155593243 -4.913804927088589 -74.26573619951778 -6.592812047035114 113.95939989423466
0.32092 -7.076662297448863 114.92728271649324 -4.9775146829098365 -79.42194906398771 -5.594471152930588 -75.12225113303613 -8.092051813614866 111.96177279371365
0.328918 -7.173439857889687 113.79682119351835 -5.226077071685207 -79.29943422508745 -5.931158233445516 -76.75395386735887 -8.404483621529835 108.57728393875169
0.336916 -8.129303462216793 108.52304567207479 -5.584297916559469 -79.30020832020321 -6.284645545821466 -80.4304503881085 -8.38469066854844 103.61948466301227
0.344914 -8.701007604422124 105.60913841340685 -5.846253608064721 -83.69964803818932 -6.314999379944277 -85.99985359897782 -8.122772613556737 97.76805095539844
0.352912 -8.943318068363196 103.5249561873303 -6.059605210036461 -85.48527246270442 -6.055158424746842 -90.45644297802016 -7.857039272118758 93.95114111723034
0.36091 -8.755854924859781 93.63359264552146 -6.423361236838893 -89.87114183990843 -6.021170338578249 -94.91227104092503 -8.191595019014876 88.75819519403115
0.368908 -8.348575028715521 92.69906921335411 -6.290345763319345 -94.22943577812929 -5.4329581641575295 -95.74968513876267 -7.576345027529849 88.49023056474857
0.376906 -8.889345704871337 84.31597315775612 -6.023655793031351 -98.87358627138973 -5.027805237711453 -96.75012321061376 -7.081445437351261 91.25645048382977
0.384904 -7.6262544288803555 84.92148772650452 -5.750440302714235 -101.40894372356935 -4.864494362128003 -95.83968132143893 -7.201862363096637 92.95418234471894
0.392902 -7.955057829498889 84.25564839799452 -5.360445043922514 -101.85044471666656 -4.8554864369466015 -94.84020557005381 -8.311989642061643 91.1606285500686
0.4009 -7.694682851902643 88.79103283406965 -4.979130396947095 -100.13607349858765 -4.857633247833977 -97.01729171211275 -8.84168997172215 81.75899888985435
0.408898 -8.105944665253093 87.97520838133862 -4.726218777598143 -100.46971997374844 -5.170356481181474 -98.30205615972092 -8.72518369896465 81.91170529559109
0.416896 -8.810102942096561 83.53965607978301 -4.831294491423075 -99.89355343947372 -5.647856431460966 -101.71648857229539 -9.1066300162375 76.52372441536619
0.424894 -9.152148004990746 80.775323141374 -5.208545752965136 -100.4287486908559 -5.723247169874429 -106.77360078534603 -8.922118598035933 69.84588789802908
0.432892 -10.081280655242404 73.63520428710378 -5.5888738932850925 -103.56721386541231 -5.606965841869581 -112.01214863570742 -9.267181510732032 67.51439518330156
0.44089 -9.191941732745999 66.61451074639355 -5.7916308583967115 -109.31785658019346 -5.059722481506414 -114.6645265806438 -8.13689146413672 69.77063889908834
0.448888 -9.45982808138309 63.74794556780146 -5.905382626092183 -113.15481094983883 -4.975338046586778 -117.01579475757015 -8.626487160427802 65.42369577152711
0.456886 -8.926321353439512 63.414552015598176 -5.515232747620353 -118.44180530051659 -4.552692985510326 -116.69476022864886 -8.842676584887254 67.71805584592359
0.464884 -9.234651621635807 63.86694218963433 -5.299411381136364 -119.57722661946899 -4.825219332738762 -117.49216965369736 -9.543620169116648 63.083678857762685
0.472882 -9.167459707570199 61.42309266043956 -4.981155008729611 -120.85767042798449 -5.147117253791693 -115.93844271666083 -10.495825593848597 58.52759427904794
0.48088 -9.501029223637163 59.83552870151738 -4.983860664260393 -121.06745418547172 -5.348957520077881 -117.70070892008152 -9.450251792867501 57.203934273381
0.488878 -9.550126981957018 58.11328272353899 -4.952837265361401 -120.86940213137369 -5.952251417690291 -119.79247215236381 -10.640054942065316 51.35570371364232
0.496876 -10.286631156353748 50.484816379713806 -5.287313030523882 -122.18600058806118 -6.147657190339312 -125.23546222469692 -10.278879388442416 49.995107469711485
0.504874 -10.079443198299264 54.25383623793275 -5.47465228217148 -123.00869930819866 -5.857692590150783 -130.0531066390157 -10.091706904940914 46.639614173239714
0.512872 -11.307207846773299 43.43347832367842 -6.064066999842275 -126.29538341704554 -5.5962239375888085 -132.4214295808579 -10.468479215363429 42.62266005839398
0.52087 -11.120304097170251 43.01790811169038 -6.111887928024968 -130.022934975243 -5.398070064383635 -134.94572552492232 -9.493935307238772 46.6436902407878
0.528868 -10.607373451384882 44.40265018928986 -5.680512094897024 -133.79325662849533 -5.0433518181972525 -133.58053120867925 -10.928765074752738 45.94450944918357
0.536866 -10.871239066154132 39.28897794515397 -5.515381879542325 -136.72317093004187 -4.807802741484059 -133.93410142369424 -11.341109383630883 43.80002289771276
0.544864 -11.103790875847332 36.36932270250269 -5.075919193688315 -137.7302465722642 -4.898212103165058 -133.24481419661913 -12.043870615537504 41.907441384789536
0.552862 -11.672401135521199 39.7436175542887 -4.749691844666256 -137.26745164919316 -5.204851814079788 -131.87362121463536 -12.353001958150312 37.884697872390575
0.56086 -11.181544478460077 38.452624916906636 -4.388601033330259 -138.0837661798649 -5.5869857094255 -134.4351969104834 -12.435857929621413 33.61976065100134
0.568858 -12.228691087170455 36.489551450221384 -4.5853504467107795 -136.0356134163468 -5.729887171900645 -137.52678641965548 -11.975554170325617 26.187412197824646
0.576856 -12.580942724467342 31.114793819678685 -5.073449473412889 -134.3982249087256 -5.732551298881495 -142.29912388168123 -12.00779331752776 20.365459477109617
0.584854 -13.01345304301218 19.86169493224483 -5.700779023411599 -137.57868091893886 -5.163946181517734 -144.85016727060068 -11.362355452480212 29.826755231853742
0.592852 -12.558321249833035 24.05184566442573 -5.503584733587577 -142.5431956053802 -4.607727393396701 -147.0433002893173 -12.934311656185493 23.37243628920061
0.60085 -13.2255068974993 23.11867378602967 -5.12112172726476 -147.12259424403285 -4.05620840098639 -145.96806037744773 -16.19389180192603 20.219439695671525
0.608848 -14.263825336165471 22.54949491747188 -4.641437128764387 -151.22256438343186 -3.8309638121169405 -146.43685935496399 -16.77725226827053 26.1298202566453
0.616846 -16.396814581088183 23.5134991855389 -4.298533748723802 -152.00422150501 -3.8294826173166245 -148.47786480211167 -15.820174768361477 20.528570188756515
0.624844 -16.47025446801859 21.343289668431748 -3.841585330071631 -154.4862611081278 -4.118903151330212 -151.40437796262654 -16.52518599378076 13.353867351786953
0.632842 -19.05035229486375 21.415385844157193 -3.6887598262766037 -156.0300205135427 -3.8818712244472393 -155.68924734626165 -16.056253274174544 12.205501279141592
0.64084 -19.577319889673856 22.321856814599126 -3.559806200621478 -158.33406558569246 -3.8598219972733414 -158.94408006611891 -16.630796570162563 14.39146752760244
0.648838 -20.073193834990775 12.424132559794568 -3.711243881676583 -159.22314065859965 -3.6517543594063344 -161.17962949716102 -16.6198498342191 16.81841627608883
0.656836 -20.690597721712262 9.448153880571297 -3.636692588216259 -163.15203280422844 -3.573898473127466 -162.84761046840637 -17.849813584976463 12.811595686054282
0.664834 -21.598798204434004 0.8308750303627729 -3.425398383500719 -166.17155583602147 -3.5782227773272854 -163.80246357993568 -21.139775827215594 13.96210776683719
0.672832 -26.30911360437765 28.52103286834634 -3.4402926066652078 -168.02704859698747 -3.610072766095561 -166.99930062012615 -19.394030276071984 0.6079214175507848
0.68083 -27.252401930643586 4.4770416300922316 -3.345456550943067 -169.77321896932258 -3.661419956057397 -169.0876154377783 -20.493722588437024 -0.6802867712926303
0.688828 -34.85476478781936 -26.402673299908233 -3.464855837173496 -172.22846237695055 -3.5442029605935215 -171.5545891975551 -25.742643130417278 -5.632018097182521
0.696826 -36.43293354281151 -68.04224696465843 -3.391109704813089 -174.91480658063082 -3.5377541172030775 -173.92926422267914 -27.86611964856578 -1.7193642942090153
0.704824 -30.801032797113173 -98.93635989948429 -3.482268013908617 -177.02088070041304 -3.43450558358808 -177.50862444056025 -26.199301481726227 -41.562687684429804
0.712822 -27.72058454651178 -95.1763796829587 -3.4641678344701803 -179.26721609014893 -3.251701105605444 -179.32754746850208 -33.9608644660496 -65.89989610745623
0.72082 -30.426278903730307 -137.83213233031003 -3.455951096860904 178.10688013867457 -3.2142716563948897 179.0872773087307 -29.628783147787793 -118.48702137581216
0.728818 -25.660861242941092 -172.8309046359217 -3.2444095396526667 176.9621971969271 -3.197075251399366 175.74422333826203 -30.2903372150601 -94.77604547988298
0.736816 -23.685587534874717 -168.76277918420686 -3.133561262599331 174.38832262129432 -3.0137326771666837 172.75067247152214 -32.42116079431562 -154.17904315941354
0.744814 -23.500396006969467 -160.8315443201263 -3.0547943732071388 171.81289387154305 -2.8882057027110393 170.16854159473897 -25.601944568321425 -158.6095297835612
0.752812 -21.414617988949157 -170.00835277964293 -2.9939539448299897 169.83115528577113 -2.8640322968052074 167.32735541697204 -25.869547250258975 -170.4002793589442
0.76081 -20.56002207748625 177.84142047602091 -2.998493230714354 166.13718634503547 -2.776007573044451 165.10607691041923 -22.50083034465382 -172.84203106443718
0.768808 -19.047299302664538 177.25995125350633 -2.959286574817476 164.08598612851878 -2.704407395088322 164.03921735483476 -22.83272000668314 175.30806574675458
0.776806 -18.312739419858715 178.20338320159487 -2.8808043832394343 159.84284231815028 -2.574720403823716 163.17528357875412 -19.296783273126852 158.89038373514828
0.784804 -19.436076513314934 178.32264439197021 -2.5624940849060933 156.798573314241 -2.686084351570303 160.95980826793067 -19.52406357081394 162.89008290577442
0.792802 -20.003535119625706 173.44520533694342 -2.2914563768185174 154.80235008255087 -2.9301393877390063 158.29390723530938 -18.569885320597244 153.26485411525906
0.8008 -18.37548555785363 -178.40173510051417 -2.155417728492121 154.3566595775925 -3.017565051100956 154.71235332243273 -20.201394212052474 150.05099590670642
0.808798 -17.8727128922664 172.42009004233768 -2.2668141550028147 153.77529326416578 -3.087828510809975 151.81271760909138 -17.39141521847565 153.9223445415937
0.816796 -18.921956853562502 164.82291104861935 -2.627893121449536 152.71576908295833 -2.7821382043872607 146.9962769340729 -18.708952886729975 148.85577761337763
0.824794 -18.04385140835229 174.2184295485728 -2.8707234012706095 150.1088214187843 -2.3781729365487463 144.7940611416476 -16.488323360186318 132.53564266274657
0.832792 -18.227948969009393 160.3162041992708 -2.997091456019633 146.72824715720765 -1.9654366999384525 142.71902429406146 -17.193669765462733 145.91325077527688
0.84079 -18.6369580107243 164.01208095093554 -2.9685177303769663 142.34129569826908 -1.6459820092456603 143.50907217737134 -15.77868061624778 141.76651473020942
0.848788 -17.317414760463308 162.86426871394482 -2.8182980640031614 136.77852176317813 -1.600396493646237 142.77628944058213 -15.160994724671912 128.77590373839362
0.856786 -18.920055647901 151.4355995901369 -2.164387257951848 133.04849396789885 -1.9451966783626533 141.3026875215872 -16.572832038296077 125.29808226081008
0.864784 -19.273651020537038 146.78706840647953 -1.6865234082886658 129.7450337000931 -2.2536585997684826 138.70424106222583 -15.824290259370022 130.66839385318042
0.872782 -18.83267566789431 127.2195919380787 -1.2448109298497334 128.5593215265715 -2.3632305027292277 132.72063071210238 -15.052131409720307 115.12168835037379
0.88078 -17.980067332148725 123.75925422411495 -1.100444163751417 128.38710471216106 -2.375809235475628 127.75210773883431 -13.390907127073483 107.79783461621481
0.888778 -19.615372425635375 104.39010484845909 -1.3659265550565811 128.37357393037314 -2.139833623900101 121.66461741986564 -13.543547347655398 100.67427962349598
0.896776 -24.546293979423073 99.31238205353884 -1.8326589521397874 125.21672674426794 -1.6021617635862584 117.96116698420211 -13.873716196054923 107.25844575819174
0.904774 -20.013425873788822 81.7789551626005 -2.3408243461350824 120.93494888363982 -1.1843421128560498 114.42602810261417 -12.890733424087216 92.70224378872776
0.912772 -19.574122941292277 64.63980178979375 -2.612018915482657 115.178868563879 -1.0836288694349019 112.83581023083276 -12.844275310218944 82.99121329532313
0.92077 -17.720426589993465 55.31660827967086 -2.8183972086073954 108.59032472019696 -0.9872328092793512 113.24744600997289 -12.859136339697432 72.36500533880027
0.928768 -17.566092355956805 61.069958847699326 -2.656609525071919 103.48390289594107 -1.5906642810824616 111.73144336755927 -13.255864715261524 70.18738133329559
0.936766 -17.78285577022906 62.19437422002187 -2.261348862013909 98.07876974186149 -2.08906256598861 109.30525865522118 -13.962872471689312 52.82506558531801
0.944764 -15.013903103937674 43.9054136054938 -1.864650305432072 96.85060347787159 -2.6945017984449864 103.01768079945543 -12.00759041159888 54.36863508044433
0.952762 -13.58113610913371 28.99882981333434 -1.4892014627297623 96.40663546948674 -3.196186681616785 95.19112108464391 -9.816339276425515 42.77372337552863
0.96076 -13.022994017677895 27.273944529458056 -1.5506601804419877 97.15985791985855 -3.220987925197607 89.95134037545623 -10.865454024001824 47.75272653361395
0.968758 -12.829347176007245 22.73132231225076 -2.0728377725089517 98.17077762061253 -2.9187656187642745 84.0405075346551 -12.05156350424055 45.71971911611935
0.976756 -11.989299659951753 19.991472496883553 -2.682243067584192 96.56076476396618 -2.4236755792434974 80.67187524939868 -11.012082245418737 31.601787494954884
