!Created with skrf (http://scikit-rf.org).
# GHz S DB R 50.0 
!freq dBS11 angS11 dBS21 angS21 dBS12 angS12 dBS22 angS22
0.001 -71.1258934721493 -117.50251856574687 -inf 0.0 -85.51587322783718 -44.02588900419558 -inf 0.0
0.138896551 -54.834578927556294 -153.12980313167589 -inf 0.0 -48.54837570479294 156.12644845627247 -inf 0.0
0.276793103 -52.70986693206936 73.55376026874906 -inf 0.0 -47.59132623981127 102.22993342560957 -inf 0.0
0.414689655 -54.92853240675729 9.82931630275996 -inf 0.0 -52.9021050182833 117.09686799278096 -inf 0.0
0.552586206 -63.25710843158799 -112.4895273961945 -inf 0.0 -59.783163076601404 -1.490327019194897 -inf 0.0
0.690482758 -54.817679195506976 68.24328950374061 -inf 0.0 -71.61168821020516 -143.8503939560087 -inf 0.0
0.82837931 -51.350088682009726 -14.342638362585928 -inf 0.0 -61.265461557538366 -128.3179892323487 -inf 0.0
0.966275862 -56.198860313775924 -51.99323913566079 -inf 0.0 -58.5333488001894 -112.05269135162428 -inf 0.0
1.104172413 -61.84844649474124 -171.23331983634648 -inf 0.0 -56.21713914299674 -99.88796385563883 -inf 0.0
1.242068965 -58.71963539271901 165.91810125271422 -inf 0.0 -51.73673533356438 -11.458734877040596 -inf 0.0
1.379965517 -60.060718946678335 73.58173628268905 -inf 0.0 -53.52016878378056 -42.14359262894078 -inf 0.0
1.517862068 -59.28266150372166 -77.23134359683347 -inf 0.0 -53.201333410579196 -94.49571104033029 -inf 0.0
1.65575862 -73.31447686725656 -118.07190542519915 -inf 0.0 -55.82328323197111 -106.98376301958211 -inf 0.0
1.793655172 -68.70525461971957 37.266945152568034 -inf 0.0 -86.92717163727112 158.49776408599845 -inf 0.0
1.931551724 -62.26334916904757 47.87204884291737 -inf 0.0 -80.76966071184401 -87.6158036032198 -inf 0.0
2.069448275 -66.50353096984625 118.90565762277262 -inf 0.0 -69.22702732178125 -75.09658541659046 -inf 0.0
2.207344827 -60.7673026410297 43.48205979636449 -inf 0.0 -57.61186037713165 -156.69990195876622 -inf 0.0
2.345241379 -65.54964587723781 -39.43518720042683 -inf 0.0 -57.94946360482709 -179.6551230366078 -inf 0.0
2.483137931 -57.78947573525294 -164.5814252556837 -inf 0.0 -61.99477996670837 141.6830124547015 -inf 0.0
2.621034482 -56.90949798934247 58.86995512305833 -inf 0.0 -60.2275630038849 90.0 -inf 0.0
2.758931034 -56.164212493070465 63.93714501142815 -inf 0.0 -59.55037303756456 168.31063082456083 -inf 0.0
2.896827586 -47.642938174223914 -39.67081655501228 -inf 0.0 -57.891979317598164 79.55200259550256 -inf 0.0
3.034724137 -45.68027493835498 -85.58736669617237 -inf 0.0 -81.89776473672597 -84.56369644669385 -inf 0.0
3.172620689 -44.3695624649261 163.71571863361393 -inf 0.0 -69.49539232033553 106.51245790942205 -inf 0.0
3.310517241 -43.54482814104571 54.36692463842178 -inf 0.0 -56.80961149469938 20.3320500734654 -inf 0.0
3.448413793 -41.809646868174 -56.76235031193307 -inf 0.0 -53.36981513572998 -10.29892004456638 -inf 0.0
3.586310344 -41.754354142834046 -167.99668991740785 -inf 0.0 -52.1693253174583 -49.64221057590642 -inf 0.0
3.724206896 -41.47060756575488 97.52911896525936 -inf 0.0 -54.00827713565838 -68.27319424749994 -inf 0.0
3.862103448 -42.80417300742809 -8.472626003740078 -inf 0.0 -57.79639960524814 -84.45779386682024 -inf 0.0
4.0 -44.62964327518931 -93.48664369431678 -inf 0.0 -60.90154682304777 -110.45200693762177 -inf 0.0
