!Created with skrf (http://scikit-rf.org).
# GHz S DB R 50.0 
!freq dBS11 angS11 dBS21 angS21 dBS12 angS12 dBS22 angS22
0.001 9.391706404575633 -36.21700293205674 -10.070938128842394 65.28780819144707 26.478500482851 136.41944469356358 7.13382602573337 -128.40885362187234
0.008998 -2.523430559860074 -116.98125600175122 -10.654668892084448 3.1368569115097 -12.064608882761465 8.6873995345202 -6.792500274180733 -9.84807667293162
0.016996 -6.0883846916614885 -167.1976315126757 -11.250076223487957 4.176724508463507 -12.336163127605563 4.2130402887237075 -10.64271099860348 -5.242515872469712
0.024994 -7.580811523522359 -167.80841279008035 -11.489370521584362 1.2811132386186326 -11.634232890383082 3.425229534414423 -10.88295780615374 23.044821513003622
0.032992 -7.0693968565262955 -172.70165834130057 -11.616350359309324 -0.42321698025115556 -12.326511402558038 -1.533378602385626 -11.431410762860283 23.461154744579854
0.04099 -7.216809712059289 -179.17352222766402 -12.221775614811513 -1.4771860379012622 -12.521726524330195 -4.316391965461671 -11.213977757849499 34.91849585928525
0.048988 -7.562590051870357 -178.2214284516283 -12.114386073681061 -5.001813199043431 -12.028091882606113 -6.079781465010767 -9.821117359690103 37.33458207228557
0.056986 -7.5542423163594785 176.478623746826 -11.940816034055251 -7.503962827158632 -11.921207659091763 -6.7905542382277915 -10.310859748301342 43.83133748399936
0.064984 -7.022700578307102 177.53722534490987 -11.230023460249093 -7.6334215921971635 -11.510453018491816 -8.442568405094908 -10.061546746943952 49.32736652833492
0.072982 -7.34937513120289 174.831542636712 -11.42834511100081 -7.167848295176835 -11.64444458467364 -6.927360121093415 -9.594883768979907 54.08277050734515
0.08098 -7.335356243097067 172.00647582797242 -11.50348106191819 -9.088882529172658 -11.643231828713088 -9.58556726114827 -8.087514896519306 60.05220615334588
0.088978 -6.679818463503249 170.94026334271902 -11.3542163195756 -11.542421926403303 -11.386980962868007 -11.999702389903174 -7.877067054717198 66.65148058922159
0.096976 -6.449858306823501 170.59838660836996 -11.372801076564771 -13.218279477945977 -11.142903799687316 -14.605777750977204 -7.884274819075463 74.90223006798752
0.104974 -6.247376285833574 167.19999793938646 -10.925486813367765 -15.627406477328565 -10.981063824942046 -15.22139618374571 -8.078928219431683 83.96118651262954
0.112972 -5.8815709423064035 166.7763521488612 -10.68234241192805 -18.051359137983255 -10.600802864673184 -16.80051911084105 -7.9537916882076605 87.64712373856364
0.12097 -5.359413502437174 164.96638632023598 -10.45979546340722 -17.67800912651526 -10.454538001976605 -18.169804701658954 -8.147453349673464 90.0363580658579
0.128968 -5.428918669192797 164.12074016418197 -10.216948928064637 -19.49374044156299 -10.379333616901567 -19.67255945979359 -7.685436623274258 92.00815903072396
0.136966 -5.277683967862297 162.10274509265832 -10.315955470862686 -19.641341326563644 -10.337880020312948 -21.85521842321442 -6.996662170372973 94.24891693724999
0.144964 -5.51586067947933 159.91560109607553 -10.507529187485273 -22.981968686007317 -10.231038651281104 -25.64727524655543 -6.0451340769497595 96.52334545553406
0.152962 -4.961190871725631 156.0019346358604 -10.327334149723903 -25.530891915169093 -9.992863106861451 -31.77221532520553 -5.4504080145898435 100.49837862959981
0.16096 -5.036221285309624 151.180371707006 -10.284565374452965 -33.6964581605881 -9.42721193867329 -35.8521709032023 -5.136060531921175 106.9015175230931
0.168958 -4.503887595312163 149.6946106030206 -9.875982064776727 -36.61206607521476 -8.935855949049696 -37.247675441651 -4.785328515917967 113.00239093727338
0.176956 -3.9836589885651645 147.4959344877578 -9.063709311653803 -38.9372052949423 -8.48753491801139 -38.284785659324484 -4.655784755056764 116.89139520078572
0.184954 -4.00210216513836 144.7943530431823 -8.504343279495357 -39.76170002372968 -8.110348905613268 -38.744304626745105 -4.585347538674186 118.82459835841172
0.192952 -4.003634647487888 143.89465377101686 -8.23684737770761 -38.643878638084054 -8.58891437333341 -40.6516912330437 -4.96179632641492 118.77906975593152
0.20095 -4.42153701819927 140.10099314609306 -8.639682687150644 -40.31988410910436 -8.958936187320333 -42.01139171653898 -4.713875767251555 120.16366776708364
0.208948 -4.615652968745229 133.4379831364664 -8.833796390171804 -45.24636980438281 -8.906737928711795 -48.34924412759102 -4.370635167860515 119.601500140179
0.216946 -4.486012021630971 128.6784362200698 -9.018381322188105 -50.857784711253046 -8.549774409923227 -56.0989480633829 -4.023428461296582 121.79090540022146
0.224944 -4.182449992159665 123.05204426865778 -8.544717763284051 -58.01718162082419 -8.101703697938841 -59.4905992629301 -3.7226304017890706 126.58709588703901
0.232942 -4.006759917906897 123.79528216912117 -8.195038507598671 -62.21031008790982 -7.950628459234439 -60.618659579215546 -3.7718495186231666 131.8660102620651
0.24094 -4.458962873632798 123.31708598479956 -8.037601905937684 -64.03285380749534 -8.36174411282824 -61.65506184924449 -4.301390527274351 135.04464879910523
0.248938 -5.1054510116076965 120.50367169438697 -8.269162537962753 -65.09099563841589 -9.062306171297955 -65.8513885641585 -5.0980903413081435 135.64086021477817
0.256936 -6.140101207681136 116.37995250785593 -8.974289158770727 -67.4875509028551 -9.831340366804554 -71.3019846859625 -5.317603235170627 135.76740817541094
0.264934 -6.423765581999507 104.51447202393356 -9.453836253018162 -72.03164753300658 -9.785161732391696 -76.7595364939316 -5.290525303473693 134.08303462542628
0.272932 -6.811186901881436 101.98872636914936 -9.949695419967261 -77.14931353832868 -9.706510804494089 -82.1793090461699 -5.22652877541387 136.84998198611987
0.28093 -6.496725380504593 94.18346025640788 -9.78432183009307 -84.18967769325268 -9.178333817589085 -85.742100143872 -5.365532248711597 136.57048970973858
0.288928 -5.8970345791595875 94.46862820194573 -9.644377275892351 -86.44366979814541 -8.86184911346355 -84.26362904628182 -5.393520387128077 141.4028994709701
0.296926 -5.9019568388940655 87.23174258747352 -9.2550521371225 -89.67456256412063 -8.975521308401898 -84.39900582754854 -5.598548736754551 145.1983131849482
0.304924 -6.266926567433895 92.9553454892802 -9.22136708135856 -90.1763814852495 -9.201076769284974 -81.46254634771455 -5.472226353338154 148.6892725254487
0.312922 -6.272075222216938 95.2294671484421 -9.16470412200393 -89.72975298401641 -10.061722935371009 -83.33135561328996 -6.123954655021782 154.74232503714998
0.32092 -7.019988330179567 94.40676593165762 -9.547663868450233 -89.14641691691939 -10.471594605031973 -86.6389013924224 -6.5963999027267715 156.6742382597545
0.328918 -7.746467801028336 92.67866937942986 -9.944431263434051 -88.76715737031107 -11.125507141838167 -86.96983885456352 -6.375405673928682 165.64219329773474
0.336916 -9.417659726316655 91.76826413156235 -10.655863123374719 -92.01602564709482 -11.265708857546706 -90.92938901231585 -7.40625075057307 167.94283162591634
0.344914 -9.460163660633727 85.39031502868148 -10.824633230168956 -92.74071192500098 -11.265640764045841 -93.95638190006134 -7.535058331723684 171.76895423908758
0.352912 -9.287466864292828 85.06315940222972 -11.09437256524826 -94.33578135788305 -11.168997397766285 -96.92748088604209 -7.88241509649195 178.50182037344632
0.36091 -10.058333160391122 85.39598896647135 -11.479889714896153 -97.30725610500923 -11.206579049111124 -96.12096937836495 -8.442752568964773 -179.3317078759956
0.368908 -9.842940714012286 82.07441140720499 -11.842448421972868 -100.37346276487783 -10.977308161209665 -96.76379233818317 -8.591899512803181 -174.25165902576933
0.376906 -9.823115734060831 77.9230673809806 -11.662331067753032 -101.74768687264823 -11.035263292137095 -97.87129411849622 -8.727130241902055 -168.6414823470669
0.384904 -9.78886461029521 80.23916818457191 -11.53648450388226 -105.50188331121856 -11.139050756803975 -97.49853706786735 -9.515524279983293 -158.2537994470888
0.392902 -9.66591866243035 83.8970493280124 -11.45540377285121 -105.67974509143042 -11.52215555144946 -97.17305491668925 -10.023526529863656 -157.19480281635677
0.4009 -9.554424074571482 81.79263636244353 -11.095939458082032 -104.78215551322742 -11.795495056199865 -97.38987285187649 -10.014332703736342 -149.54504809148008
0.408898 -10.383036797021889 82.67343751057274 -11.332597622058493 -103.8724989234741 -12.081935622093336 -99.67452355079635 -9.997759131399455 -147.85097846444077
0.416896 -11.396347650303467 86.402277855511 -11.333662731395645 -105.79746197946895 -12.158341234515625 -103.3824009389534 -10.100824510409272 -143.15888192966426
0.424894 -11.460594068592735 79.5386924956911 -11.575232900277086 -103.96124935391225 -12.188178997659689 -108.0559339387289 -9.90969388252832 -133.5373257379688
0.432892 -11.23819447311119 78.55032031613142 -11.77275201342491 -105.93322309244434 -12.029602500382385 -111.38430001077127 -10.16791505537244 -127.81381925850472
0.44089 -11.059354322101669 76.83378972076306 -12.018660362281759 -107.7814180931395 -11.254906876333788 -115.08379271517049 -9.888501770674054 -123.5151761929249
0.448888 -11.787871643330526 74.32548862015358 -11.897054858559626 -112.8950698173605 -11.218106150051831 -112.88349924095499 -10.323412026188477 -112.74937459010046
0.456886 -11.382542140813195 68.29061056730036 -11.353193326726911 -114.73195959346425 -10.835240681049033 -111.87029841546014 -9.976443299244655 -102.47106132161674
0.464884 -11.51506663294036 70.2292130361295 -11.005090579097752 -116.45088255185114 -10.610543434327703 -111.37992202154608 -9.86693472058742 -96.06550910357166
0.472882 -11.621057525537664 75.67385720052064 -10.72319286401234 -114.57286882243532 -10.907851818657994 -109.03585962967873 -10.273958544669563 -92.3897281738733
0.48088 -10.1663371471083 70.48326624502344 -10.521986103244005 -113.88585183575022 -11.324407183217264 -110.15407731250134 -10.348473410392822 -84.70073966047948
0.488878 -10.657178165145789 78.98139827477937 -10.636021125455013 -112.491172263315 -11.854324530153706 -110.38355617259685 -10.423128362670425 -78.14416442456023
0.496876 -10.582982333256066 68.60304714414298 -10.872462354928407 -111.7810798161675 -12.295373448955136 -115.51989431865917 -10.37665218857434 -82.17696024104967
0.504874 -10.047045733280445 65.56623571525688 -10.991623068986954 -112.3247174183301 -12.031476731780963 -121.04345458717303 -9.95142060367449 -68.70507932705041
0.512872 -10.156742291458334 69.74109013778546 -11.152760226411612 -114.952664413682 -11.860296318549977 -125.15879400251312 -9.338175833045536 -67.69679270989242
0.52087 -10.144961536049964 63.861816776574294 -11.371717389943722 -119.15190101384638 -11.111240130745795 -127.45731906361951 -9.719207545075717 -63.812499986054654
0.528868 -8.91816588327476 53.85558156994864 -11.111842256519289 -123.86747403050363 -10.713116608477556 -129.55266627400508 -8.729875136200338 -58.25924982548234
0.536866 -8.781760648278901 57.09749994021627 -10.389912601084053 -129.05810576519087 -10.28170379858842 -129.64124381941087 -8.167442115204185 -51.37582955593648
0.544864 -8.699010054604324 58.68700099132235 -9.690455917987814 -130.95158583551193 -9.994972401770303 -128.47058688927166 -7.807848961098097 -43.11274115051965
0.552862 -8.251145958261747 60.0272869945293 -9.07923448870368 -132.0442015750003 -10.314940643162727 -128.6602138427576 -7.889227287476681 -36.80539010316532
0.56086 -8.509302376126055 57.20278842486965 -8.676391450933803 -132.3830825776693 -10.175898266564516 -129.88017213808251 -7.958612828908369 -37.8095300954797
0.568858 -8.705151000501377 55.15585841905603 -8.379679266458727 -132.10490507365407 -10.308420924661208 -133.2757385126847 -7.789697449967746 -34.72195752914372
0.576856 -9.224025589918487 46.73088541150726 -8.761442884148593 -130.24792656158513 -10.12082204750115 -137.52721037067764 -7.73756603098482 -31.697310968802864
0.584854 -8.67817147602822 40.64747732900846 -8.776677247462795 -133.09915722574223 -9.73179806581724 -140.3059328270983 -7.232688446221225 -29.899677112924422
0.592852 -8.660111508535048 33.20160813836201 -9.033742467340637 -138.41877959621632 -9.229233449396506 -140.85518451749908 -7.4286891297818025 -28.591470657640762
0.60085 -8.340988385063001 29.951290912133754 -8.901164581364533 -143.548676035991 -8.868965804826274 -142.6722981645919 -6.5785684594911835 -25.570728508676083
0.608848 -8.484565001273491 30.219645725477893 -8.204724218178418 -147.26467176638755 -8.772806571743693 -144.5163725176669 -6.763449123620816 -21.705660012270314
0.616846 -8.96320859001083 22.823387348726683 -8.176704416427151 -150.4216056815249 -8.614865204221232 -147.43163535478578 -6.559842396446324 -18.27860849004724
0.624844 -9.325574032581105 20.058276920611473 -7.87636705882478 -153.70619182368105 -8.586887612454268 -153.86412945164977 -6.893726351739387 -13.22109632546422
0.632842 -9.369651525724938 17.31124835726102 -8.084961191174564 -158.69684370446322 -8.306207745089907 -158.09182406044536 -6.6894624225566535 -11.740973138229561
0.64084 -9.556062362106234 6.926545622073967 -8.022286486707156 -162.4207224122702 -8.016287868407929 -162.17481611004254 -6.519824399211683 -8.669967115905322
0.648838 -9.666589868676798 0.4513209495600716 -8.036876261192754 -165.31953078747796 -7.911840779362724 -163.67478327647063 -6.632087743685374 -6.0295492989492105
0.656836 -9.858404771044189 -4.39922663146284 -7.704286855258946 -170.5408064051944 -7.886026092193095 -166.0807665839639 -6.594512816849574 -3.9079115531639883
0.664834 -10.688963576734295 -11.533843184398823 -7.607964334121645 -172.6061479724243 -7.967107874749932 -168.67754848938333 -7.064456752054454 0.7181321339612041
0.672832 -10.968085099823579 -17.003902707893186 -7.575132284716133 -173.80590426895617 -8.059684473559734 -171.53062710304732 -7.0790950140536415 2.6053113733705793
0.68083 -11.500427655036242 -28.278907393200825 -7.965642267293404 -175.19351018973572 -8.45222388876022 -175.380165955202 -7.087672357994627 4.24216946053931
0.688828 -11.613037734306296 -40.91473878130606 -8.238998026379473 -175.78136673960387 -8.559520427234776 -178.21823639853704 -6.966930985578479 5.338364064652824
0.696826 -10.918370016002967 -44.69599460400531 -8.602701000920705 -177.78893465322597 -8.27106075297414 -179.12126875083712 -7.115465768414948 8.551457810190762
0.704824 -11.409984346275081 -54.24751896084639 -8.840871624804208 178.1439253197966 -8.3332810476672 178.99826013435575 -7.265031658854043 12.07315071620582
0.712822 -11.235151611284838 -59.192145604527624 -8.97254512979613 177.6647662849286 -8.184571504996555 176.53425358255478 -7.511901839028368 15.968562123222611
0.72082 -11.612791597732892 -65.05205786961533 -9.268833060529014 176.60737431588169 -8.439123011258996 175.048211260176 -7.250062720933602 22.634261268175628
0.728818 -12.590674279031903 -72.2119729805687 -9.25106510611161 174.44056662445158 -8.17872125855326 171.96370431200262 -6.957779592098488 26.09043071390184
0.736816 -12.033236283279676 -82.87854869684051 -9.642615306160284 174.34351249955085 -8.339032301315129 170.28676754486193 -7.7873907528309445 30.914293446670847
0.744814 -12.825608711545318 -97.74024787193662 -9.509997282444306 173.5354081024664 -8.184604260989886 171.21742117967054 -7.6996305985742675 35.95840901070923
0.752812 -12.31784321317603 -106.3693413588421 -9.530671548668394 172.1155751165492 -8.231195378761104 166.70453665424364 -8.005566021385087 42.07905863254185
0.76081 -12.089972662946465 -114.46621113349354 -9.30243134678464 170.66140930908 -7.901482484496141 167.59184482956712 -8.273853848417822 48.917540339184846
0.768808 -11.927103791549026 -117.00732199562498 -9.211065763728197 167.8142904809501 -8.048263965288424 164.27180330853363 -9.543698761950212 49.37757907140081
0.776806 -11.77284344368502 -130.21553684092132 -8.84702901684412 167.2986304639618 -7.831948982482622 164.7598025844026 -7.769067745542067 53.57451971959606
0.784804 -12.039374973164243 -141.22623106129055 -8.486083996647661 163.96236540352433 -7.810262791716296 164.34234725433683 -7.936601560891905 54.679147912363405
0.792802 -11.574976363891487 -149.48753616623472 -8.075179598065336 162.6607678175941 -7.53850984015267 163.32357906229333 -7.042444007688339 63.95423862220492
0.8008 -10.412299545018852 -156.07171887281282 -7.7487331200620275 164.18031492915813 -7.296317658271096 163.16538303706565 -7.791165390817277 74.55890098449264
0.808798 -10.574144122409123 -167.99202561038987 -7.48145868243729 164.4159896569617 -7.02180858309096 159.94129578256806 -7.321038392707095 82.89988786182532
0.816796 -9.811204185062595 -176.02468356289833 -7.552269758876457 163.30361356465826 -6.883684959072504 156.21656773782348 -7.544264142860192 83.43567722456183
0.824794 -10.04985241413827 174.25570450589896 -7.159396080251175 161.1568330827436 -6.512263566796425 153.60993114536706 -7.9158383832452355 97.77232496282613
0.832792 -10.712539797644393 162.99063082895955 -7.212665174541055 157.8709633195205 -6.071507918325616 152.3095061155293 -7.916044143154832 99.14380552066412
0.84079 -8.818287429823119 154.23727672429527 -6.91572397827947 155.1119882423371 -5.553511067125845 149.7737308252371 -8.153093890051098 105.10998704969268
0.848788 -8.991561064136137 144.5536981090717 -6.836298892344907 148.05398128606672 -5.30443299852977 148.42612619368387 -7.104536975961268 105.04124149499567
0.856786 -8.990015383934477 130.09840468652808 -6.163619413348057 141.888047005959 -5.474261302049447 144.81778876666414 -7.1677643969065175 108.00591494483234
0.864784 -9.056085292800292 125.3690743676724 -5.601366533735206 137.47071249405005 -5.537207015046153 144.0684013064454 -6.446752407934509 114.67475409105654
0.872782 -9.734844739786976 113.28773372838525 -5.235229709444647 135.74725951464885 -5.500242751404077 137.38940889266914 -5.720744002216454 115.76196395271604
0.88078 -10.233233295471166 96.02533869333759 -5.168290766941927 133.103339115439 -5.683065057378859 134.345123510662 -5.822665089569092 122.13913056782087
0.888778 -10.140179108329226 85.04467085566114 -5.162787941770607 131.01007685835302 -5.572740588421873 127.74976875116263 -6.106868081761659 126.3890216025569
0.896776 -8.831809036719918 68.481835856888 -5.502393142614679 125.92626213263624 -5.458011097760284 125.34919688147039 -5.763727558264921 134.06102845571493
0.904774 -8.950675194628335 58.627482244210505 -5.920418213367896 122.30184956371185 -4.8096497178141115 122.64213262278084 -6.815019269570735 136.26633560097713
0.912772 -8.692646975399867 54.35610433042334 -6.365664011097646 115.46013000666102 -4.8707598141395465 119.63426420673316 -6.989364165979684 139.13936895846228
0.92077 -9.052012037240424 45.182573537394326 -6.581230680022944 109.40558307799937 -5.210302353346503 119.24138090010423 -7.8662540930856135 143.10438854466915
0.928768 -9.60635372920141 34.94922250653617 -6.610662880674912 103.82097899737825 -5.556427945496133 117.40308273905653 -7.5437801994438995 140.81537555359503
0.936766 -9.537763818842706 27.395790200791375 -6.3341144891978365 101.20988574359835 -6.403326944280518 117.05576981080739 -7.48540812400741 150.27153134840088
0.944764 -9.56479249140134 15.42614199122846 -6.120280497733404 99.28743499606878 -6.702992725783324 110.71968097974452 -7.88235376654937 148.46348872487164
0.952762 -8.903647810428993 6.351448075819186 -5.81477834591502 99.93121681664745 -7.347216921861262 106.04810392298955 -7.87864091228513 153.09204655810072
0.96076 -8.916286679170929 2.515171724446961 -6.16089837176091 99.79853158385299 -7.5182605551959565 99.55631209952044 -8.863294656732926 157.651990504007
0.968758 -8.90763953962978 -4.833652352149043 -6.840212576133635 101.06851633277854 -7.221870918795441 95.91342152662787 -8.84132578850846 163.95183071293548
0.976756 -9.467093250194434 -9.869428236302426 -7.2776708648747634 99.22471733333613 -6.989577781781513 92.37718661846576 -9.170492868066582 162.52962223846814
