!Created with skrf (http://scikit-rf.org).
# GHz S DB R 50.0 
!freq dBS11 angS11 dBS21 angS21 dBS12 angS12 dBS22 angS22
0.001 -0.6476181094919311 24.228834249142523 8.592928603333643 2.9556691150136936 -6.058532627939304 166.5147739693603 -2.923218092764493 -148.289498222497
0.04099 1.221875700054029 -140.65766230458863 11.852075916162566 -99.2430796364955 8.529797105239162 -2.9714852683131454 13.844389299251354 19.034301588449267
0.08098 -14.983879417301305 -52.708071448053225 -7.419170153771141 121.99465887392026 -15.067408093562502 101.88587434283284 -7.444332116557031 -14.214126335851311
0.12097 -1.8982977361912579 124.10029635614713 0.7043632065436833 -43.937936115696694 -9.896168033468268 151.0722851827316 -17.551438047574855 90.87456302889844
0.16096 0.6786057218154883 150.3131286998236 -15.197996705052015 131.45294322556407 10.031306084333725 154.74285976226665 2.2373238688367607 -78.83422252595786
0.20095 -0.1191506257546468 169.48824195998526 0.16403932571912927 -127.30585320998328 -7.798093016696993 176.97934446337473 -18.393710505892674 24.049111357191684
0.24094 -1.8653907282910234 152.58988358000752 -4.137533164220704 -43.944469196122604 -16.374911754783547 143.35096952921361 -1.2206316397451131 -75.32657414111851
0.28093 10.354953663997385 161.7982490217799 5.245543534599445 31.80895035340516 -26.942835754161813 -80.24678819175138 -23.17865801819242 68.23533126942259
0.32092 -8.437647222705003 130.34085607314225 -6.70598429522201 165.00669569470517 -18.133273761973005 -45.26576136000944 -19.02196140576196 -172.3772349932399
0.36091 -4.650938431195433 -154.5359531244519 -22.798447859857074 -29.810459170159408 -10.236585511012496 -7.148182066072126 -4.645592436630388 65.84393015530064
0.4009 -4.332604360426496 -15.591690869727834 12.212165296254492 -28.260940022794976 -11.65040201730621 68.01695754806359 -12.115126692003352 116.30966504906519
0.44089 2.0585107105344624 -155.91430594540978 -1.4799008062106345 -109.65137550219809 19.132090628981008 133.0930443222667 7.384275100093033 -38.548722826446955
0.48088 -3.9764518913792477 145.15699929716283 -5.9456149727152035 10.10744002736192 -10.593316413094954 -118.62975127840647 -6.069614828858441 -66.27003135023246
0.52087 -7.274746552087308 -118.69563259062727 2.8898582662247767 -69.81731244721513 1.575352873818093 110.80478303826624 -4.7899392457398795 -64.00646042670986
0.56086 -17.139784835016364 -66.71255479872373 0.37659868033214183 82.3622957014132 -1.2049031976428024 -59.66911845909004 -55.88928055671012 -85.95641970264616
0.60085 -12.54697000883866 160.71825001595835 -14.95118531951815 -81.76052015313057 -21.49872810026427 -48.880829422471784 5.9029788936202365 -58.81224419447833
0.64084 -4.517091054836584 -123.42590690343626 -2.3585829273477636 -16.950360845614828 -7.078351042662186 34.378952277429185 0.8033857401917761 145.143142643863
0.68083 1.9504063607363866 -119.21464023817056 -9.481579222611478 -39.08063940388658 -10.115511924669834 -19.510620292414533 -3.9792313397384045 -37.21138219397267
0.72082 -2.083776971656838 -105.5275403757912 -17.195258446803088 -55.758184654641546 -11.601600205250381 -10.954606735269047 5.69156784906982 -109.69298991258808
0.76081 -14.788093278725263 -74.42292210194849 -16.063220954214408 61.73853811581564 -12.82595282849599 -103.0086434708998 -12.791075789612758 85.30322266926855
0.8008 -7.009412556588643 150.0388081555439 -7.021109372747436 -52.330808900409764 2.9134897540768905 151.48857239093056 -22.190531918333157 -66.96281485733053
0.84079 4.951061862131325 130.05917072355027 -18.736216086329705 -164.44084493065444 -25.96078175024676 70.70037803613855 -3.235493442448172 -171.77653556311841
0.88078 -2.5741083822001833 -140.5349395424678 -23.16512200613252 -76.56734775546106 -13.75496916195738 -128.3134569162174 -17.116370548946787 149.37337971241124
0.92077 8.421078865746816 -83.41284610806737 -11.670275090567506 146.7257702462202 0.1985472347383626 66.2743289875385 -7.681047035097471 -171.21462701569135
0.96076 -2.971322693617158 -159.4797354437062 -26.1688104599423 32.494783341905524 -10.562332500182606 1.4326215994059097 1.3906045921178385 123.65096834073171
1.00075 -1.551082970108264 113.12835803982023 -19.08574951330846 -56.93812935238386 -14.86179652584968 62.47861648691386 -7.658542876958004 -139.90605760198557
1.04074 -6.546791613877834 90.15107342663804 -22.86820195274529 -58.31107675343761 -19.37533057576858 80.44130257960128 -6.944135867163559 171.2187198704284
1.08073 -1.7794055543963725 -163.44685976294423 -27.796727239544055 -41.90025482946915 -13.339941659490771 51.877139708329075 -17.440917385975823 31.16102998516901
1.12072 -3.2323501460797903 45.268545533536944 -8.124918615514371 -88.4893686358279 -5.5676893340597875 -56.749945029907515 -8.87752451678133 151.72981394353351
1.16071 -10.46711726935062 87.64276861493504 -2.6782529068485124 4.648125093533125 -4.627435107850072 -57.456759825578914 -5.504897192410386 -127.52558636202494
1.2007 13.406029146564562 -65.42697648526097 -12.736107436352587 -17.15704622863594 -15.948219902490495 -79.74583098791429 -29.984532613643438 9.208035032463792
1.24069 -15.523662738665395 -23.84050617870084 -22.693344348075627 36.706741302054645 -8.694980571948523 -163.3925652766458 -4.906712027691128 -19.42951522442649
1.28068 -20.722696400976236 170.25536760335848 -0.7185014971536499 71.74734163009052 -9.97476558288933 -149.90403066656043 -9.450439691799456 -164.02885779278455
1.32067 -8.251143522603797 -32.88867138428124 -5.690256582095375 -43.71413332325898 -11.933133436370918 158.92919207450782 -1.64073666975558 -52.828048730622584
1.36066 -10.038664451044594 -168.5661968913271 -10.985921750387831 -88.81175210207466 -21.756264819451204 34.62147334921088 -8.724870541162336 93.42262337385199
1.40065 1.8911390319962753 -162.00430505236358 -3.5841270482366943 117.2043844818543 -1.8227175685156018 110.52763400174273 -1.350369059309916 43.48796050055952
1.44064 -7.034759395969315 31.129979646978093 -14.21422242181453 175.71544488852348 -25.22271400882826 -37.03014465437237 -20.418684737961218 -66.01791131941415
1.48063 -0.6624284804188163 177.09528986390936 2.958268980025533 -15.11696007502905 -15.571549276579368 17.71267298675556 6.02123074437877 49.77723821720401
1.52062 -8.219719799865148 -30.885210122405233 -15.398597669868689 44.54199973100871 -14.91545563971982 124.60988786649378 -5.0367817028500115 38.327822469285046
1.56061 -2.8982231728371732 -109.66019177416214 5.629569581730795 -36.482602393836316 -6.8395590145069765 -17.293425071658685 -12.985130071805045 -78.51467581324219
1.6006 -4.4877380410412 7.825571087518779 -9.987197418010105 -56.79613763505925 -5.154326226178471 -23.26833243074216 -10.319503438885402 -79.03262284026154
1.64059 4.255995824167549 96.38357380127786 -8.174625198350128 -49.623933054579915 -8.072917089882283 15.361731962587967 -3.1441089418472785 61.06361701650395
1.68058 -34.54470057382348 56.34044191040037 -0.32588988481849884 -57.30177648159505 -13.476915906458986 36.79392985756175 -12.265162805667133 -176.85226968713548
1.72057 -14.785699375754929 -61.92476230635126 -1.117002603576042 35.32385585224764 -18.28864183504448 -31.054581621180134 -1.8749129100013862 -99.20892183165428
1.76056 6.6947232433851 80.80916208582019 -1.7229014738675934 82.21914687561255 2.9573050467304274 133.72451811137972 -5.237501092275849 -178.39805911051465
1.80055 -15.397259606267086 72.83425288557285 -10.755037044236794 36.94097654804709 -21.71879259687545 -78.41122958466185 -0.6984220915787597 -4.621930793462483
1.84054 -20.28271058919521 -172.5990749001328 -4.464887956182373 -89.07969352107934 -23.664911250023586 -85.10802989401486 -2.816262601753131 -84.91131868438731
1.88053 -2.022074486598484 0.05510957305721868 1.2180491887588516 -95.68443989798743 -16.882865018747392 -1.76370924745595 -7.495568492114192 40.39353507419687
1.92052 -4.714455776926211 -134.19549864714125 2.5518172527193257 -157.9905770679728 -18.532972050929306 156.14326926653223 5.095982783180593 142.7302185082615
1.96051 -16.690514474679283 -31.01686407169251 -1.102545701003518 -16.38190918799307 -6.823143050809099 -46.40903614554412 -5.764943624250184 -173.0598124216805
2.0005 3.5824464844380124 -48.302461239597335 -1.4567743963091435 20.481194387007605 -22.1365296337884 69.06764994599716 -2.087798935727131 63.98480047892058
2.04049 -21.607225444512466 -90.3904869811617 -1.991081170796212 44.64376892908511 -8.461222125251256 -43.98032232033741 -13.602692137815314 -131.4311166488991
2.08048 -4.472698400767486 106.90246800886585 -21.491500185317225 86.90538419071896 -25.090720351239135 -15.471490792436501 -1.1211664272727813 -151.69804603714786
2.12047 1.0808966986537651 -135.1395327133973 0.16751376628830972 -114.323714421102 -9.104134686485958 -18.59004358269161 -6.8221432719373905 65.99922111238827
2.16046 -14.015411853666077 -134.66878611362424 -7.250436711556645 -169.3898719239139 -5.222291372020916 32.101659862563075 3.0240553764409865 37.981202131063014
2.20045 -9.21712832636424 -59.68455170625265 -11.198374717211914 57.83947184479162 -4.500777586785206 -37.188597519611974 -3.6819824099606913 -140.57979215692242
2.24044 -2.931992131363817 -88.92333476620202 -10.428548118809127 58.54510870337572 -10.066418269637563 63.266028037293644 -1.5815029964689444 -77.12174067972099
2.28043 -1.5787639978292003 18.836513264266532 -13.353439801049232 142.7931834512111 -2.808267754521545 -22.305622398956647 -0.6517119371825835 94.73325127723572
2.32042 -7.256088793813333 -107.78195809607584 -21.14242988426765 28.81368034974247 4.686437356182753 85.73191320189429 -8.14512321544151 106.95276151313618
2.36041 -11.74765529210319 84.83772859200147 -22.258352396643517 -17.407633756505493 -13.842191169290771 42.64011374695258 -2.8197386663805406 -3.490299879544201
2.4004 -0.2731234892857492 6.831998164175704 -13.37327151089097 -28.499179027098112 2.89011337963288 -85.947389949524 1.3869402435215137 35.83087806573862
2.44039 -5.092693505920916 83.27690525735966 0.4720162133098115 -19.5933729807855 -0.4682547128176483 73.04308824748468 -9.295289134010105 100.40881910469272
2.48038 -4.745428743234054 175.2006764414849 -26.217594443327027 -158.52290994526615 1.449566642208713 -37.31186774702517 -9.416720258796552 7.422690214366773
2.52037 -12.059566521955833 15.030852785822871 -1.6070856606001 -13.964914400550112 -9.887754874600308 -20.74764825102286 -11.388488197193745 -158.64738775660214
2.56036 -6.843934676013026 -14.615586253382292 -4.834300262795495 -14.701948441746916 -9.609128173710012 138.36702698100913 -8.769296155723234 -145.29900647066728
2.60035 -11.964242819011933 -43.92442217237714 -3.088096192781657 -43.75255746110792 -6.13382475662871 5.377663665905898 -13.190474567585362 103.30909251686491
2.64034 -7.183558702099657 -107.91151155954844 -8.50714929964522 36.71832806991897 2.088640122264495 -92.97697267139496 -11.880427144785944 -140.9164404645553
2.68033 -2.6391658142873298 -14.200046317156913 -6.36316347284847 -45.452253970706536 -18.907054190205965 75.98533970378477 -5.7098791219203875 171.5440668034173
2.72032 -9.286779351714662 25.254829309601387 -12.190932928270007 -12.031545650599679 -9.027464609811153 -41.79917878866873 -7.450428900528627 69.73720707019513
2.76031 -12.621105128304826 -120.774413175579 -9.396986269415727 22.170858718276023 -12.85136531631939 -55.094315233539724 -3.0688672274195197 -47.40221929503935
2.8003 -19.358551442767833 -25.353927855461293 -10.00009644874998 -9.818635559125697 -13.362146062275787 -8.293683251097917 -6.062405206485808 179.12991200820906
2.84029 -16.70027295459693 -119.46467929066458 -12.626709083577524 -18.859206520661218 -11.677677644552688 30.246681966463854 -19.405069204388084 -168.18097823126422
2.88028 -4.437629003925195 -60.181019643976896 -13.619198412156974 8.668402317412173 -12.78997665472787 -1.1066068269138045 -8.724995455787097 130.5158453483641
2.92027 -9.279620152601636 138.8250548780554 -14.75556572429669 -58.45648833596849 -13.841348436874856 21.673651561403208 -3.808126603087265 146.32375324295742
2.96026 -5.001733076888884 -154.8048152982764 -19.64221032972896 -85.61257518108023 -12.823811725461763 0.8008716177299494 -13.880869957544945 141.30107569023792
3.00025 -10.611398083967918 -140.42712929248643 -22.529133996605392 -39.122144131487836 -11.956053624852538 -5.747714623639965 0.04256391504437158 82.51964869740502
3.04024 15.466534584062545 -113.5025779219916 2.202887813248064 -83.93472327429757 -11.562720499525835 -94.21013959331516 -4.7586042760580485 -154.04995195778739
3.08023 -7.084803207740666 143.75017407539548 -17.518786687070143 9.553483158659095 -14.789252356841322 -0.29980358058388407 -15.027934034549975 148.83192267798057
3.12022 -15.846336375069434 156.48501379991671 -12.311949182100662 -5.89694887711807 -13.761640274474026 -0.8298613566221268 -6.760174612889349 173.50906449486988
3.16021 0.8885199636807194 95.6482091127704 -12.030609396701752 24.926371755840343 -21.322489907010787 1.9335420471480194 -13.90340705750801 169.8859396928925
3.2002 -25.108225634516415 -42.740630287280915 -12.670841828113259 -7.293065124599398 -11.679587446044401 -0.8886535666478268 -17.045170224216047 97.06940668023763
3.24019 -8.214671471191885 -161.1169408347514 -17.341647602130024 -6.75489337850692 -14.986588015773384 34.28353023954697 0.8703432428219743 133.65342843956088
3.28018 -5.383056155080927 130.3571577595119 -11.483782389068718 30.282886532202365 -12.343346704790001 -3.6152540556744697 -11.79179132322326 -168.3992967747096
3.32017 -2.7242882379478663 173.6803975345678 -15.15571143752582 -25.374726672090965 -13.156589515828031 -25.810243807843364 -2.021087113933561 -148.13582523859506
3.36016 -5.814425761637705 -38.83401106939131 -8.379824720722691 -8.605463864053911 -14.297016132269283 0.10667467284831071 -1.1234243464225033 141.57353241689415
3.40015 -21.036717449934308 128.24096774633205 -14.150367195171867 12.868235940738009 -10.885757291627494 18.664670354517398 -3.4374502121069295 86.38067126714972
3.44014 -8.466318948671521 -153.47959411413208 -10.796817162229647 -8.15036045796284 -13.832446635077453 -50.71127700594889 1.9935877086902711 -104.7024019628538
3.48013 -7.632309333067741 155.25960132014646 -14.062872320609491 29.292278318396345 -12.353591412441553 -8.971882381226322 -12.815600183927556 178.8824637362962
3.52012 0.793505784562681 144.64674953042388 -15.736905014467595 25.72412339523553 -14.669430162289807 -1.2696812257627412 -10.746014455139122 -147.97668957285381
3.56011 -8.694681664801841 162.10885712101282 -12.427666145162155 -1.2210527931445379 -17.063747221094303 6.764377351513127 -3.959296474114841 162.528061059341
3.6001 -16.144723140194042 -163.8615624944867 -27.200117755144852 34.9072316056891 -15.052639362507694 30.704546030150205 -10.877483021957053 178.43813086533385
3.64009 -0.12351347372701592 178.68816626073294 -15.75407391725789 -11.730020492594921 -16.500581908341193 -20.23755811691334 -15.1783445031746 -146.15629664053327
3.68008 -7.432572258647843 173.79722905692262 -18.740987033492356 1.9585754867519811 -12.3619646484715 1.4115841425640296 -22.248593697257412 -142.6443999552118
3.72007 -12.521287018195368 -151.76613779057766 -14.951976157402875 -7.15971682619584 -10.504038897828478 8.29839848689337 -14.133075928270378 -133.89236869023455
3.76006 -1.689452461093237 -176.6631071924292 -18.550283023470296 -4.039471651568981 -14.234607468761267 14.40695867073061 -12.383039859781782 143.4728450221855
3.80005 -4.019855027183167 -140.37969354813023 -7.055261037842309 -10.98389485450809 -14.734924722521729 -1.1928728012477017 -10.403900687247125 150.0757833980455
3.84004 -11.316667626257257 152.75206893466583 -13.48856062740776 -11.768514347502775 -9.522653191213049 -7.545730269442565 -6.848119276357284 132.20848091351328
3.88003 -1.28420905386788 141.88093326532578 -14.275487403152319 14.196147789233825 -12.353533802352043 3.5725881526378056 -5.357519435994821 135.2797284566248
3.92002 -9.361153067082242 136.57981251488934 -17.760036230170073 -26.0126495926591 -13.160820024184876 -19.42797869869124 -13.368332862985088 -111.47322832726555
3.96001 -1.0151225378857913 -168.64903322421048 -18.490936691152044 -11.016713971555651 -12.35195074843228 -16.084004032894608 -11.035871360342227 -173.60770636644745
4.0 -17.994524683958446 116.86473224059287 -14.472927616028048 12.519810653579816 -14.356641904403027 -12.851436844943226 -6.1821014170087 -148.0644619890911
