!Created with skrf (http://scikit-rf.org).
# GHz S DB R 50.0 
!freq dBS11 angS11 dBS21 angS21 dBS12 angS12 dBS22 angS22
0.001 1.6663826576183391 105.01137464014342 7.560557953883576 44.6737238929122 -3.7169107047163457 -28.32182200830792 0.0026377690950147403 -57.21813660486324
0.008998 -0.8704155796811442 138.9653816373445 5.021561187264218 -35.35862425838039 4.184396792524364 -26.63394706761435 -0.7429413964560766 101.2125138044865
0.016996 -22.95329951456127 -106.61704730129563 0.17717528782301065 -5.404483489510284 -0.09408205559193455 -4.708863913425238 -20.46378753467994 113.94988735988655
0.024994 -24.231451379886355 0.44126143507789767 -0.6013883358090886 -7.435287904945075 -0.6097906292690304 -8.63440637941485 -26.53152655162339 -65.17370890805216
0.032992 -22.58532946413191 -110.6491543013188 0.15950775924371668 -10.840890895087545 0.16341507870975513 -8.83165254962859 -21.2781372518181 -100.16842827396702
0.04099 -23.75052883095333 -76.77018391138205 -0.2002228616364207 -11.829444302082807 -0.20992525154167066 -11.914781962777 -22.77920951279423 -78.91793832819565
0.048988 -24.195701413738604 -79.84012534947018 -0.13723196879409771 -15.134653246771094 -0.04514303313062156 -14.292105275807844 -25.18614549134582 -62.356033966439455
0.056986 -30.51427483551811 -71.19589725927347 0.06519017226982578 -16.589170229866095 0.07679206969977284 -16.259679208714907 -25.868387622862357 -78.52586480130611
0.064984 -29.1473925976544 -118.96498441962574 0.037798079803037864 -17.5277503523807 -0.06277330099541152 -17.332908972645303 -25.20079735444525 -114.81401743577827
0.072982 -23.020794760954683 -120.69026345020107 -0.3381273841811988 -19.295382577328784 -0.3810342212416951 -20.081891491600775 -27.246907191948612 -116.18630743470013
0.08098 -21.918879953238367 -130.22534995596848 -0.4442661050694458 -24.206418963568087 -0.4611312533155878 -24.212188989155496 -21.11421564140063 -101.84103210726893
0.088978 -18.46962408915672 -114.61703460982011 -0.33059847525780334 -28.681686987108375 -0.2582820806021394 -29.243610903186408 -19.09591507615604 -99.11411913485266
0.096976 -20.265311027533038 -106.71768896409866 -0.0787317999343814 -31.63824169761978 0.014911946083452136 -30.898711302650387 -21.03783763006264 -97.00059921610361
0.104974 -19.91533537415926 -110.12123142709545 0.17127049525082097 -32.82564309181958 0.21232581856918095 -31.951654409655404 -20.817972172778532 -106.54498670762361
0.112972 -20.130378196955515 -140.71862066379416 0.2701289650036543 -32.834192699531656 0.0881421995077769 -32.29987243076881 -20.699608219880197 -122.5102449980489
0.12097 -18.962602877255918 -153.69051988991424 0.030291097696881403 -33.66314559566781 -0.19048157019541112 -34.051856011972504 -21.188197517025582 -137.7986236239689
0.128968 -17.94107817374695 -150.28886369773318 -0.32646080650515874 -35.77413008157806 -0.5749692615594812 -36.52725488887648 -17.96089709586407 -141.58805435792507
0.136966 -15.421351409145833 -144.3456658503149 -0.6031423604240682 -39.294228079842654 -0.8186758169112638 -41.863680022545864 -16.27325969189882 -134.86497748396812
0.144964 -14.692715755761693 -130.89649238384914 -0.6556448255835541 -44.8855114369895 -0.5123266285496844 -46.66193231297949 -15.86870905049468 -135.0654566176261
0.152962 -14.488312155634787 -127.09391172100995 -0.36404153245614274 -49.38290555136387 -0.0225024862140421 -50.62756148935836 -16.041321620278236 -116.58065901262134
0.16096 -14.554548072516262 -114.71167177482012 -0.05458960849593782 -52.41461432950829 0.4209009983151428 -50.78274128420015 -17.2301988367701 -114.68608193107607
0.168958 -16.637879193174218 -118.21350298095255 0.17377808789636356 -53.65292220848186 0.5365505941735523 -51.13283663395543 -18.43198471212388 -134.4132306232178
0.176956 -18.58413873743306 -147.7353012908586 0.4869893436560157 -53.628383710186554 0.3063801484821457 -50.89804941863923 -16.987306973336146 -134.6626372620153
0.184954 -17.426695581968282 -162.52017232920625 0.2901325450123037 -53.87047789887281 -0.11356681577039207 -50.85792321360963 -16.366957428109025 -152.29423191688258
0.192952 -14.586908604090713 -163.02544542631748 -0.11913599271251107 -53.93130854096522 -0.5324941662601709 -53.6919868390625 -15.312288319918718 -153.1739035115611
0.20095 -14.083148318306575 -161.33777176298133 -0.3866087230616744 -56.058190391110024 -0.8211490841039655 -58.67435369391925 -14.914012584748399 -151.6658208069862
0.208948 -13.127510772328446 -159.2864158759411 -0.6164376164632939 -61.1151111390217 -0.6964939988833503 -65.68447903840604 -15.354307255337671 -155.1221488072986
0.216946 -11.656084400612215 -171.05988140706393 -0.6418878331482746 -68.09967816933168 -0.379727228656519 -71.5286176391425 -13.892344861684078 -161.66482870942878
0.224944 -10.019326746597537 -164.33284077955201 -0.6037799321106292 -74.49060383190934 0.11010277031360911 -75.4164385894931 -10.502683265695108 -174.11904174159577
0.232942 -9.601022870261346 -171.62703329150992 -0.03831001784276399 -78.83740213096434 0.2711926359072941 -75.56018594679735 -9.798714586505515 -168.33937510818063
0.24094 -9.066083115288109 -169.51373748973845 0.3031059615759273 -79.73919820109772 -0.14323713834711727 -75.22354661816416 -10.16483561031919 -165.78390557877998
0.248938 -9.509010235411147 -161.4805696999022 0.13253988382876652 -79.38706477209563 -0.9331826412380924 -76.9740935521482 -10.493921665583725 -165.76440075597122
0.256936 -11.21605235456695 -163.41379727952176 -0.3505939798525632 -79.43918948651576 -1.358524973679918 -80.3014748764797 -12.409731770994304 -170.34678093501378
0.264934 -12.032854930631702 -160.2867083840647 -0.9063216168984245 -81.63804753254755 -1.8340840665282885 -85.95907160530443 -12.712978137908804 -173.26005664867026
0.272932 -12.879565954973295 -159.58488225260348 -1.69371284974023 -86.20531800141039 -1.618334038106989 -90.26581920756333 -12.652023193048327 -167.22655544211165
0.28093 -11.728029379756993 -164.98068653962198 -1.8308939076684374 -91.21627996097168 -1.3169816255342461 -94.40608633228182 -12.292056440049002 -167.61857442316975
0.288928 -11.797928670453054 -173.776663140323 -1.4826229971917104 -94.38648012599734 -1.0425455537690458 -96.1895342430874 -11.442286543049496 170.06206692257612
0.296926 -10.442370483602332 168.98279115575258 -0.7628833998290717 -97.12205750856353 -0.3262548364200728 -94.56695753757761 -11.033151783616116 158.90854015850675
0.304924 -9.858037777095774 164.00654320538612 -0.39881806775801265 -96.50733020605163 -0.3111052436326265 -95.22086157588981 -8.710950423229903 159.7376929586238
0.312922 -8.275026646053758 160.00262700992337 -0.3592886012644715 -97.84186746632497 -0.7107098908962479 -95.28691820135832 -7.740270990233792 157.70825731871784
0.32092 -8.035908725814263 161.53058158809796 -0.7730915804089379 -99.44241385560044 -0.976817324128699 -101.59305042812589 -8.016937175889275 167.41549310860535
0.328918 -6.850474340359326 163.89880851423703 -1.1525867998509827 -101.81247426105962 -1.3578323458962152 -103.3829049416272 -7.515612179295771 165.8797921229088
0.336916 -7.46497134604564 164.53764659232607 -1.203453352749888 -105.5737591990363 -1.421320561099342 -109.93906594421863 -8.252211633651255 161.14016263972306
0.344914 -7.068076750098273 160.8921675797954 -1.5944491534733345 -111.65668530610526 -0.991684453994061 -114.52672707033932 -8.067105069099192 159.8283048603292
0.352912 -7.642556088447647 158.76695375357244 -1.6591502576605826 -115.60646378835153 -1.0189119887899167 -117.21778560334441 -8.330686184282248 151.34303979120796
0.36091 -7.588821497376048 153.84641729774455 -1.6252328203964328 -120.81659822611283 -0.955950402492713 -121.29137763973314 -8.55038206038126 148.10937322453384
0.368908 -7.551572773239956 146.84971305239247 -1.4840917242257388 -125.90737419490848 -0.8476614118507236 -121.9173525189056 -7.556175633663516 140.24846473107445
0.376906 -8.044067350827884 141.5759733840216 -1.3108077586221207 -130.7540893522853 -0.7319007538717183 -124.75121068300578 -6.076851161819716 136.1680676464029
0.384904 -6.61319226043331 133.27344144869906 -1.1764930879655924 -132.34125975077103 -0.8008785432832546 -124.0265274129122 -5.585495823923708 139.61590126483935
0.392902 -6.291669070888805 131.50742536646976 -1.0737585231422289 -132.58424416872077 -1.0777600066471165 -125.68898653639602 -6.456943204273109 137.86712319919482
0.4009 -5.264324487054363 129.130904083382 -1.1246778693081596 -132.4584151336968 -1.062469916118128 -131.09462804113068 -7.099977996774646 134.26456297009372
0.408898 -5.635568800138082 129.08270993052597 -1.0211041617572982 -134.4773043241383 -1.4301827023426414 -134.90265323097523 -7.1839525534181785 127.92402295538696
0.416896 -5.647735140361288 126.93565426126713 -1.388535822925644 -137.4049035929174 -1.486795760258664 -141.7134361918487 -6.811788287479339 124.75377231477086
0.424894 -5.475337524324187 121.55919786800979 -1.7085297226387963 -141.32114771427925 -1.430797676567307 -147.5888535829231 -6.760284487177735 118.71128133624768
0.432892 -5.904674072458208 119.79823697064371 -1.9939184692846523 -147.75450002204136 -1.3577910498491272 -153.5996826959569 -6.483908558351636 110.62559972116998
0.44089 -6.04610334852172 109.84236568734983 -1.8485191351780803 -154.02473291841497 -1.1722440287668339 -154.8579901056506 -5.1815183702939684 105.38919223372554
0.448888 -5.563183427295621 104.97381317891306 -1.6819661745011842 -159.25545435031435 -0.9626271936944386 -160.50376463601555 -5.261310397606361 105.38213042993202
0.456886 -5.4708021110937155 100.57212186134493 -1.5225908617511625 -164.66388358554477 -0.9815743184542125 -163.411826946439 -5.324384773507625 106.07912802305232
0.464884 -5.418560746782747 94.93697598931031 -1.666635272753136 -168.03864570930014 -1.3435076071114445 -169.3071221027056 -5.722497834931291 103.38899906434688
0.472882 -5.725286537862423 91.77465138073879 -1.538695089927669 -174.17011931575152 -1.4051810316511473 -174.76303552016455 -6.984526552153244 98.37501153903001
0.48088 -5.984500440182168 90.6165827564003 -1.5181958859579225 178.81822346099753 -1.272534584343001 178.8208836723945 -6.6774494066538175 92.28345696142296
0.488878 -6.79541054151899 87.06590374396609 -1.4049155943127674 171.7658079684714 -1.4218390492457498 172.46406082816137 -7.974237775500903 81.25593454866565
0.496876 -8.228788303994456 77.63408096364584 -1.3151482713780016 162.66805425701497 -1.3869869078394474 164.81160422675705 -8.645137908372476 77.16649339110644
0.504874 -10.569617775490581 72.66907394756025 -1.08666302346253 155.15355123484107 -1.4734759584276365 155.11510838034482 -9.458477517620334 71.80407205610757
0.512872 -13.404953360965251 65.89439160739839 -1.3149998600976414 146.330388556932 -1.7065074900872417 144.6013157932864 -12.67302006911488 68.12157730521588
0.52087 -17.41816437009809 85.90197317093242 -1.5488359857750564 135.21297742180434 -1.9392191466594673 130.66832495742253 -16.179466251252347 102.33819373472838
0.528868 -14.088254531788685 155.50722556844661 -2.396024519438291 120.12928604785773 -2.080724744029335 114.14600818250172 -14.941760787688793 159.67142453903006
0.536866 -9.236985086201324 158.8383851523383 -3.067685814194384 99.12077106645506 -2.43971531096075 99.276941077298 -9.053826764788933 157.02298945145168
0.544864 -4.712408510140745 145.92618965910415 -3.699099797476608 78.99000168557166 -3.7843428664848977 86.95165646921498 -5.082916049911294 152.89608123155068
0.552862 -2.6714312713374992 138.3018974953207 -5.593125512519984 64.24156691470854 -6.342574833230624 72.97567705692798 -3.1712531275307674 144.8384604880547
0.56086 -0.8719141390266282 124.63731315662196 -7.0998823327051355 49.6310221863556 -8.315871460740636 53.67165093975184 -2.34657874535969 128.83937263864
0.568858 -0.5374804960582418 117.26023567518135 -9.374507083259626 36.47291042358937 -10.184870989467834 34.75920278742506 -1.9715292663255721 112.11713629898044
0.576856 -1.901529180413384 109.174130974775 -11.692053471838872 5.14807502605831 -11.481053603063788 -0.5636588925935354 -2.452603008441042 95.76264467602984
0.584854 -2.1797012625224004 111.81457107260835 -16.49310933423219 -56.69900782038516 -16.92458375666978 -53.390704065276815 -1.8561570440198532 103.25141332051794
0.592852 -0.8638452063404138 101.05918970853182 -29.12003992549429 -82.59268347085609 -30.80871086440454 -72.6716876592216 -0.11177075513378124 97.35720263961505
0.60085 -0.40938236699302183 91.49710843007175 -40.123087192091454 -68.37890938450762 -41.13175022381809 -32.357198004312494 0.7187789148405515 93.5290406459284
0.608848 0.1469524528912755 80.87109226315157 -42.5159722380669 -24.649804502707614 -42.78532410442763 11.941964629031366 1.0991281240187671 88.93206422406021
0.616846 0.5330156989053016 77.12421574283736 -43.0912407532087 -27.479988596783954 -42.977927127665936 9.794407708561907 0.9751525599031676 85.92002366614462
0.624844 1.2910618628909099 72.98401179734948 -40.49883774102775 -13.529009716363218 -39.71258162840654 26.999196803125443 0.23478876680286237 76.28612052947972
0.632842 1.0616319947038586 69.94775011647755 -40.563778075468726 -1.8209231550507288 -40.04921796964817 -30.650477361819796 0.2937811120658311 66.69470322376351
0.64084 0.9272247548629377 68.34694810209129 -33.35348893667057 -25.704200648875858 -34.497577773441876 -30.276824796782137 0.741177336606889 60.72497963776459
0.648838 0.3781935956308451 61.37282167009087 -31.711152535457025 -37.59934911136208 -31.204600505362908 -28.178491221082314 1.1134696864907603 57.67318861380213
0.656836 0.4363445214222119 55.521122360592685 -27.060153905208825 -43.63582211589162 -27.76171439783889 -30.710102377140494 0.8656329958772928 56.13401932628874
0.664834 0.9416170009639812 50.83775093574384 -24.594123066780664 -46.468080931694814 -26.174987075787538 -37.37619345618699 0.4959611208821072 52.29676776615443
0.672832 1.1730375450791262 47.32505208576249 -23.017301164697756 -52.58576065575751 -24.175571981032125 -50.959935246968 0.4310832680920779 45.78960043290845
0.68083 1.1427336706068967 47.43156481031962 -21.92105722980845 -53.80208992389509 -22.545465141976344 -51.916240342893914 0.00017814003677466916 40.375504362541534
0.688828 0.8592789652644944 45.56216626194146 -21.289132321966967 -61.55268721976465 -20.82849226163312 -53.22757172041716 -0.03801174150778773 35.14554832010126
0.696826 0.7092537133985523 41.963117420668 -20.085310227685937 -64.66150331174678 -19.768982610634872 -57.26821810153905 0.13421822349120932 30.199259581893273
0.704824 0.05049053887037941 37.71225075329114 -19.585251979793238 -71.92322608510288 -18.73054313798368 -57.292020042480864 -0.22920785160702578 27.250847849804156
0.712822 0.33726693306269895 31.94029064167562 -18.0945704623125 -70.62664302776972 -18.356692887689704 -59.84178000582495 0.07258684518016169 22.536343227653767
0.72082 0.05246429127088215 26.70161795822737 -17.114507441252012 -68.39171800131373 -18.083817030895403 -62.78564778307995 0.3830373114742096 22.978267085988687
0.728818 -0.17765704429422946 22.13615430486467 -17.288876554803956 -64.33079141841877 -18.387829341936325 -72.49020126842092 0.15710027221562864 16.23389533343688
0.736816 0.07686739144998846 19.031456377898895 -16.513329035775506 -72.29183507401771 -16.704052289336378 -80.23898738268308 0.2581817770876848 15.909740818304595
0.744814 -0.13623758952073742 15.75017951390085 -16.926451833172024 -70.38869523496041 -15.3139984352178 -86.23515949987191 -0.4764891541470009 11.915891354023383
0.752812 0.3598484544003788 13.024744259957824 -16.74917667136418 -78.76480710551354 -14.72400402527678 -82.74902255593837 -0.36644114991390964 8.508642787460714
0.76081 0.12381581890650405 11.17978479656875 -16.392474835430498 -85.06596594175392 -14.769998313385507 -82.17227390897744 -0.4235217577263279 4.649830199027009
0.768808 -0.2661715346259666 7.353540036641407 -15.16920147329127 -88.69325835136301 -14.608399746982311 -79.66293045583876 -0.555560122331241 0.2824280819299382
0.776806 -0.34585422599119164 2.8223205692615587 -13.955603767293361 -91.05652111376436 -14.982245848533404 -85.07524162305084 -0.6898289810127027 -1.3932103370959168
0.784804 -0.7017902152883189 1.8027517771298276 -13.635503126950699 -89.97818024186272 -15.026818477624344 -86.69370622775736 -0.4828329245985038 -4.125599303489646
0.792802 -0.6333020539575657 -3.2148802006506534 -13.559801526125606 -86.39112978628587 -15.158903269152276 -92.99772115872648 -0.9164052100453514 -4.9055374859990994
0.8008 -0.37695181023699753 -4.453198228654961 -12.747576192701102 -84.53015008748986 -15.020656157411409 -96.91974765543502 -1.080139092698476 -10.912556861800843
0.808798 -0.665761373988291 -7.286088172156433 -12.736715898277325 -85.74172824867027 -14.49164645920606 -101.72447504030525 -0.9684620752484695 -13.724023760681217
0.816796 -0.99413794495599 -7.973551869666737 -13.120685404992543 -85.78519193525243 -13.409006004488976 -99.37905684673026 -1.1426896966893334 -18.524032165182376
0.824794 -1.146792331550765 -11.938573782472963 -13.048216791762524 -90.05150843989838 -12.764587686911355 -97.58258037448205 -1.0886586535562397 -19.163148386523776
0.832792 -1.263289984911087 -15.350405630115544 -12.531897090691631 -97.07026829599153 -11.632744685680478 -92.89004545103944 -1.1495923515867787 -18.820921740733723
0.84079 -1.201497925363911 -19.758838219230455 -11.638729778475522 -101.72878025257094 -11.406384243792457 -90.63353106072067 -1.2663223003797714 -20.96645333992317
0.848788 -1.1084919726966465 -22.926566105098736 -10.46221627295893 -107.88572286141493 -11.818749107852721 -90.01281484271937 -1.4726958005028834 -20.82747199103876
0.856786 -1.1628900859708204 -25.177545204200314 -9.372674213821883 -107.82110638327451 -11.859977821967664 -93.37040676371313 -1.800899872956172 -22.800571795832546
0.864784 -0.9371846077417095 -23.67972986839338 -8.982610105720934 -106.05330091599748 -11.74715585959877 -103.32338655054546 -2.0587153311724595 -26.520211654720477
0.872782 -1.2097277037843528 -25.145457603683262 -9.094631918369213 -104.13092236150382 -10.738404767739665 -109.95979088190063 -1.8631287687488898 -33.302770185855394
0.88078 -1.6592569743141963 -26.77361769969954 -9.621345526652853 -107.41755909760651 -10.083443533826673 -116.03926291617854 -1.6985543147899378 -32.43929193336157
0.888778 -1.6919683943663877 -29.826081639235674 -9.685681775931423 -109.78988385649453 -9.412900782635127 -115.72089339162753 -1.2287238643409222 -34.84211023990238
0.896776 -1.9174767062340985 -34.2867004969278 -9.943681924557012 -113.20409316874604 -8.897411135741882 -121.3905616816022 -1.5795562777879766 -35.967022583502086
0.904774 -1.7127483789915243 -35.24132659679483 -9.975917666633014 -117.25298602476602 -8.489017596028338 -120.37221987743642 -1.5835803372170767 -34.610415874553674
0.912772 -1.5670145758639777 -38.798112154686045 -9.821568359968289 -122.64497946608184 -8.687438643362446 -118.08109425716539 -1.5200489997070534 -35.200786759908944
0.92077 -1.3340541263790626 -42.55657365129307 -9.326931506759127 -126.48308828568517 -8.617183107044163 -117.54588844520994 -1.9248570380723269 -34.938323742344444
0.928768 -0.9296054415319465 -42.65419605320103 -8.575670265184481 -127.62524394025297 -9.513877966420614 -122.69339038921343 -2.6230698974052524 -38.712558655556116
0.936766 -1.2316755194049298 -43.94615727852964 -8.334245506083416 -132.1919784115384 -9.354372237322789 -125.94634795633527 -2.5130638349048877 -44.86612695379188
0.944764 -1.1622112433271168 -40.33055689899718 -7.8778699748694025 -127.79395774487722 -10.173361275174457 -130.67283072553596 -2.785750727404439 -45.6948756800102
0.952762 -1.1046820095507328 -41.11917523355615 -7.16768385468151 -125.41069627280886 -10.490744228189257 -133.7973581198521 -2.7028835823688486 -47.034392118225625
0.96076 -1.5724056268148 -41.285351075872896 -7.225281290258745 -124.54553570777277 -9.653033562443156 -141.43085040062235 -2.202204259882193 -49.62495056798157
