!Created with skrf (http://scikit-rf.org).
# GHz S DB R 50.0 
!freq dBS11 angS11 dBS21 angS21 dBS12 angS12 dBS22 angS22
0.001 5.002676898422323 -5.543586492065284 10.806170912587323 -95.92560092194499 2.589566575432642 -90.28358304062826 4.442354670299872 -170.82963186772284
0.082612244 -25.332127033659695 -116.29702159059856 -0.31449996348489473 -21.005705904322856 -0.18679224446431258 -21.479322976472133 -26.027099803590687 -86.2632132731182
0.164224489 -19.50796490064202 -94.0261050792084 -0.017983865281560145 -44.39407716263935 0.4756625897807803 -44.81326474447342 -23.383384759708584 -68.4340464737492
0.245836734 -13.460299804496948 -156.02880539134128 0.48838179743035837 -68.68179332328309 0.11250798304337367 -65.13407159420059 -13.847994988037124 -153.99212565999252
0.327448979 -12.791674066428286 169.13425940239898 0.058657439755973005 -85.8686863527952 -0.2364332289417449 -82.01898765867905 -14.047636818786502 168.08122164154054
0.409061224 -14.111724895943297 142.3955694495138 0.040262570940729075 -110.4113420703632 -0.37677889956234656 -105.09245750094671 -15.343656731710947 146.34912099363834
0.490673469 -10.080446307042369 119.38964564750542 -0.15424703059856115 -134.96360373090118 -0.7411276078844158 -135.6471040520246 -11.250130847906622 133.04151466731574
0.572285714 -7.5095645807049305 100.09079027907107 -0.33420066312287305 -166.32100524138005 -0.9154968340532853 -165.94006661360044 -9.49086203870473 100.9807737708577
0.653897959 -7.991312768769125 70.0483212941746 0.0863548301150103 154.11852402754047 -0.4086470653093398 158.4688863296414 -8.426453889687608 48.939467433355695
0.735510204 -6.551670281398479 151.4933034952258 -2.956054107945774 75.05315619928216 -3.202507860010167 67.99450102375522 -6.372329484612031 155.08059189517624
0.817122448 -1.1608555500010769 89.23703128380527 -14.966681751041975 -95.36647971548305 -15.01350978370449 -103.3894385316532 -1.424184269951707 99.80892208141145
0.898734693 0.3342297034449715 24.569163917319873 -37.912084647883745 -90.50286272290066 -39.66027033910396 -110.08430114078955 0.4807706281193805 32.71199136236968
0.980346938 0.014915599648524585 -3.4855428747896005 -25.059004118528335 -92.63950973261458 -27.211275651698067 -96.00519052280467 -0.09529280093371582 -2.5574334024272596
1.061959183 -0.5832770753945506 -15.562859618806641 -19.059516322211543 -95.56916833657405 -20.50685022738474 -107.75811544982611 -0.5677305032312822 -20.405365330005893
1.143571428 -0.877852405185664 -27.05418245397616 -14.226878430822618 -124.30138807112078 -14.415284883626427 -127.51722776018207 -1.5804447059619915 -37.709662954757945
1.225183673 -2.84176868380398 -53.026123683622224 -13.083717064344194 -152.29187697294728 -13.255309363824948 -142.91742148464303 -2.9551688991927225 -56.38547023863083
1.306795918 -4.864947293691168 -80.9867274967921 -7.921405824029899 -161.83085015078194 -7.487405697430713 -162.21449041758677 -3.8043601515338747 -79.0838033662383
1.388408163 -4.792791297135065 -103.56048200851062 -7.146233809172935 168.45901900834923 -7.060829308221145 177.11335286890588 -4.416707382814005 -102.83600407168902
1.470020408 -3.61025186007822 -116.56757193502446 -5.9856769615018015 157.86365810095103 -6.35836373384298 158.30822601168785 -4.9840103149176755 -115.20542132714179
1.551632653 -5.72328344709959 -121.64809083463004 -2.5521406126507404 139.72351782104826 -3.362781064815114 145.20200009064422 -7.148607306387201 -130.72446824695038
1.633244897 -19.87606899046389 -41.886359590311486 -0.14342682821397607 92.96988772724293 0.1339050564678395 94.3705916016373 -19.799644276468452 -78.95098994833872
1.714857142 -7.497140740860438 -24.361182423239807 -2.0282136876116996 70.92716934385632 -2.5257732190441002 60.63341723424165 -9.954151062768613 -21.01673479019174
1.796469387 -13.74178760393827 -31.000749032266928 -0.5725319627135675 43.95108412498403 -0.4355519449966534 48.832590228125106 -20.64530582199147 -51.947203431191525
1.878081632 -22.440912031557296 -61.00090102261552 -1.1972488396956862 18.750214089085727 -0.8242403611690858 20.16877655163626 -22.01250976366889 -92.07955978903071
1.959693877 -10.671314906375935 -118.50444224428023 -2.7003702078944998 -3.8099474756396927 -2.7826043338156268 2.2045407956287706 -11.851395611622644 -119.59763270725404
2.041306122 -5.613354051456375 -129.61331156076176 -4.466706329596363 -19.41889934646674 -4.374522764808722 -17.16074448957265 -6.227430778011241 -128.86241017177764
2.122918367 -9.16930322887405 -122.4915345946219 -2.6122076960269807 -42.58686886809888 -2.4646167534322543 -42.913788007436025 -8.523898992132306 -133.8089503706237
2.204530612 -8.397313245008588 -55.288356975608416 -3.658388703292138 -92.56941022843036 -4.850095160103064 -95.68242697314166 -8.992459363172285 -37.19044077797103
2.286142857 -5.272837271051514 -44.09624681522554 -5.758016743666127 -128.11683582181925 -4.477577195241894 -116.14945316382692 -6.351789145173063 -61.281248398833924
2.367755102 -12.59032110654034 -44.99401224352019 -4.787551976942103 178.29058305643233 -5.066078350944703 178.1013980947989 -12.259229099271113 -68.79545601988622
2.449367346 -8.302507290061227 -80.43243154411658 -15.544477191132488 67.33655648738718 -16.35572048330883 88.57246353962249 -7.612517723241262 -59.91572202574297
2.530979591 -4.3257568056761 -129.11095221591034 -25.54787037311721 104.88266567572519 -39.57512152790548 0.39170529904617224 -5.866505098648184 -128.26307573011206
2.612591836 -4.27839842042131 -140.04274279093997 -32.05435320713472 169.3634287134824 -31.630868586814003 49.88410830937066 -3.1664568798397585 -135.6771073413007
2.694204081 -6.4748987243018 -130.12716117102252 -31.138524698767146 152.05606335580052 -22.6366216448682 69.63043503030556 -3.6938351451162084 -140.4415171880441
2.775816326 -4.7487146989625915 -153.2231010899048 -26.09246058652113 79.32606536053869 -20.80569158094822 97.1200481860079 -4.684114576213392 -132.64549853132536
2.857428571 -8.299636289015766 154.3680618184711 -5.09818965108097 51.42640804902132 -5.336966984006334 55.43819408906984 -7.569260876726198 -174.04759443180515
2.939040816 -20.18733138318487 -178.44168623875026 -3.1859956168881447 -27.08830213032515 -3.6892283473242666 -17.74726543806164 -15.109251657305919 -177.75865802433123
3.020653061 -7.46957065655911 128.2125925035663 -0.8233872647402876 -75.56338996434529 -1.9954753263240304 -58.56883355181364 -6.763037830341958 152.5834048662195
3.102265306 -2.344722351424239 135.58368348767442 -1.2260640760783523 -99.47602710119608 -0.5205491908286577 -104.3626784642197 -1.0523443036993458 133.08241875953155
3.183877551 -1.7722676614405555 138.6072173812385 -1.7018975429852015 -104.67543176081807 -1.7999140121214563 -97.45312185966932 -0.12560704118275087 130.94499505643108
3.265489795 -6.9559427396448426 123.86799697908418 -0.09817779364998017 -141.6773041936699 -1.496643069936636 -147.58732234755533 -5.762660561210472 115.93220645791533
3.34710204 -18.602473115045324 -112.21118579132974 -3.656680358092619 -174.12727842948624 -2.2835332194237252 179.31147424827225 -22.447093784160295 -143.96412062985218
3.428714285 -9.478466384431151 -129.3765571682491 -5.70388922844478 162.79295940563802 -3.920362154849502 171.49422071448416 -15.113791063237214 -127.90615620117322
3.51032653 -11.058361294405454 -172.28208313779012 -1.4600712654064272 141.28552274212822 -2.2795140542634416 141.3442468932224 -18.644975586545986 -176.3015678510403
3.591938775 -14.793677908983558 50.31529138059589 -0.21038365705246617 98.61657082051984 -0.01594424659073774 99.22049353214886 -10.95166042637472 97.80883454899502
3.67355102 -14.338787581927967 121.92489763237589 0.15159908737683 73.93313249600895 -1.5474844684911089 79.43203939136946 -3.977964910670147 110.54096371508369
3.755163265 -1.7066191843202714 127.95099647126808 0.17189859428787702 45.89238276361489 0.04314347504477092 50.16486220829115 1.8607305054464671 94.54748446821614
3.83677551 -5.634242072707122 110.79789007605982 0.38170225673239566 22.713534848970603 -0.5880376224904155 21.860567205754847 -3.4503712595492813 102.50101127184519
3.918387755 -5.513830046499221 -154.57588980522166 -8.375971556929569 -2.205446393373948 -5.201484927773827 -13.75747774663248 -7.070447873028135 -169.01875925376794
4.0 -3.9217483486012936 -164.94934564437182 -10.904902853764538 3.9649627952571564 -10.944015438387499 1.132882868491285 -6.238044341392084 -160.9338155622
