!Created with skrf (http://scikit-rf.org).
# GHz S DB R 50.0 
!freq dBS11 angS11 dBS21 angS21 dBS12 angS12 dBS22 angS22
0.001 -70.66238879515075 -119.89830191223415 -inf 0.0 -87.39196252065896 -59.62265851473172 -inf 0.0
0.138896551 -63.34990585776751 -127.10544167264771 -inf 0.0 -93.08013144875565 13.242723853314098 -inf 0.0
0.276793103 -49.08151891047317 28.982152881195518 -inf 0.0 -86.19193316989245 106.55662019934593 -inf 0.0
0.414689655 -56.01989663834467 39.98223556965144 -inf 0.0 -93.43419344849742 -162.63640872771413 -inf 0.0
0.552586206 -60.86042617221531 -148.65058107145117 -inf 0.0 -96.31242259503873 131.62194569457688 -inf 0.0
0.690482758 -48.24653867343677 141.0347287916175 -inf 0.0 -89.96458079236956 -106.27042246092792 -inf 0.0
0.82837931 -64.00581275072526 44.02047579113628 -inf 0.0 -97.24181086783135 -123.69868602463816 -inf 0.0
0.966275862 -53.76109963899985 -125.29428484680479 -inf 0.0 -97.39250341339599 48.82597241591099 -inf 0.0
1.104172413 -55.24366752864744 -124.64717038372564 -inf 0.0 -97.88328877652789 -5.730567262370479 -inf 0.0
1.242068965 -63.359918251657994 70.78612319910258 -inf 0.0 -108.38777965585558 180.0 -inf 0.0
1.379965517 -53.68818856825621 75.56276631378748 -inf 0.0 -95.41894078587504 166.99027754549832 -inf 0.0
1.517862068 -64.03911083936629 -7.7859187149463684 -inf 0.0 -92.30010737771346 173.99007322898785 -inf 0.0
1.65575862 -56.55323923414531 -172.93561996072114 -inf 0.0 -97.66961194151376 29.076798246414405 -inf 0.0
1.793655172 -59.36675670511719 -131.93685723215066 -inf 0.0 -96.22322435811489 -99.46686552571597 -inf 0.0
1.931551724 -66.42341416005003 -53.98347541082793 -inf 0.0 -95.6199181922426 -122.46723758492483 -inf 0.0
2.069448275 -71.64246693295493 57.080742066740754 -inf 0.0 -91.43931200540642 -84.55891270575981 -inf 0.0
2.207344827 -58.69691075841266 31.500558130899627 -inf 0.0 -90.28953832286652 85.23519924995101 -inf 0.0
2.345241379 -63.96714325732219 2.988591907108091 -inf 0.0 -89.1084993803963 -43.52678311960654 -inf 0.0
2.483137931 -58.14339330281355 -166.23482099502812 -inf 0.0 -86.61390266750257 -135.0 -inf 0.0
2.621034482 -55.44315545154282 68.39059619551537 -inf 0.0 -94.99914927841475 90.0 -inf 0.0
2.758931034 -56.84288475811474 83.86629470074982 -inf 0.0 -85.61895902718882 -50.90732739454095 -inf 0.0
2.896827586 -46.895043590569216 -42.6321002905507 -inf 0.0 -82.98989820922179 126.25675188890578 -inf 0.0
3.034724137 -45.54089347669576 -81.34595456024797 -inf 0.0 -83.62623274432761 -33.993835125829335 -inf 0.0
3.172620689 -44.11144900708101 164.1444834346961 -inf 0.0 -85.0617768785317 72.80058930779406 -inf 0.0
3.310517241 -42.956666776308694 60.58878246254839 -inf 0.0 -81.7158619455096 -68.19955635734037 -inf 0.0
3.448413793 -42.2919510151 -52.51807760248857 -inf 0.0 -79.19984456504137 115.37580472711873 -inf 0.0
3.586310344 -41.27939607226261 -168.21385286870276 -inf 0.0 -84.4324290705663 -6.077120361793571 -inf 0.0
3.724206896 -41.30861115604758 104.38914694152034 -inf 0.0 -75.26737147746955 -134.4030629138328 -inf 0.0
3.862103448 -43.35995661678532 -5.849179365032235 -inf 0.0 -73.69871578107006 106.43024171811571 -inf 0.0
4.0 -44.36040352707559 -89.81967149971672 -inf 0.0 -77.8033647836611 -14.857960543272686 -inf 0.0
