!Created with skrf (http://scikit-rf.org).
# GHz S DB R 50.0 
!freq dBS11 angS11 dBS21 angS21 dBS12 angS12 dBS22 angS22
0.001 -0.7596043033618495 -167.15307786184033 -5.847772267817954 63.44362481732539 -0.09893316848843567 -14.3793727085042 2.7015206582118823 -4.970950963017731
0.008998 -2.5163917489320675 162.48329060543776 -1.576086118557537 -34.08254506739876 -6.650722838676995 11.136756866278198 -4.5059641589854555 -179.40091407960324
0.016996 -4.23324335838638 179.97893006995614 -3.1618888036463892 0.2267372689973947 -5.833202031782059 -4.320098424970253 -4.4466398379222944 177.82143272989458
0.024994 -6.1282721135447185 164.23739725515185 -6.498775425409445 -10.944342258080859 -6.082689483576066 -5.7347825138342605 -5.1961430498742995 174.99581688716572
0.032992 -5.753715887527935 172.5388229906865 -5.927590480564941 -4.290911444087599 -5.790528080953945 -2.515766944722025 -5.421816126857809 177.86598464598922
0.04099 -5.97022711256111 173.36651540040344 -6.013559386812581 -6.118457283758287 -6.3283247327896515 -4.665594632287954 -6.2437944297236285 175.73906979812548
0.048988 -6.20897913728753 169.14160147794408 -6.120061341452624 -7.407469895941132 -6.034177392510568 -6.273867544333304 -6.100583003964603 174.3755557651683
0.056986 -6.279753528033081 166.81569889533694 -5.970546022606275 -8.221054515412375 -5.981634979849063 -7.036096578182234 -5.884616685509679 171.37146922806454
0.064984 -6.049791708012585 167.6571551074506 -5.744791240002309 -9.205543090691082 -5.898165539392154 -7.679159993377972 -6.0473871735997236 170.7508597876659
0.072982 -6.196977785968708 165.32265560056572 -5.954801563422558 -7.6361151951858535 -5.935768528826549 -9.046124277511758 -6.474969697885004 170.42109225391974
0.08098 -6.403133378423992 163.42556747791085 -5.845921631049679 -10.048638021114764 -6.018180689460806 -9.382207291905791 -6.324370171897148 168.30335535773787
0.088978 -6.231902472009412 161.7205925452695 -6.021652281773405 -11.7351480181338 -6.144597980599026 -11.898460677749748 -6.240712283680722 165.03118614758526
0.096976 -6.174078483019101 155.70654296652134 -5.953730908531397 -13.76710124754435 -5.805666913312858 -13.544536709424609 -5.984913339283339 162.3668222279864
0.104974 -5.67731057646998 154.63558025198793 -5.587981326068205 -13.924590495241143 -5.619903928553114 -13.996953230696988 -5.921248815605551 161.68244440861864
0.112972 -5.67001836787719 156.48601392508414 -5.431606939077247 -15.405206266614407 -5.625990363605606 -14.807497802184857 -5.823637963378026 163.075941183431
0.12097 -5.592926118954323 154.33959310198924 -5.474404610973622 -15.103804049145907 -5.7307449733716265 -15.830525579657955 -5.862081038817294 161.04751925303117
0.128968 -6.277198024802453 154.29430513619542 -5.654690602100141 -16.859867598329412 -5.7574299406393745 -15.585991207917443 -6.229363083309649 161.3348879398201
0.136966 -6.449530356228728 151.39618608148734 -5.793083725571112 -16.604778864255344 -6.324118560638521 -16.88061675585576 -6.427929942488026 157.11637500525825
0.144964 -6.598145322264993 147.67531123307026 -5.96818156225649 -19.52897664531431 -6.1385577554097095 -19.58306435629837 -6.26804435524833 156.42818365330496
0.152962 -6.9199822320094775 143.00691075447256 -6.022991240774138 -22.176751234025627 -5.926157193258929 -22.482683857687086 -6.108989294360273 153.52059677565163
0.16096 -6.445247638704937 142.4190543793509 -6.154059460039935 -25.24143939370283 -5.770468792576073 -24.495614973412746 -6.0424444447325225 150.69427214855133
0.168958 -6.109724247760756 138.24733067158368 -6.057458598757384 -27.241303114076846 -5.575486268048563 -25.58032100466417 -5.7008910793762055 148.83664754173566
0.176956 -5.727707738255971 138.70344729550865 -5.379315812515414 -28.863700277500545 -5.3959423956739485 -26.48020190431839 -5.726854434008224 151.73764333211585
0.184954 -5.772619430617821 138.07875238498704 -5.140964421795681 -28.45089929222743 -5.306648849439702 -23.940184196565163 -5.824886314474606 151.52693141237478
0.192952 -6.127099135511759 139.06230302744459 -5.233696251048668 -25.97104304262407 -5.358597296885841 -23.207437267416395 -5.88549304113358 150.62783219797723
0.20095 -6.314618369080909 137.94741472383035 -5.373841923042896 -24.602707873350045 -5.693411808025337 -24.540684621815977 -6.194095224876346 148.09121244924697
0.208948 -6.708813129900671 131.47705881649884 -5.638124506327573 -23.622685600451664 -5.891463656600156 -26.54692911464449 -6.195895936645268 140.54333216643047
0.216946 -6.4416567965517295 127.11660205959052 -5.921351657708515 -25.19044387782316 -5.849107410650404 -30.114826611661915 -5.82140197114835 137.44719298522944
0.224944 -6.709151911955019 123.59322375468847 -6.118711139078035 -31.18599984102027 -5.217677867215448 -33.43880350864708 -5.134772181152815 140.89234752760646
0.232942 -5.933747097889648 124.356961305076 -5.49873272538509 -35.040536454523306 -4.8609643678458925 -33.18700316750612 -5.263438936323165 142.63243548703673
0.24094 -6.161027061743651 127.54442837085334 -4.913203063205948 -36.32499873413694 -4.959367523715904 -33.46404432541704 -5.934919282689245 143.29132658336943
0.248938 -6.811875539668753 128.6854513559612 -4.862591420160633 -35.28616947275706 -5.505420652975524 -34.3117539483441 -6.657593689726942 140.9639820818405
0.256936 -7.427910786148396 123.63102855132637 -5.157674331328924 -34.776198055928184 -5.8625953078371005 -36.272125780619355 -6.532372163882543 133.61819013027227
0.264934 -7.640547996827349 117.25720771327819 -5.5405743803286605 -35.376548053191115 -6.188847743914288 -39.66030508864166 -6.448081336884107 128.4616138188791
0.272932 -7.641211181430898 106.23849650714223 -5.72257749829769 -39.871940466080076 -5.899144958879848 -43.71667128887024 -6.28167419948727 126.20832336238009
0.28093 -7.282739056736465 103.10502081307806 -5.920426959843375 -42.12188469196247 -5.625265762811368 -46.41519548298882 -5.702335423316173 124.66381665508776
0.288928 -6.416725998537146 102.30732324888487 -5.727018116353289 -45.16646587515998 -4.999528015027154 -45.87804985530789 -4.759650222584443 126.08700138174544
0.296926 -6.175243341455926 104.4666330028749 -5.491151488270183 -46.546998099036564 -4.682438764454625 -45.975078869121134 -4.805892776983979 127.1211194182936
0.304924 -5.960452624918467 103.9695867914183 -5.260481097627423 -47.46001328191258 -4.724316284254938 -45.23167651799664 -5.31727432307795 126.98776290093588
0.312922 -5.878949776103308 104.80478671700686 -5.00375548551453 -48.05185801962548 -4.63295887922981 -42.56106594928649 -4.904140394824107 128.21343181989184
0.32092 -6.906695852904244 106.87350915027905 -5.062631761226616 -48.53326035526791 -5.1562117002926104 -42.77415617968957 -6.424461771988833 126.48654352323403
0.328918 -7.148993525152304 103.04443274314028 -4.815315522456079 -48.55090236361295 -5.290653447579143 -43.34505399683788 -6.2608839362206705 124.38625004018303
0.336916 -7.827902066116641 97.13541356204715 -5.030193787383283 -48.255864404974716 -5.783971272770689 -46.59395862144688 -6.239989192762954 118.06146633232478
0.344914 -8.431268994930416 97.28465470779155 -5.390142877934709 -48.78336003417532 -5.912732085320908 -48.431777376717015 -6.313248111464393 115.84344843221646
0.352912 -8.275231144512894 91.55686384218652 -5.452210897952384 -50.50555917606749 -5.9056901984009595 -51.84221200709848 -5.58214478418776 112.03850701672926
0.36091 -8.220509846201804 84.93212178538286 -5.77061876793413 -52.319216328141444 -5.864669462341433 -54.614499286940166 -5.637519352395768 108.6059682172377
0.368908 -7.705729279810026 79.68279492493296 -5.812039846292953 -55.652204470261275 -5.610046706889364 -55.36690157825569 -4.901154384336007 109.11519772374994
0.376906 -7.832802582703138 79.29859158387606 -5.746998174015986 -57.54345650800512 -5.182464914598085 -58.649774967984364 -4.409032408460579 110.25666787343336
0.384904 -7.41805644920608 76.55172181570784 -5.778104343008174 -59.77514768569616 -5.036258093430685 -58.00056509071855 -4.936409742371838 111.90206902690123
0.392902 -7.631789511300394 80.71822170654092 -5.519254168525975 -61.219510858513466 -4.5701161837857995 -55.740760163155045 -4.952359219695174 112.84511492614065
0.4009 -7.9466897679832265 81.9032712468348 -5.17627242995398 -60.21466485263707 -4.331907650500922 -57.720272149960635 -5.20025908496458 109.62589142438483
0.408898 -7.599609280019627 82.0497908170744 -4.710053820976935 -61.5706735953927 -4.46875166122504 -57.219413853341074 -5.126110631514442 107.4336716014915
0.416896 -8.105051208001665 79.86448485560355 -4.544055607946311 -59.77472980702532 -4.7412382865734815 -58.020830726225086 -5.424697058394235 105.47904184147697
0.424894 -8.805880880360753 74.2789582288784 -4.725776189536159 -58.80047585531418 -5.001932316782662 -60.057808368494285 -5.557631807995264 100.56656875101679
0.432892 -9.691229975459862 67.48953151830429 -5.0362059870483 -59.60475933375962 -5.445932500455245 -64.54332318263077 -5.547951607367417 95.13340239929754
0.44089 -9.396010623097865 63.01929127813943 -5.21212431876169 -61.90281387076973 -5.085535684127901 -67.6298536558126 -4.74808777815054 95.53015802534195
0.448888 -8.997716012277422 59.21904424465177 -5.354500595538237 -65.08169399309178 -4.863552442430618 -72.29003200015778 -4.626178482219679 93.611967464309
0.456886 -8.854214376546214 61.95362207239578 -5.380313402588559 -70.08995507187292 -4.135773261787034 -73.89898642117733 -4.338470251104099 96.72053654187751
0.464884 -9.56483245975905 57.086439649757146 -5.450673917564229 -73.50801119680185 -4.14840015335895 -73.21357171520059 -4.625793298725592 96.32409204257148
0.472882 -8.975440634425969 57.02709280700773 -4.872133539840582 -77.37922498775339 -4.013115971907028 -71.55685098386627 -5.311811529906404 98.87336419746948
0.48088 -9.328663170798997 54.5169484235547 -4.465134911990391 -79.23319187540118 -4.375606380740654 -70.37848546709256 -5.098629363669172 95.03073510470823
0.488878 -9.574757243709888 51.31458047781705 -4.106262224837362 -77.06556164281487 -4.976420978504658 -72.67118337837486 -5.630771792926465 86.64949139548754
0.496876 -9.895086131316264 47.97922782610068 -4.459483201267146 -77.5420369836045 -5.276661908325083 -74.28772622608842 -5.343907846928779 84.9231568891982
0.504874 -11.02234716100606 52.94195235763848 -4.623466452910768 -76.00393414156397 -5.4219306459595815 -79.08387841084007 -4.672225674109202 83.25532433956994
0.512872 -10.679583119244526 37.62474540913721 -5.149002358337256 -77.82395636095288 -5.350113731498904 -83.56604325991806 -4.592279401557839 77.30152600959322
0.52087 -10.424204165561648 32.49926250053093 -5.463271703751847 -80.90011988201042 -4.801076108712149 -87.46686279727726 -3.5393423948740037 80.92591679767807
0.528868 -10.542496186207424 37.740647264160344 -5.548546670698177 -83.93527397096634 -4.327502552896096 -87.92394631757075 -4.516875526201171 83.19817562072787
0.536866 -10.39158386696255 31.873218277799893 -5.672014287737959 -88.8397613565735 -4.08753473945413 -87.90488408832715 -4.200064481396823 80.97194034492271
0.544864 -10.960247296157387 31.54820872419999 -5.340846739399182 -92.5473725327084 -3.945299049424107 -85.70807331747756 -4.554703002176599 84.14731851282046
0.552862 -11.748940358078176 31.179878068133004 -5.037839229886725 -92.91748831249605 -4.173559078056444 -83.29171746086065 -5.414119967651054 80.50852056920269
0.56086 -11.587184724534962 26.75368917451626 -4.714953839212368 -94.13541534887516 -4.816963236205768 -83.56997365019657 -5.197480644830559 73.8267268641302
0.568858 -11.376746145964944 22.612312437380876 -4.575692680377489 -91.54308220885578 -5.245134319743206 -85.90808100285518 -5.10229398968176 70.01260974060543
0.576856 -11.921225662599594 25.004948604760568 -4.752314075407813 -89.14737517646661 -5.691442339972351 -91.01607424174327 -4.822367923300051 64.02377041194168
0.584854 -12.358659526895915 17.0844202472106 -5.503210661393753 -89.08743265468661 -5.488912221773 -96.66815669165726 -3.747187765450966 64.63804286127615
0.592852 -12.662722952769538 11.593164878325572 -5.948377063114534 -89.24166859620337 -5.02890372693366 -102.27116164107707 -3.648600036001357 62.784653315761425
0.60085 -13.159643116620302 9.114928298647998 -6.216527019230337 -92.37966217314413 -4.087557918332559 -103.2098758023202 -4.158856361950579 67.56172829236387
0.608848 -13.31850676248215 -2.0986542160422825 -6.146511865345761 -98.27248599444302 -3.3062551136541503 -101.89942732828337 -4.546523625662437 66.75563149735152
0.616846 -13.937629353858725 -18.152282412326432 -5.85151203451903 -101.70200230357729 -2.842415282339574 -99.18125256657419 -4.424294291637379 62.793307646885445
0.624844 -13.366410360407091 -20.707196768348297 -4.794657832067278 -103.91166213591623 -3.2240691366519454 -99.25058768745467 -5.224790410897709 52.58133192752351
0.632842 -13.500233567452081 -32.27019934208446 -4.074661733566348 -104.71498473803562 -3.681557391377795 -103.24927775535127 -4.823407537948987 44.99351288483272
0.64084 -15.358396807854236 -32.66935640743 -3.656182069663611 -107.58089187058118 -4.252686739569129 -108.84061658525171 -4.2952120900729716 44.9275204437952
0.648838 -15.03036075780609 -44.46912987798218 -4.049568805068518 -108.75933682021748 -4.200167832594085 -115.10109110870266 -4.046234270249133 44.64319544657292
0.656836 -16.983033211364344 -29.270107219312745 -4.510531131663937 -113.6093555301289 -4.546822476017148 -120.2215759069002 -4.330673204432006 45.04543842170161
0.664834 -18.137490558228283 -29.685205626902277 -4.767874395158196 -119.18540380328395 -4.720268446027748 -120.64296299973262 -4.900373355103607 43.542426438312624
0.672832 -19.202049808221723 -38.109289878418664 -5.311768410269649 -121.27894118926908 -4.675746478541141 -125.07475532637778 -4.741540221657467 38.12244000577013
0.68083 -18.838864566826125 -53.703115765784524 -5.365861372708972 -125.43981926995052 -5.079205238931191 -127.18708452377254 -5.002430052140552 31.840950540812628
0.688828 -19.134982963162237 -64.2288893027759 -5.77102372103596 -127.9429094786245 -5.168148183170934 -126.35296634099058 -4.7382056386021985 27.44640276112695
0.696826 -19.74741685014305 -69.16537986732436 -6.074444623625267 -130.59507655212596 -5.827303442699443 -127.24145920375716 -4.6586935752663186 22.80024620507579
0.704824 -16.553926236832808 -69.02701766982707 -6.561309737548779 -130.27638040483225 -6.247735526393466 -129.77908806838397 -4.693359181113949 18.79652293312062
0.712822 -17.382226641676 -72.929815332208 -6.7737882065162625 -130.63413287150254 -6.712134504735975 -131.9632294209264 -4.679903531901117 17.32028961592412
0.72082 -18.89844390283487 -70.31699904826048 -7.190061708273582 -129.77393384480825 -7.109573037615541 -134.0666215300172 -4.275798594209411 15.81277328844994
0.728818 -18.632581348130344 -95.169737541357 -8.073397402543742 -127.15547972471136 -7.49812654967581 -140.81810123361907 -4.5357101803455055 10.267606477596454
0.736816 -22.25834175346492 -96.53380787398964 -8.754890975416806 -128.32977920616952 -7.12322002754187 -143.09466611922866 -4.187873823721382 7.887195290495709
0.744814 -19.479193892442485 -105.2075480436327 -9.17084646786252 -131.448865096908 -7.213726080210855 -142.93459990069758 -4.607651764934587 -0.06939444025515334
0.752812 -18.224715762369907 -120.41291724341 -9.481013248764597 -135.8451234930005 -7.6167870313369495 -140.13571567043945 -4.372712729427205 -0.7169757000984482
0.76081 -18.328231593175946 -119.41362808158367 -9.160090130813863 -138.61859134183698 -8.566446611821261 -135.28372295802487 -4.035227732606703 -1.672690585281716
0.768808 -18.965227970837116 -125.21884667529496 -9.263725792722258 -137.17811059833136 -9.498356254797978 -137.03305761292117 -3.963936223112637 -7.218040898160032
0.776806 -20.876141264067858 -136.75231460122288 -9.190912449770266 -135.28596722848644 -10.138310167644054 -136.5367438107071 -4.804541365357478 -6.165754014180839
0.784804 -18.176810777481933 -152.6794700163777 -9.343802100790787 -129.38391094987608 -10.867483945047827 -137.90181168401062 -4.56440082785554 -9.670454064948304
0.792802 -20.135041895252304 -149.57448246390703 -9.714505807238618 -124.88099514492015 -11.152714196734008 -140.6052374823104 -4.796449421390721 -14.719623030911341
0.8008 -19.271293317577403 -160.3635225904352 -10.377954331945936 -122.31702743374629 -11.07930249782731 -141.54950634034728 -4.724454366564383 -19.823229759966924
0.808798 -17.611450458130527 -174.85744222287255 -10.893402770542577 -122.46231262413086 -11.042955491794185 -137.8712962125052 -4.487268465914075 -22.282958831570156
0.816796 -21.189222733455036 -175.9846979009342 -11.598191435286964 -121.56990506219005 -10.756861689574933 -134.99238268256195 -4.231779414786432 -25.886597039275163
0.824794 -19.20427982609443 163.85832748230527 -11.308201444142526 -121.13999116962334 -10.698243972189879 -129.6737387877124 -4.327229908948367 -27.62066837090088
0.832792 -19.30882694189816 146.36743829433894 -10.903832727283193 -123.65823992431301 -10.764116892557855 -126.12102236624862 -4.484813959512064 -28.63960273394047
0.84079 -19.79561444298444 148.24780844652796 -10.46289578845096 -121.54319239696316 -10.855793302074122 -121.25691901404387 -4.640103873223324 -29.992148043126125
0.848788 -18.477582423646 132.54098830791096 -9.76577875031519 -119.4045940944811 -11.568441693804548 -120.20406632242863 -4.844173035804915 -30.843033284205152
0.856786 -17.679553780667987 124.28668732099018 -9.282182841191931 -117.59434119764501 -11.891198921144426 -121.99570485716923 -4.959689547850063 -33.61833990274885
0.864784 -17.601337053783404 123.85373626034064 -9.057828111320298 -113.74279145189118 -11.666295517405306 -121.07989794407506 -5.5504116318281485 -38.79588020221278
0.872782 -18.484036000460023 118.47431132946306 -8.945583963121381 -110.20919954136276 -11.11172650480614 -126.79715284576297 -5.097894439424286 -46.193246836065
0.88078 -18.70744211787885 88.27335503901737 -9.211316772069214 -109.66703294386716 -10.54999773378849 -123.78107816390194 -4.940951892404611 -42.34695516278126
0.888778 -17.351601966102827 82.10083299372027 -9.432672418123474 -110.10450612241169 -9.900075425066944 -122.85690199770718 -4.771658436499603 -46.17516573771707
0.896776 -18.286727191713688 65.25189979847933 -9.55293698409378 -111.70406532790952 -8.99509564551142 -120.71667004397545 -5.10369861746419 -44.61866105892092
0.904774 -15.847220153164848 62.39306556704852 -9.5662591899757 -114.46516316126976 -8.832872016061504 -118.84227298823507 -5.487136470779749 -44.26114922050908
0.912772 -15.462976662680592 60.9577553863352 -9.100489841659304 -118.43447945171934 -8.781895156905113 -114.61929517330489 -5.668591155946231 -45.87548988058103
0.92077 -14.999433084373203 61.35671045183526 -8.45656862002172 -120.08348209790566 -8.577166495737195 -113.23179578597232 -6.431718406745207 -44.486870438230845
0.928768 -15.235530558436592 54.78391692589787 -7.6715487913608875 -120.29783586152693 -8.887375807142782 -112.54932985560845 -7.319417193417388 -51.59917592776927
0.936766 -14.880289365544172 61.112311167631916 -7.284504585189824 -121.10649566636667 -9.096196500572631 -117.13596125081924 -6.759996163348746 -57.44137007827181
0.944764 -13.497750892294864 39.57756924717596 -6.825562240014217 -118.53049856028254 -9.430171082658585 -121.41366318895933 -6.971170138918796 -59.38481450017043
0.952762 -13.8715843176476 34.37789384988007 -6.163904327738143 -117.47855209221804 -8.988862531383127 -125.92373007551802 -6.907591485995922 -56.61346516254607
0.96076 -13.731016729042434 33.46100901213251 -6.387961854377431 -116.54444208979834 -8.374999925852691 -128.76422043792155 -6.6203957331634005 -58.44812323931446
0.968758 -13.843300331753806 25.654435668121895 -6.703533725042453 -114.69927513512538 -7.939875153019479 -133.03804731796325 -7.496371543959822 -58.425842428249425
0.976756 -13.000412069207757 20.483961731088282 -7.17953183625191 -118.26122349731585 -7.082942052343613 -131.625626396946 -7.274298103444718 -59.33832264434393
