!Created with skrf (http://scikit-rf.org).
# GHz S DB R 50.0 
!freq dBS11 angS11 dBS21 angS21 dBS12 angS12 dBS22 angS22
0.001 -71.1173534790589 -119.25814938830091 -inf 0.0 -85.76996431341277 -74.24944044580334 -inf 0.0
0.138896551 -63.821287191161815 -128.11233191255536 -inf 0.0 -90.65410331785091 72.34294077157993 -inf 0.0
0.276793103 -49.156184283839565 29.20877681772898 -inf 0.0 -92.36208172461536 108.42374292055892 -inf 0.0
0.414689655 -55.88580524575639 40.25246787065097 -inf 0.0 -93.18074392793024 -100.01925805402452 -inf 0.0
0.552586206 -60.84530371492454 -149.73756806615873 -inf 0.0 -99.85991025214064 -90.0 -inf 0.0
0.690482758 -48.26871625891844 140.9163020581566 -inf 0.0 -91.6514162267643 -119.04826115882707 -inf 0.0
0.82837931 -64.41218362197017 44.65736618257636 -inf 0.0 -91.79548682895316 -20.219940775581833 -inf 0.0
0.966275862 -53.760212184063064 -126.03249942877807 -inf 0.0 -92.61081737994519 -40.59931701903835 -inf 0.0
1.104172413 -55.15532669457212 -124.75306876943768 -inf 0.0 -91.28575059854084 62.237814211867935 -inf 0.0
1.242068965 -63.43733629052063 72.31686008451241 -inf 0.0 -90.85428188813361 -12.811528138768596 -inf 0.0
1.379965517 -53.73567103989424 75.22577168785668 -inf 0.0 -106.77639946255769 146.33576465419645 -inf 0.0
1.517862068 -63.87126346622328 -7.406720422896294 -inf 0.0 -93.82545159486432 -176.41189332611077 -inf 0.0
1.65575862 -56.43620918370307 -173.0309217414736 -inf 0.0 -95.41979975431121 12.98517481917427 -inf 0.0
1.793655172 -59.60955263152016 -131.89936086632036 -inf 0.0 -97.92170999197951 -53.13010235415598 -inf 0.0
1.931551724 -66.65855469728628 -50.43525009226265 -inf 0.0 -102.61291612957845 -30.9538660126632 -inf 0.0
2.069448275 -71.45807907906729 56.233321451331605 -inf 0.0 -86.03162538554484 -97.30315055469084 -inf 0.0
2.207344827 -58.586196578370235 31.85468664786462 -inf 0.0 -106.77639946255769 56.335764654196446 -inf 0.0
2.345241379 -63.74412738748509 4.59621194246171 -inf 0.0 -103.76805666771276 -78.72882452988567 -inf 0.0
2.483137931 -58.355286131538485 -165.45261448839395 -inf 0.0 -91.09282512680963 -149.93420644763918 -inf 0.0
2.621034482 -55.58418139118625 67.45068391623428 -inf 0.0 -98.62542312303052 40.589437074910286 -inf 0.0
2.758931034 -56.750512411304086 84.33437618530719 -inf 0.0 -83.6677447480826 -35.53616383294413 -inf 0.0
2.896827586 -46.90208496769981 -42.65291666187679 -inf 0.0 -82.77606852250221 126.46676880056283 -inf 0.0
3.034724137 -45.51996622634241 -81.17238397301287 -inf 0.0 -86.19183055075376 -53.42268289735338 -inf 0.0
3.172620689 -44.13114902599833 164.21705254138615 -inf 0.0 -89.46660121468307 79.11830890285658 -inf 0.0
3.310517241 -42.96453160938852 60.61825452101059 -inf 0.0 -83.43792474724395 -58.10956716502737 -inf 0.0
3.448413793 -42.32844997574765 -52.33276580668775 -inf 0.0 -78.97061917143982 101.05709737658839 -inf 0.0
3.586310344 -41.28320304834929 -168.2516783881772 -inf 0.0 -81.25037764466865 -4.203983258812473 -inf 0.0
3.724206896 -41.329173370086146 104.3714986248198 -inf 0.0 -75.49087012753053 -137.1433001454773 -inf 0.0
3.862103448 -43.350553241232824 -5.928917953427052 -inf 0.0 -75.19591180740947 101.8025418232759 -inf 0.0
4.0 -44.36403331110155 -89.80753152829874 -inf 0.0 -78.43733348645432 -17.281271371533318 -inf 0.0
