!Created with skrf (http://scikit-rf.org).
# GHz S DB R 50.0 
!freq dBS11 angS11 dBS21 angS21 dBS12 angS12 dBS22 angS22
0.001 -1.0422935567359595 41.98839579441851 2.0629187569426257 -39.330445824105894 -13.588757460840286 82.90120744704183 -5.470333793349848 84.74779099354468
0.082612244 -7.623983510695829 -174.5053965390472 -34.703562566282635 85.34947126019514 -37.468431571373834 83.53982944281398 0.5032397147426741 39.85859809335804
0.164224489 -2.8832908874542023 167.7088021681479 -26.1722988992979 73.00013308514997 -24.572954507150655 59.77637276703072 0.5469090337467564 84.02197814439013
0.245836734 -1.795729391409492 101.80244234803372 -19.554994804571578 -0.802354258436025 -19.353258490119284 -1.0237367616088677 0.023727486384983173 136.1889226195082
0.327448979 -10.387257168725627 73.7178283987679 -22.046145752561962 -25.248583145799678 -23.497479709452552 -23.16227151154393 0.17264823907455673 -178.95196669754355
0.409061224 -14.561945317511839 79.11603633160843 -23.13539318986162 -26.017968527269822 -23.567162928208706 -18.570995548373926 -0.9314435280224175 -133.87843200250103
0.490673469 -10.621378522840793 93.23877809185915 -19.644671538893103 -39.17196938218999 -19.716001660403617 -36.12288951677112 -0.9573354784677388 -93.87547283610455
0.572285714 -4.985933421962406 65.41130525038535 -13.332307422513576 -63.84207653557649 -16.387718804409786 -60.430315197635295 -1.4333718495736831 -58.224583817625835
0.653897959 -5.655171224243537 -14.255165227553755 -13.06148705678706 -111.47219169806611 -13.33905864465152 -112.81772194612253 -1.1038320140082374 -18.466490001788657
0.735510204 -8.325575521656196 -92.80819358703 -14.725830574747471 -121.64376118638506 -13.697939932987184 -135.754220531443 0.10738440626111342 22.08430612276496
0.817122448 -4.346888591216417 175.73175706577914 -11.261025398132032 -134.25974538902724 -9.209641152478452 -145.23367200812953 0.9601796637976812 73.23840931818114
0.898734693 -3.025311172990233 45.52821099606401 -8.593702865415464 168.70058595725624 -8.055545599004269 -179.27282342274174 0.9804445762651024 128.86537596713373
0.980346938 -6.599436710429321 -32.87513739785651 -10.512265949791232 150.22225368848268 -11.404172582081276 155.62421313227622 -0.19901477552570104 177.29191176183585
1.061959183 -14.4019092319813 -121.25756242137983 -9.381195285741397 139.49960886604137 -10.988672064062659 143.6745087766161 -2.6194650728824875 -140.21965479771424
1.143571428 -6.173499807715652 73.02603840878055 -7.604857122778247 94.16066311979807 -8.880977323879804 111.35834799100071 -2.7149196906191997 -104.84144058123083
1.225183673 -5.914713889778289 -12.686280773703945 -10.45957900703343 47.429145384152505 -11.528348035837258 56.21924407972365 -3.5436819958943606 -69.2745803067731
1.306795918 -9.17124597586289 -92.16273001147208 -11.157701801859542 48.30037205650353 -10.986960172611722 30.14307179018929 -2.459310845789248 -33.27528156635933
1.388408163 -7.1037762973509855 -151.03662610602598 -9.734611409111144 36.38370478486254 -9.102159515898665 6.794261736130393 -1.0568041351202178 1.097625061686846
1.470020408 -8.525400983107986 163.5968573625186 -8.210646599943438 13.349249893223076 -6.0026993915837075 2.2555696730650987 -1.0683850025470722 53.883857152258784
1.551632653 -12.83606634725848 -34.85287783349911 -6.900359542319665 -29.81214598512821 -4.10011980078033 -14.41078346374543 -2.7300671663682308 120.67365121971278
1.633244897 -10.426726112807692 -106.10909794456222 -7.037468496493007 -51.69763058417449 -6.3028660089513 -46.64725477361141 -1.7161700137958371 -179.4661233601729
1.714857142 -7.002548657325099 135.9362371843085 -4.5276102299514625 -72.26072505008405 -7.302150005550163 -69.0951917216144 -3.240382018204371 -146.9645281106796
1.796469387 -2.098069741685777 62.695297313044385 -5.010853221493843 -102.89138141532138 -9.5261531428186 -89.539620409378 -4.351299809520855 -112.37950939658847
1.878081632 -5.872284137010157 -8.933287856189732 -6.154745529417055 -136.61013221219338 -6.657291893406976 -127.71332346328141 -5.527258133135945 -76.46082460917373
1.959693877 -7.752551250781339 -152.4871795523946 -6.8591503379682806 -139.75488342318678 -6.4649731137911886 -170.22209310012806 -4.393318319930228 -38.714773026556266
2.041306122 -5.060855340418724 147.7239054345135 -1.6393382122617293 -168.5489793397519 -5.080863906244116 162.7861476919636 -4.289716675947087 -7.258774470143249
2.122918367 -13.027457101752356 10.04940968402173 -3.1991397546558638 129.9705901667867 -0.365227918943122 123.41962519692675 -3.049167187767501 62.07071038865841
2.204530612 -14.48307218956048 -112.07883021450478 -8.17394852556764 102.87152934687848 -4.522386650056404 112.70687739014032 -1.2553966517139334 120.91733652351343
2.286142857 -9.283730912809393 76.89087305110007 -6.691886723328883 88.35129035708692 -7.142094449826732 110.73902942072046 -2.107273794978946 175.24501177575638
2.367755102 -2.9497279378378916 43.21235579416319 -6.904019818546015 78.03408800246592 -7.918899061154516 100.15595129970976 -4.263528966552881 -140.30108904514827
2.449367346 -1.4613575926730917 13.284016939443392 -5.493306875256043 45.87281529253568 -9.434744355099646 79.68956542350708 -9.370849249576803 -116.86258941301074
2.530979591 -8.132709983748295 4.183067230410703 -5.409380011933812 4.7395565479239 -5.891286349491681 7.0979607608897455 -8.39853442015106 -34.46170276681065
2.612591836 -10.184295993179628 59.771190179910185 -9.449383761456943 -38.24535397214921 -9.691829639915746 -25.13071744885078 -3.8669956804607466 -22.987005862801595
2.694204081 -20.917491323880956 38.571252980196235 -11.574289904503674 -25.56605280165474 -8.854478620758838 -47.2361999824699 -1.7815608050994491 -1.462891604936705
2.775816326 -9.657998434527077 -71.43620265844457 -8.14968091451131 -48.17858458310735 -6.624207694740515 -59.118883273676246 -2.116581330559699 33.60766351840461
2.857428571 -8.76485845041617 -83.2670106493294 -11.169649828018166 -78.63439247896662 -7.563696491676884 -68.14237948469214 -11.287041166730782 106.67480004293206
2.939040816 -9.169850359143844 -76.39410499550371 -10.21360073578447 -95.24307543307593 -10.8048608527696 -76.39372666569108 -10.915025594295027 -128.55237951881944
3.020653061 -11.014881108133016 -43.08723715773098 -11.521727324668895 -119.02532910987505 -12.933342197248114 -121.47246017169093 -9.183244634370704 -100.23293958730687
3.102265306 -19.076145171587378 1.1059043512275313 -13.383330075916113 -123.58218169886302 -13.132339190588665 -144.35449399923854 -6.768858081224317 -80.42748470171969
3.183877551 -14.049688462524855 163.45218555568775 -12.318514182686446 -136.36418052041148 -13.103040584383159 -140.19646999648032 -5.525884268043756 -54.63429722532904
3.265489795 -8.48743411313913 164.41237923180333 -10.722814387694575 -155.40288883325047 -12.8993852254663 -166.33166504743173 -5.6933347961815635 -26.97891012595345
3.34710204 -9.161667919918198 164.92870485990005 -9.088176757142225 -155.86614640341077 -8.669180117975827 161.8795033242182 -9.369904503152295 21.43904650334028
3.428714285 -13.57947958475724 -163.36146322870783 -10.321176210663356 166.05302454757614 -5.298844669669966 169.44534767885088 -6.084412516057397 105.98102622248878
3.51032653 -13.8276727094102 -133.81399227994055 -9.25185253597363 134.68961637946742 -6.384608430864197 153.7777181411241 -5.648030342589433 167.5124469499313
3.591938775 -28.97502081741109 -73.73309704634264 -6.807574865941309 116.01362127975831 -7.367129333070855 136.98487576572003 -7.792629580770793 -163.82115726014996
3.67355102 -13.18500497012916 51.30023256921158 -4.799821873337638 100.99472335346996 -11.60547143522669 108.14459745286247 -8.363295757026272 -122.41341942150594
3.755163265 -8.968362934917458 55.5857428655254 -3.960877408288767 66.15296448254445 -7.24630265213049 67.010536577959 -9.832658732014782 -113.21499491638453
3.83677551 -5.694234160830158 116.70918534258372 -0.9693295971639283 51.59077411056332 -6.618126107929098 34.08276456448868 -18.596854111819106 -51.71999902101993
3.918387755 -7.010471118847156 116.4466620616323 -0.9775426705731398 12.98736635819573 -4.18926239529682 -14.026688394707316 -10.395809907839851 6.3527835530324595
4.0 -12.358911695660018 132.99881679825552 -1.0053776769618197 -28.496042689529453 0.03181661533930082 -24.825187115422455 -5.013213597059956 41.62796003174731
