!Created with skrf (http://scikit-rf.org).
# GHz S DB R 50.0 
!freq dBS11 angS11 dBS21 angS21 dBS12 angS12 dBS22 angS22
0.001 4.208583773113096 173.00942814840894 -14.145946466827413 1.081203853367332 -12.969753411623497 81.47620337696115 -10.148590990945202 75.10613861639251
0.008998 7.361940885853513 -158.63592339360312 4.019669730519545 -3.8820571117802154 1.0978719520651388 -33.2529248561987 -1.7721259346377267 129.30218545704417
0.016996 -5.391534331925964 -174.17007280976327 -5.961470678497496 -0.10978663414389696 -6.949934792445882 0.2757863210551269 -7.47083651869752 -177.8374071984896
0.024994 -6.611209478980874 -167.1060244297508 -5.026451320065294 5.215501079640672 -5.8946826406208235 4.70865265728029 -5.222133631056804 -177.63588343544328
0.032992 -5.090498422747459 178.23389022393104 -5.2794477416304915 -3.488211361541657 -5.785695824010348 -3.3243481427412918 -5.909027212880788 -177.18709515672273
0.04099 -6.154923906707678 172.72615681471004 -6.043353052226086 -4.57506050668143 -6.409513596164213 -3.734580389917128 -6.2317168166288175 177.01969160669003
0.048988 -6.122703915000107 172.29216015194046 -5.667181294778426 -8.194756519280425 -5.853149334844099 -6.382250082759074 -6.228894282737066 173.9270241522891
0.056986 -6.1376840374256485 168.22428623266998 -5.7700416880681775 -7.340440757117492 -5.741595966065381 -7.122096432206742 -6.578602421207012 171.82664957170522
0.064984 -5.988612600789192 167.6396847257964 -5.731426184112685 -8.212717051953899 -5.641154708817512 -7.702721782203452 -6.372981653329342 172.6288690218056
0.072982 -6.3787309694701015 165.33253456398148 -5.867462215449539 -7.9087123528287435 -5.963893838044835 -7.173276107365845 -6.32036154203707 170.0189681125017
0.08098 -6.3677914502637165 162.35646438982204 -5.936891742898071 -8.95877091084289 -6.039382075943442 -9.279806047909876 -6.421486018484696 165.56430925869492
0.088978 -6.229812253995974 158.77350587966657 -6.0831058041848705 -9.868955647165704 -5.894835596038601 -11.269890133784521 -6.418557890472103 164.3487448365449
0.096976 -6.445147615002109 156.1535731032023 -6.004481225356546 -13.309413183230903 -5.826002998767139 -13.901898186397812 -6.178955070792736 163.11817618626188
0.104974 -5.835631429115963 154.15530737081002 -5.719859072236283 -13.718368106211479 -5.898222210965592 -14.08057269374271 -6.09045746785278 163.0874954563607
0.112972 -5.893156069023309 154.14254215183607 -5.586423276658308 -15.389022077458625 -5.706372703448768 -14.922917956627353 -6.024745379505394 162.32905726093057
0.12097 -5.703932747299861 155.02628819801265 -5.537565953989741 -15.509112475681986 -5.8236478858778575 -16.106405645707856 -5.936072652248523 162.04174277424187
0.128968 -6.064168321623669 152.5505543168986 -5.621465444364865 -16.787725915375795 -5.953673014775559 -16.57017712272941 -6.1131303116538795 160.41000086340966
0.136966 -6.00065776885499 151.74488035754158 -5.778378982377218 -16.47848098101656 -5.979601898139116 -17.45098881782411 -6.152900774998145 158.83827254284483
0.144964 -6.523753357056158 148.83632099671715 -6.091478986348219 -20.06898694297528 -6.065692492299167 -19.436186171922493 -6.104831552631018 156.03091462655743
0.152962 -6.368288693441664 145.77072185543088 -6.162357219806851 -20.828560731319847 -6.082990364645518 -22.732305172693515 -6.017784066166189 153.59807056546413
0.16096 -6.445840050064355 140.96552021880797 -6.1396107455439894 -26.25564265585699 -5.7710438692314145 -26.0563314673119 -5.736219536462742 151.08924229963353
0.168958 -5.945567269702231 142.41145626319047 -5.985202928948579 -27.89638803625001 -5.644364969461693 -25.390690248967353 -5.619557628306331 153.53381423731193
0.176956 -5.563057691114814 139.89951829922276 -5.687806029008869 -28.84236633250758 -5.4043185519976955 -25.981652838074947 -5.337190850129999 151.80476478984792
0.184954 -5.739265011520603 139.141708406235 -5.233399112859316 -28.485347902610297 -5.089291912115149 -24.945281161394345 -5.517966148826188 151.26442183547553
0.192952 -5.886154828190184 139.93409100403534 -5.265459874190164 -26.03668044856143 -5.5250397964602325 -25.125800173008 -5.839006936059898 150.6208521454803
0.20095 -6.399004300310577 138.61270960886307 -5.417347430184101 -25.94668995865099 -5.732430865355804 -24.328966379804548 -6.141063143633386 149.60773872081938
0.208948 -6.718623549305606 133.16835175010212 -5.611868766632437 -26.42232968691156 -5.839496677658239 -26.74337466776877 -6.340256919712521 144.9625216035818
0.216946 -6.7265656067235655 129.60179854344864 -6.012167150101723 -27.298873588723463 -5.842166680634299 -31.78399708504694 -6.0469188057136405 140.5650120807813
0.224944 -6.4260049120136795 126.22155139335369 -5.9596930356128155 -32.45210835302716 -5.427282572368258 -35.211442966162565 -5.692129080479665 141.035020219626
0.232942 -5.907201905907888 128.13971658889156 -5.6199823293209175 -36.06679702780854 -5.064893536261582 -35.65730435291526 -5.549317073053825 143.2087410601448
0.24094 -6.385361801576622 130.317714768377 -5.135780336645528 -37.23647527794726 -5.1052698690763645 -35.064951651456866 -6.0993667158561715 144.4194167359468
0.248938 -7.008158978494244 129.48528673441317 -4.9151620528209286 -37.160071348674 -5.586407470785268 -34.865557722518616 -6.848930619976091 140.64297588615253
0.256936 -7.484119983125426 125.59042132506005 -5.226507400437713 -36.01479724158347 -6.000505441695986 -36.74161969260628 -7.261419551851502 135.6707895219206
0.264934 -7.815212115010257 116.75838499415225 -5.485642484376019 -37.053302358981476 -5.997155012279727 -39.82481922965327 -6.724948536464321 128.58820198875907
0.272932 -7.593443852953006 111.47554808960535 -5.816290733024104 -39.236596372592174 -5.89938164339989 -43.57232043293175 -6.292833088341915 126.56605834688936
0.28093 -6.750818178740293 106.70155569784595 -5.732898981158009 -42.58496217125658 -5.3879156054371835 -45.5868376961857 -5.455411857158352 123.40376983766161
0.288928 -6.427517761679882 104.9549311108265 -5.765930398393248 -45.97482277224782 -5.208572754837096 -46.436892767017774 -5.5446530704745856 126.16092457101489
0.296926 -5.893771703605254 102.87595024762813 -5.554837283656717 -47.80341562082225 -4.763313769747905 -46.551496130409205 -5.442223298476916 123.818511597051
0.304924 -6.408512123468806 106.61493324245069 -5.2424690400281 -48.73399915370952 -4.550537396988198 -44.990566087539904 -4.763593142623476 124.45356084138122
0.312922 -5.915017775805897 105.49834117682092 -5.023686097580975 -49.00591761445201 -4.788282242654097 -43.31293213559709 -5.563036073998203 126.98802863078977
0.32092 -6.273911582458981 107.16709044546238 -4.843752629268798 -48.81813643190469 -5.018938288847327 -42.632053223231964 -5.833573925228867 125.36138804181303
0.328918 -7.167925794684546 104.83818591481685 -4.92469751062106 -48.75057085068287 -5.461180124984683 -44.14005614462982 -5.933875672666486 124.55204870847005
0.336916 -7.982021006357314 103.92802122973401 -5.125263932456697 -49.1282606652551 -5.5543294397715135 -45.64914013191383 -5.792192046631665 117.50141017397502
0.344914 -7.829979206789225 96.18415679085984 -5.150038538544025 -49.609782538162506 -5.754117028229064 -48.74486280631666 -6.144486193747133 114.55611901864086
0.352912 -7.319240717860646 93.61365901501824 -5.389500602084102 -50.08524266755576 -5.683292739519922 -52.138097832387885 -6.381373067804611 111.91530705131795
0.36091 -8.207615331699756 93.75412594737014 -5.684519657770198 -51.43459476488039 -5.570948423497663 -54.3485407904813 -5.809836729014161 110.6242830982868
0.368908 -7.592630787758371 88.32009044848289 -5.7115898884890814 -55.57996044819926 -5.323671999030015 -56.023443430508706 -4.862207134478155 109.23145450973908
0.376906 -7.825498649235085 82.7052383566625 -5.90502261416292 -57.086761821077744 -5.239055445684956 -57.49488289279891 -4.954188801990015 109.18177833358662
0.384904 -7.2401976222792825 83.59081691747657 -5.70292320170093 -60.15247290791292 -4.702365802583317 -59.15099082411977 -5.038839795897953 108.89631063103633
0.392902 -7.303923683583692 86.986305841285 -5.494372837994431 -60.9498203118629 -4.630266914312864 -57.826435449190264 -5.032330877894316 112.20861868584818
0.4009 -7.297739652469936 86.30346719501193 -5.151193256476587 -63.004278443662464 -4.4423055258865345 -57.51842191525414 -5.088397936115255 111.7546564616457
0.408898 -8.213545441018193 84.22049317854577 -4.799387940220967 -61.27282677698187 -4.7250228687732 -56.243804765497394 -5.710787423843014 108.82974444262135
0.416896 -8.885625182108079 82.881117924115 -4.872770390038009 -60.855589954008146 -4.907958510789295 -58.565414644065406 -5.720256948873605 104.7546936996401
0.424894 -8.487414730010428 78.74419987756339 -4.691850277123132 -60.65018008116691 -5.034815885302719 -61.53604952054635 -6.047735679847969 102.8576577257422
0.432892 -9.296068496675163 73.91212543896513 -4.771769558620877 -60.89074460166719 -5.172403136942228 -66.01461241632143 -5.323330454046868 100.10836434800807
0.44089 -9.215249808930661 64.7751145464651 -5.29032865810577 -63.18782292956382 -4.9236964976433555 -68.59399332142628 -4.919710570423216 98.42449512220456
0.448888 -9.44749915093505 63.04049579033776 -5.3774794814218705 -66.06683895938016 -4.537709327735203 -72.85318883219571 -4.508820150178554 97.6567936191149
0.456886 -9.113932410722732 59.335202542296805 -5.312735283123432 -70.87548136438159 -4.187180389010213 -74.82278719572142 -4.7143655877416775 100.68911633776199
0.464884 -9.430087870066703 58.92375466787414 -5.225439233603114 -74.85879266949836 -3.9295782681536657 -71.88065976732945 -5.288302049104287 101.04107965201194
0.472882 -8.695966579090307 59.74167102155396 -4.710479390953084 -76.93873741192547 -4.118485051414641 -70.62015090855112 -5.940482082283954 100.4341481075662
0.48088 -8.846328135037204 57.40808759508745 -4.311360534059917 -77.91863692985379 -4.43430157892108 -71.22795428983844 -5.701691244164139 94.29460290872333
0.488878 -10.397282142624555 59.378365553834456 -4.171375957616367 -77.36235286912869 -4.703620056322005 -72.92602942788473 -5.84995316319072 87.25815648081914
0.496876 -9.080230725039254 52.153816355280995 -4.164358107456154 -76.61512719348399 -5.244350088290767 -73.55984873216849 -5.96003604968362 89.54173771377302
0.504874 -9.726984597691711 44.72798528435173 -4.613185408071994 -77.24878956929722 -5.441198186149481 -80.21524376305949 -4.996796175005884 80.21823713177916
0.512872 -10.043300150873527 43.0599360360899 -5.0214265534349 -77.88558456724253 -5.391589212264815 -83.40844256173698 -4.899626055287651 80.6350102080459
0.52087 -9.985074789034433 44.19227412744644 -5.207473565415176 -80.58268833544565 -5.045138629978615 -86.64960149446615 -4.598858994715184 82.2517165639948
0.528868 -9.35669691676434 33.605243364279175 -5.70259599171277 -86.048434515838 -4.680880470619248 -89.49056901536389 -4.574111896422557 83.21787593653174
0.536866 -10.016081556591734 38.397143697019935 -5.57895340807956 -89.20654303193618 -4.142853388324906 -90.10639099011367 -4.276275200988595 81.7946425550447
0.544864 -9.947069518382952 38.526609185426935 -5.315687329465202 -92.46994289722255 -3.995686531360672 -87.96516979827886 -5.2320480910104825 80.51226562366477
0.552862 -9.957201779891056 36.201806790612906 -5.009526840191338 -95.0202814755024 -4.036017316447725 -86.3921384505044 -5.235049462933878 77.77067612829232
0.56086 -10.512732480590598 35.4385902472671 -4.5896418817423115 -94.50895306626639 -4.556610980618908 -84.60392379282627 -5.905770606872137 73.2056548622817
0.568858 -11.2918435120351 31.47980535426487 -4.3882006266794775 -93.42039145326956 -4.937780544102462 -87.65405884709865 -5.440419297007559 67.49849084110156
0.576856 -12.226704572170185 30.512029660356436 -4.457329408971927 -90.29843111078408 -5.271290999638212 -90.4979266708083 -5.017792897902921 67.11906889344674
0.584854 -11.99372414421662 26.578657088328452 -4.8116982742395376 -89.83915016147805 -5.188500626580209 -96.13431664440333 -4.115106899794602 65.83049940972926
0.592852 -11.754678925175998 18.46691084375863 -5.454207071214785 -90.96806788189441 -4.822796589258003 -99.12960261664531 -4.174695873718247 67.91623295527793
0.60085 -12.535209599130644 14.835695350694994 -5.86370236411711 -93.07871945247624 -3.928361276088481 -101.88909203111744 -4.116202691310752 67.04402266658172
0.608848 -13.361545169463124 9.81742786467936 -5.883744649773809 -95.8746027603481 -3.2049136873451927 -102.41389482031835 -4.166641225270901 65.80735442828876
0.616846 -12.781072668697256 -8.158439972269505 -5.424608962885964 -102.3266929605334 -2.929386407002848 -99.39418919043322 -5.335962523683953 62.966055427983406
0.624844 -13.963772400827509 -16.00858893955295 -4.515203274131912 -104.84410768604359 -2.7875364743274123 -100.87637854221484 -5.282737476858288 56.57120902656513
0.632842 -13.470843930105152 -17.923419842946537 -3.571709902678325 -107.02915008399461 -3.3704153193010162 -102.32240364060996 -5.510787344015123 47.467847118675
0.64084 -14.80461508034467 -27.26637270376948 -3.5716527896769446 -109.53290902073505 -3.6899929453788367 -109.27376766694601 -4.909978801650885 46.92077933452999
0.648838 -15.472771233482991 -34.11363474674495 -3.622617797900583 -110.68989908450395 -3.9080205238787222 -113.62093716060939 -4.76126533936101 46.46496383881222
0.656836 -15.345201994991402 -19.16557382666609 -3.9058744225771647 -115.90985888063497 -4.111052841611785 -119.56347260276048 -4.962223435283627 47.89382599920928
0.664834 -17.749238877155747 -29.624633025239007 -4.222114970976808 -118.0934345038365 -3.882220632169318 -123.27529260836879 -4.997523314967658 47.508773985111205
0.672832 -18.135656719330562 -21.17183577148423 -4.639144640715882 -123.52294029070185 -3.951319982668532 -124.56689934493352 -5.688596245217869 43.37240786337752
0.68083 -17.702428406344684 -26.552785670528817 -4.744928230561065 -127.89826451772369 -4.457311166286324 -126.42778926944553 -5.674422013282655 35.43579115897022
0.688828 -17.83833534962667 -44.40462142533558 -5.108787273395839 -129.29847656946055 -4.484903730246332 -127.4524580518275 -5.707078954135595 28.970248729394104
0.696826 -15.369413642048295 -44.73321598048435 -5.284149149444266 -132.09072247241008 -4.875524167040109 -128.44680850738567 -5.303114922698782 24.65719030972599
0.704824 -16.688193502604516 -55.975927438923215 -5.416881641813347 -132.9987030575321 -5.243679939291273 -129.40555738569563 -4.816942343808813 20.881277631845773
0.712822 -16.353837025873112 -54.34475844916663 -5.581680689223428 -132.55238694380242 -5.614424707723389 -133.23218424036097 -4.694881223884108 18.40958136791754
0.72082 -15.461948271252009 -57.92294447418281 -6.202075160034738 -132.2508908679728 -6.302747479477743 -136.95380987376282 -4.966431071326919 15.166520034398971
0.728818 -16.810722061969997 -61.52889934688791 -6.596401885338955 -130.8724068425808 -6.242017547719142 -140.97777322535828 -4.321816998663862 13.66529408591242
0.736816 -17.1824152650817 -71.39958191819936 -7.637142303076594 -130.86495552673514 -6.332741096444226 -144.7471957771379 -4.484905344610068 7.9260705928062825
0.744814 -17.586743665472916 -83.55657459887883 -8.212281987519273 -135.42934227243316 -6.356658097940359 -144.0988887661944 -4.395366747831648 3.3024207271266164
0.752812 -17.69689704533332 -91.8899742281288 -8.345380587126996 -138.3710328552267 -6.400169885538238 -143.47146110960122 -4.096313818117309 2.2941460726473872
0.76081 -18.261532164767257 -94.74870705089857 -8.415067261367993 -142.40542508335776 -7.066421402274694 -141.01351571944485 -4.399494125640182 -0.5502816397210699
0.768808 -17.911842340977874 -93.66412000021883 -8.17906612268658 -143.05940087422576 -8.020293993897571 -141.9039911258184 -4.5670362096410475 -4.555212869378215
0.776806 -18.92834441304454 -102.57957395001496 -7.959361836675614 -141.14430943190405 -8.701325769149232 -143.10482522060806 -4.361715263902184 -5.491360554379097
0.784804 -20.03444555915351 -121.67799847102341 -8.158498837326086 -137.80148422602585 -9.411954682432079 -145.68776521737314 -4.5223874797408 -9.357547113447295
0.792802 -18.903268244793633 -130.12030595301545 -8.852192343117727 -135.25219086246756 -9.415181840362667 -148.05812779994204 -4.321453244602938 -10.239206699017307
0.8008 -18.64631663693819 -133.27793166342136 -9.247316501245646 -134.02546781843387 -9.233462966023165 -148.50773756563586 -4.415578904409677 -12.435502590189202
0.808798 -18.940547594627166 -145.83074829445655 -9.577214235161938 -133.46705161941634 -9.15621727076316 -148.2137193960573 -4.358796599377321 -18.256718803394058
0.816796 -19.092498572084256 -158.1751212398995 -10.142378384945452 -133.86553930138555 -9.26147513891897 -145.48903077997537 -4.081250282787237 -21.78155625153984
0.824794 -20.21008681788628 -157.56578541193934 -10.052513169196233 -134.9833250763107 -9.628996099472639 -143.825374494915 -3.925915924052404 -22.6415645408617
0.832792 -23.138553037230984 -173.70213962169677 -9.936850248985465 -137.39633787208163 -10.057294450131476 -141.5755026919026 -3.833813357548608 -23.885602405742805
0.84079 -18.5614753209981 171.70208674158064 -9.851124296274099 -136.09834886373588 -10.66076142071271 -139.79705949068682 -4.247420922793199 -26.405547273085777
0.848788 -20.175210790602947 162.2241178600722 -9.834038190689135 -136.00706409459536 -11.206769228913851 -139.40998407466518 -4.443108183730086 -26.459063644868742
0.856786 -19.879723903473245 153.59729035418414 -9.804650967721479 -132.86018201662253 -11.403066295215405 -142.24838016054733 -4.935344710097521 -30.4396742524004
0.864784 -20.736163195759584 148.95283134230925 -9.698988185421802 -129.94628796069907 -11.339227039143829 -142.09088987119063 -5.1175737097792195 -35.06761186270837
0.872782 -20.194504467430182 145.91864591056736 -10.062714672546115 -129.76936430593386 -11.56597513612088 -141.65011421709278 -4.839351929976163 -39.10715496186675
0.88078 -20.026793673529866 126.6331814187874 -10.359388191238603 -127.49645924443215 -10.987698803449915 -141.02290503018455 -4.620306524188984 -41.52966523892658
0.888778 -18.229071843181565 120.80525685026667 -10.459749732110852 -127.20134474176665 -10.653096294172546 -138.71231005305035 -4.311336014641967 -41.51140696564669
0.896776 -19.608749514342 95.08564285540729 -10.953593093364587 -128.52492615622026 -10.721063368612459 -134.0683140242296 -4.502723304768786 -43.21544173244241
0.904774 -19.9602714473837 100.53149056648506 -10.49014991559308 -130.27392199270793 -10.100928309856164 -131.11724608626363 -4.914320514846285 -43.379353059546574
0.912772 -17.587767013454226 94.36145488854568 -10.166500703356832 -129.13926198950531 -10.285747513341704 -127.73388833605178 -5.250998334314271 -44.45769360524689
0.92077 -17.97652507324015 82.81675980177242 -9.785758103156502 -130.3607818345881 -10.496878778635708 -126.07640126497868 -5.463593032175335 -44.263347131655195
0.928768 -16.572166029217435 71.30041278866726 -9.089431925514177 -130.10928926665486 -10.63256507006704 -125.88091048335042 -6.39862134197772 -50.77641225360786
0.936766 -16.31703496696455 72.01053366088772 -8.782985241396133 -127.33671654522946 -10.742603231428681 -125.34295272459937 -5.802125087517998 -56.326120407151464
0.944764 -16.634531142215575 73.85105806066046 -8.398807880664169 -125.358938944745 -10.448690785830216 -128.5838213623946 -5.997182260352974 -56.79239694917254
0.952762 -16.069654926462174 50.16280871694684 -8.27970694716447 -122.31634960706117 -10.526277449982022 -132.0677152414575 -6.1659667479841795 -61.86985028022937
0.96076 -14.895870631318537 50.99471180004151 -8.180215470677568 -122.17771163699695 -9.891914440722944 -133.25655934009242 -5.3682821861292265 -59.82704634209171
0.968758 -14.759328301790596 43.01788604489643 -8.373252572226248 -120.76412654667335 -8.976131434780783 -133.8937443754223 -6.463541424472853 -62.39117262725499
0.976756 -13.956398584646589 37.0951192543336 -8.506778985066651 -124.08964964640641 -8.365567634898486 -135.0227032717637 -6.935962334731879 -60.76721357008408
