!Created with skrf (http://scikit-rf.org).
# GHz S DB R 50.0 
!freq dBS11 angS11 dBS21 angS21 dBS12 angS12 dBS22 angS22
0.001 -70.42003968450315 -122.08227674214399 -inf 0.0 -89.59826913436348 -57.52188780965977 -inf 0.0
0.138896551 -54.831796222700746 -129.34314811514622 -inf 0.0 -52.67509063963301 -171.54679900320042 -inf 0.0
0.276793103 -56.22651532094295 46.16637113413816 -inf 0.0 -54.891152345702764 133.11363836751104 -inf 0.0
0.414689655 -55.815103194976025 -6.712409279247248 -inf 0.0 -54.816603259047014 -159.79104329412087 -inf 0.0
0.552586206 -56.319893708796805 -95.10395461220615 -inf 0.0 -55.06259045535611 -148.3222458585616 -inf 0.0
0.690482758 -55.61314527892438 124.28710917502872 -inf 0.0 -56.33719512295742 175.70006160113903 -inf 0.0
0.82837931 -58.489471672187264 -9.15062522055721 -inf 0.0 -60.713624807297826 -168.22562393728583 -inf 0.0
0.966275862 -59.2818298651033 -88.6601048053692 -inf 0.0 -57.88286575546675 -112.5318792758214 -inf 0.0
1.104172413 -55.895725864118795 -172.44710716732908 -inf 0.0 -55.54917087072978 -67.92326137472638 -inf 0.0
1.242068965 -58.694985230350845 171.51555140741462 -inf 0.0 -53.347922635157765 24.824794951468768 -inf 0.0
1.379965517 -59.29412831410744 89.59777076938461 -inf 0.0 -55.641837635056255 19.870354214435146 -inf 0.0
1.517862068 -63.80511354944602 -64.09058462181535 -inf 0.0 -57.42346635462489 -6.232545073874612 -inf 0.0
1.65575862 -67.29757571501602 -164.81904409300463 -inf 0.0 -57.31559630342032 35.512831528110645 -inf 0.0
1.793655172 -66.79751050927631 -146.44251520098356 -inf 0.0 -64.68147020742501 83.12223463739316 -inf 0.0
1.931551724 -79.63912047050763 112.18924115305957 -inf 0.0 -70.0620802754216 -172.32925699879996 -inf 0.0
2.069448275 -70.44294932559608 175.88108484616464 -inf 0.0 -61.079274179268225 -123.02725160599493 -inf 0.0
2.207344827 -61.83904150049311 31.19546191759674 -inf 0.0 -64.856300676518 -132.4791654575303 -inf 0.0
2.345241379 -61.48728418082324 -31.941156860426464 -inf 0.0 -62.79190660515299 -112.88234398460935 -inf 0.0
2.483137931 -58.55611019598381 -144.18996049533882 -inf 0.0 -60.352232847158156 -133.76735011775372 -inf 0.0
2.621034482 -57.695598655649164 54.23498502373831 -inf 0.0 -65.83324392003892 -162.19577049907514 -inf 0.0
2.758931034 -55.10003909853813 65.95343283187441 -inf 0.0 -62.12288779858933 -39.47211333951408 -inf 0.0
2.896827586 -47.906686950029034 -38.168362524488906 -inf 0.0 -54.704441224947914 -25.910592720955314 -inf 0.0
3.034724137 -45.60018171366543 -90.31894876177539 -inf 0.0 -54.98283916512813 22.726515986515807 -inf 0.0
3.172620689 -43.595469753545224 163.5601383201755 -inf 0.0 -53.60107492899449 29.54165646169149 -inf 0.0
3.310517241 -43.942583867712266 55.27076770376575 -inf 0.0 -54.172589473653105 21.083092159378683 -inf 0.0
3.448413793 -41.812487495032975 -57.83684509185588 -inf 0.0 -54.97545232294031 15.659525712076626 -inf 0.0
3.586310344 -41.58082852417085 -168.42468787705624 -inf 0.0 -57.160878811819835 9.436408724195374 -inf 0.0
3.724206896 -41.72666068556377 96.86075676890395 -inf 0.0 -57.42802787580787 52.32895132660662 -inf 0.0
3.862103448 -42.442067315025994 -8.796721491461428 -inf 0.0 -54.754940936225786 42.60812028748453 -inf 0.0
4.0 -45.30834230708944 -94.16013295308316 -inf 0.0 -58.67607601558434 39.55759158223118 -inf 0.0
