!Created with skrf (http://scikit-rf.org).
# GHz S DB R 50.0 
!freq dBS11 angS11 dBS21 angS21 dBS12 angS12 dBS22 angS22
0.001 -9.744010084732302 -98.44430770940754 -15.315821215057985 61.747504615672824 5.406249153297306 2.9522452621913566 1.3588991158692443 -47.599093900951395
0.082612244 -6.333545186100564 162.1505594966058 -6.2531749392162395 -20.36265776466595 -6.103535752202994 -21.533849369124614 -6.412037282982972 169.06785999840207
0.164224489 -6.510028179429761 139.05410796978967 -6.139782905913202 -47.26779543065868 -5.656479459350274 -48.60000517004408 -6.2497676751568765 149.7931646154491
0.245836734 -6.140043624725017 126.75477450816364 -5.21595529110053 -65.83447911026755 -5.7118804839856585 -63.31003590102288 -6.136131793752853 140.97015681550883
0.327448979 -7.056438264183807 106.97578889446474 -5.350439093307585 -85.99403310814564 -5.939993272803251 -82.20982397115719 -5.624043610017048 124.6199514710165
0.409061224 -7.530758786545392 77.94798662525926 -5.503618629425359 -111.52935423548661 -5.507450021279744 -106.04141464267755 -5.537255791655759 106.34241880161711
0.490673469 -8.763650115065104 53.78821781755638 -5.222248017549925 -133.76764631103882 -5.877497241107075 -131.18611881857376 -5.580886346521132 88.40559615525532
0.572285714 -11.382861538361997 28.930996829275806 -5.324963319029752 -156.32972515654674 -5.469428311899519 -155.6745679489652 -5.129365342134198 68.45190724217485
0.653897959 -13.842785155451466 5.0797482968885355 -4.3896091221760525 173.63382620902493 -4.031507314324574 174.71436557247773 -4.0168525273075915 44.878252044220716
0.735510204 -21.29856705391129 -60.76702847123118 -5.124973672111459 141.71949830906976 -4.879815240815534 137.10084705109645 -3.749693395173042 16.067008586335024
0.817122448 -23.33701593755478 134.84879700004694 -6.086902706068987 119.8747459262283 -6.51732148161369 101.27024684275584 -4.236659370864977 -23.401494667879316
0.898734693 -15.945163169961384 90.16059078152254 -7.286510512853324 79.06160200652498 -7.681160622266008 70.56334452479747 -4.691896070553463 -45.421839409779736
0.980346938 -11.674098222140225 44.15077448967334 -10.101667764693197 47.44563854696244 -10.406766223553145 41.262638308984904 -7.211418672228315 -63.39614438518476
1.061959183 -12.203036340681447 19.13179451580673 -13.438935371051802 20.044639716008348 -13.834916029928321 21.42144880848982 -11.972191537185502 -86.50045920727062
1.143571428 -14.246203912517332 -6.813549699016731 -16.56907130406753 -7.464623652819986 -15.697626203743194 2.1014692430008024 -12.599200606645217 -125.58679565455985
1.225183673 -20.611851418802367 -39.18212222543832 -21.03113212620551 -22.100548983647634 -20.875148922969068 -20.45243442071379 -12.29029509892371 -148.34207355046897
1.306795918 -19.669229995407218 -96.52233591197412 -24.223592762913178 -30.903721547027185 -23.927560543959466 -31.86850061756055 -13.256073881573755 -148.81320593787714
1.388408163 -16.95949978925749 -129.34574681142072 -30.36407672442305 -43.62789905852136 -29.075981271607823 -64.27009333239882 -13.986928303245039 -151.9806517230508
1.470020408 -15.169432610912983 -150.01579992683872 -38.78570269974685 -108.79483047334216 -37.981543530913314 -66.98259096977173 -14.6884789202669 -149.1403737081155
1.551632653 -18.331327944950363 -177.0549196765247 -32.132680704670534 114.88096252222509 -36.76950393460014 147.80004462317757 -14.985401254548838 -175.27390877863854
1.633244897 -16.254729609107684 109.60492192367967 -25.790691695840422 88.4705167732608 -23.484839759672738 105.56812501041766 -13.466329183921193 170.1931673151645
1.714857142 -12.069200477326463 87.49448892074354 -18.866496745217344 71.79234521466994 -18.73405765661426 66.73029022834685 -10.037073809589941 142.8890409463748
1.796469387 -9.323946959957453 75.51995354489306 -14.603152333620573 42.36685174958524 -15.075899349511168 57.08953059708962 -5.674831684329979 140.61223990045838
1.878081632 -12.257075251566809 71.84001315833207 -11.495057034171584 18.026365087255183 -10.636310864649012 28.017604061610673 -4.747895414529934 111.95879603674793
1.959693877 -18.59978474517774 53.74062009095921 -10.44202225518342 -8.117662679170124 -8.142070179295594 -2.1327391140691963 -3.2599061231907345 86.14484092904522
2.041306122 -23.2082854373626 135.97392621983514 -7.202067330860997 -25.716270471759007 -5.648201179275495 -41.41806401912624 -3.726330344406602 53.761884322832216
2.122918367 -16.363378648969167 101.29708465075309 -6.687231770164157 -84.26740253259898 -5.529888535052044 -98.58701208738265 -4.153550077646781 15.56491710931592
2.204530612 -14.228278730618344 86.448089286967 -8.153463058690706 -106.34359505577207 -8.563787908583738 -122.92005886620133 -5.423756091362658 -2.743458924073118
2.286142857 -6.619464862433606 38.23899951974963 -7.180189017090083 -136.45873363188448 -9.383117078847148 -137.62479839949026 -5.346963191488994 -16.304979522652406
2.367755102 -6.104123459007865 32.01939936077535 -7.751120204498358 -160.20683494573117 -8.428196059600547 -165.9690889314926 -7.392251094549962 -24.832653273767193
2.449367346 -5.5253049498101925 12.933358741616095 -7.23333802161442 -178.6069088903703 -10.050195549137385 -179.19675822551903 -9.177718153617356 -38.184454978154506
2.530979591 -6.82819752532417 1.2355367473415833 -7.36380265642524 140.25060157822494 -7.236049802327919 157.71829888061546 -11.468594912408609 -52.342551814616954
2.612591836 -9.129030380989605 -5.564031173215115 -9.680558322118006 116.28308674233065 -8.780108035435239 127.03264438278968 -13.01408217278148 -69.2219724509903
2.694204081 -11.491108450806331 -13.829982552691979 -8.98642717294528 107.50642678765453 -9.584844953663454 121.32377193350759 -12.504162249022993 -107.50043994513848
2.775816326 -11.23099541597127 -77.95572814239758 -9.476319198454387 87.64152936391163 -9.88564799892693 105.53850234528505 -15.678863422017148 -121.47269122515111
2.857428571 -11.896525562975286 -86.78499107476195 -8.411029939901375 80.94124957394116 -6.695857243537735 74.4199739773297 -18.23134555980645 -9.177539367119989
2.939040816 -10.124694202137494 -77.35836921365697 -6.311718145972776 47.10333961221766 -8.419272892612327 50.792794546813795 -12.733359881885256 -59.96627224996763
3.020653061 -11.603059889736825 -89.4043716068236 -7.3585968578298235 28.41952845537644 -8.328432885038078 26.03379832128228 -18.097370962731226 -112.15125390408387
3.102265306 -23.269953649972905 -171.200751588068 -8.231249938435926 8.242768702593043 -8.655197090399566 4.767309695408008 -15.935252094292249 177.86562332767937
3.183877551 -12.443013242219712 145.13260572425125 -7.723388308755452 -13.318063585279186 -7.7510913705968925 -17.51202961425601 -9.090959789184105 157.78114401882422
3.265489795 -11.215961797452012 137.57498763242444 -7.353654207856861 -25.83094680328745 -7.814205966207755 -21.458126442193077 -10.178917151239666 151.99873875110663
3.34710204 -12.572737072052124 131.03764353184144 -10.023785762123168 -57.278434084252744 -8.026388993755884 -69.47578740041128 -8.294392958436957 133.87591777005656
3.428714285 -14.07542494702367 120.9500089929549 -7.259678500228086 -74.24995559827 -4.821902692278627 -65.65145549245207 -10.795749104619164 111.25681896742073
3.51032653 -18.776845026428852 70.44333449191478 -5.847423594555519 -106.22577026059926 -3.9228288263731432 -90.32590206623705 -7.366790068696387 86.84841624415745
3.591938775 -17.33471630011659 25.527953200404372 -6.263292711869232 -138.76400276182937 -2.948339110639782 -143.3672242126927 -3.0472919927970326 73.24263490153362
3.67355102 -13.247378582847082 101.24962082932412 -5.551716008426448 -159.6310646675791 -4.719330774403561 -162.42804145847236 -2.5163681036047336 38.13388932170563
3.755163265 -6.765640550964375 85.47913942408586 -7.105654095021623 166.53418796714854 -9.462238176471375 135.1275266415946 -5.769547243842577 8.487660245183433
3.83677551 -7.154854337439939 69.32278561478955 -8.030389854967732 127.59923159475488 -9.400147093863861 127.16789787729103 -12.185987005959673 -37.77027499655101
3.918387755 -9.032895291622495 42.05552573245533 -11.540655721997034 118.66975419607633 -17.994747608221907 149.9009646527719 -15.823341843871493 -68.20298847035457
4.0 -10.880159333396655 28.49341365021462 -16.16454776945041 92.6944889645335 -11.839498742352891 98.13006539915722 -19.496620174597773 -80.32764731617577
