!Created with skrf (http://scikit-rf.org).
# GHz S DB R 50.0 
!freq dBS11 angS11 dBS21 angS21 dBS12 angS12 dBS22 angS22
0.001 0.07268331593673799 -120.85917920684534 -inf 0.0 -inf 0.0 -4.037272825474273 124.22685207333433
0.008998 -8.783753572507665 149.5777410377018 -inf 0.0 -inf 0.0 -11.368956188017743 176.87043522278287
0.016996 -8.5010293297717 175.35428373901618 -inf 0.0 -inf 0.0 -10.849175364754233 179.92302670170812
0.024994 -8.347429671086076 174.48546006825845 -inf 0.0 -inf 0.0 -11.684148611896488 -173.92159808123046
0.032992 -8.305419603424504 178.61633184121268 -inf 0.0 -inf 0.0 -11.580996187590017 -170.95120055680658
0.04099 -7.963151859419016 -178.63575420988775 -inf 0.0 -inf 0.0 -10.905322155164951 -166.0778958160803
0.048988 -8.331223784794826 -178.41323814416268 -inf 0.0 -inf 0.0 -11.80530321593876 -158.646134021886
0.056986 -8.80597860055164 178.6052396149268 -inf 0.0 -inf 0.0 -11.741498461293311 -159.66871436417182
0.064984 -8.409751395644985 175.09177853128057 -inf 0.0 -inf 0.0 -11.75832488343733 -161.6083570971102
0.072982 -7.755471120781435 175.45169275279235 -inf 0.0 -inf 0.0 -10.742445271097836 -160.44361843240182
0.08098 -7.158246994413734 178.8699734403213 -inf 0.0 -inf 0.0 -10.28611741419352 -155.97007450009022
0.088978 -7.236944865964468 -175.45911851785658 -inf 0.0 -inf 0.0 -10.43001521433415 -144.83255336919078
0.096976 -7.6901013119515715 -173.6622949576139 -inf 0.0 -inf 0.0 -11.392677790586694 -137.9214752218476
0.104974 -7.819744214165924 -172.8578720863241 -inf 0.0 -inf 0.0 -12.518329058013345 -134.97764664027102
0.112972 -7.309513750356587 -174.51748247162016 -inf 0.0 -inf 0.0 -13.314970107099844 -132.77778646644256
0.12097 -6.432048766177533 -173.14411172306552 -inf 0.0 -inf 0.0 -13.568777179212216 -126.24533642910646
0.128968 -3.7547710473067255 177.21161766126218 -inf 0.0 -inf 0.0 -13.209162824096744 -105.15549992931233
0.136966 -5.387004884021956 159.69193448979183 -inf 0.0 -inf 0.0 -11.588189101332249 -80.17916375730613
0.144964 -7.89797185023056 157.1570304888694 -inf 0.0 -inf 0.0 -8.53540631164476 -59.53033698950016
0.152962 -8.791322273671677 160.97334861024726 -inf 0.0 -inf 0.0 -5.752892305933623 -46.49101491611501
0.16096 -8.728664581388863 161.2185587386595 -inf 0.0 -inf 0.0 -2.1048128293838473 -47.024257455739594
0.168958 -8.694246635086595 163.8941383297073 -inf 0.0 -inf 0.0 1.2600497366584933 -53.871538813078715
0.176956 -8.348026569591568 166.9426603216028 -inf 0.0 -inf 0.0 4.999220765305167 -63.455259996211076
0.184954 -8.540758644453934 172.3023189091926 -inf 0.0 -inf 0.0 9.622801164486633 -75.12712771061013
0.192952 -9.376088925849992 176.72239904057858 -inf 0.0 -inf 0.0 14.84885758679492 -86.1357637315007
0.20095 -10.296244762847294 176.85595947501128 -inf 0.0 -inf 0.0 17.718429693646307 -115.94897930357
0.208948 -11.274050990864687 176.02457066885486 -inf 0.0 -inf 0.0 14.57413748845208 -146.905819743852
0.216946 -12.355265322835345 177.31650597091712 -inf 0.0 -inf 0.0 11.004794544070238 -158.01161984971048
0.224944 -13.343515539440274 -170.7442236804927 -inf 0.0 -inf 0.0 7.84626646858473 -170.33672368439065
0.232942 -12.463014724440917 -159.7167591505711 -inf 0.0 -inf 0.0 5.813639181084131 -176.83459663320346
0.24094 -10.57323328503706 -143.67980076254796 -inf 0.0 -inf 0.0 4.733771609159919 -178.5987164287098
0.248938 -8.086779949126354 -144.08942380298595 -inf 0.0 -inf 0.0 4.053468229437307 -178.1596662917424
0.256936 -6.661214977273373 -154.79744981734626 -inf 0.0 -inf 0.0 3.503770969414421 -177.48267105082957
0.264934 -6.0925389178949905 -163.51383110979313 -inf 0.0 -inf 0.0 3.6194730050564434 -176.51589963067033
0.272932 -5.579716368099289 -168.76347939434504 -inf 0.0 -inf 0.0 4.003172704784558 -179.41543485695095
0.28093 -5.129656858826179 -171.61931440409833 -inf 0.0 -inf 0.0 5.7469608258517635 175.94786242840257
0.288928 -5.143864513940189 -170.4304479544711 -inf 0.0 -inf 0.0 8.095373594224963 164.22309557034202
0.296926 -5.5641600703245055 -171.4704939865289 -inf 0.0 -inf 0.0 8.880007905441271 148.6813190651821
0.304924 -5.756952917758812 -174.50393833402458 -inf 0.0 -inf 0.0 6.160962603481552 120.8893437630634
0.312922 -5.945636607341162 -177.76374987619315 -inf 0.0 -inf 0.0 2.556137035781215 113.80220927362765
0.32092 -5.777928786319766 176.30550861360013 -inf 0.0 -inf 0.0 -0.3633158072636131 110.42749693601839
0.328918 -5.71890429973569 170.00806906991397 -inf 0.0 -inf 0.0 -4.163469310628424 116.10315571238172
0.336916 -5.680817497498529 161.49267948069323 -inf 0.0 -inf 0.0 -6.282850222396984 124.90324653495854
0.344914 -7.323575878939299 148.56236039647567 -inf 0.0 -inf 0.0 -7.781019028026139 132.0855258780703
0.352912 -10.177556346371105 144.4136609558941 -inf 0.0 -inf 0.0 -9.872390433462568 142.05199618374215
0.36091 -12.021850761153129 173.98471614195122 -inf 0.0 -inf 0.0 -10.837838981197073 148.48018754905183
0.368908 -11.008735291172453 -172.55384044943202 -inf 0.0 -inf 0.0 -11.638710217810848 156.00968149530812
0.376906 -9.281110994043654 -172.37933575302267 -inf 0.0 -inf 0.0 -11.811151525969489 169.47703385574053
0.384904 -9.217159956649965 -172.17273991851448 -inf 0.0 -inf 0.0 -11.425272185197974 -178.9775800125878
0.392902 -8.170853914306875 -171.8402441400974 -inf 0.0 -inf 0.0 -12.287859323594414 -166.23443404512784
0.4009 -7.633673071968893 -173.4517886668487 -inf 0.0 -inf 0.0 -13.407576516773496 -152.4061538845821
0.408898 -6.758489622803156 -172.73809469035749 -inf 0.0 -inf 0.0 -12.691520822284497 -142.5722904437173
0.416896 -6.259561995891046 -169.84256884404815 -inf 0.0 -inf 0.0 -12.37686248192048 -125.35795048354426
0.424894 -5.738376927808791 -168.37457819562763 -inf 0.0 -inf 0.0 -11.15087560922017 -117.13075164687524
0.432892 -5.615751012662886 -165.81211287460735 -inf 0.0 -inf 0.0 -9.4436801484797 -101.17504410731338
0.44089 -5.3371064475251035 -164.32616792648864 -inf 0.0 -inf 0.0 -7.368013299781855 -90.35978614437876
0.448888 -4.8502224019987 -165.79150350446423 -inf 0.0 -inf 0.0 -4.949924345131771 -86.83540401707778
0.456886 -4.101176006365966 -167.4155482419206 -inf 0.0 -inf 0.0 -1.1094291033248438 -83.11534849581741
0.464884 -2.346682331574855 -170.2334371393583 -inf 0.0 -inf 0.0 4.8414971860150855 -93.75078412738367
0.472882 0.11994899621051303 -179.54673848645828 -inf 0.0 -inf 0.0 6.796774233010212 -155.3579573096153
0.48088 1.1894338375660374 155.95205413982646 -inf 0.0 -inf 0.0 1.075488356143716 172.43162114533388
0.488878 -1.3201942117419008 132.29279472599038 -inf 0.0 -inf 0.0 -3.5951260100042304 175.85045993674032
0.496876 -3.7731189198405786 134.83153207355204 -inf 0.0 -inf 0.0 -6.67857945634076 -171.2371911421432
0.504874 -4.07714504001377 142.11839913356755 -inf 0.0 -inf 0.0 -9.031004606454058 -148.09565259363802
0.512872 -3.669561679991479 147.31236584679607 -inf 0.0 -inf 0.0 -8.85289468386993 -121.70576674419291
0.52087 -2.7436943083344345 147.89469555628318 -inf 0.0 -inf 0.0 -7.359635660342487 -105.23694029444012
0.528868 -1.719305091617027 143.35731627257553 -inf 0.0 -inf 0.0 -5.7170078857509745 -87.09303821546872
0.536866 -0.9256111348334185 128.18731594044328 -inf 0.0 -inf 0.0 -4.287133856479545 -82.47028585986577
0.544864 -1.1840091735086389 105.73528573904595 -inf 0.0 -inf 0.0 -2.5093238668220663 -83.96050925555032
0.552862 -3.868886690452134 89.69863914512125 -inf 0.0 -inf 0.0 -0.531606708159131 -78.48127407946092
0.56086 -8.314395772016113 83.51030966692426 -inf 0.0 -inf 0.0 0.5352638364289618 -72.9830846267635
0.568858 -11.812664168031617 93.07245568501546 -inf 0.0 -inf 0.0 2.0471850642477887 -69.57145599902906
0.576856 -13.339117721425794 112.56910337049146 -inf 0.0 -inf 0.0 2.686439915862038 -67.62000954641053
0.584854 -13.465238211653608 128.85203053466182 -inf 0.0 -inf 0.0 4.283913117669339 -62.483151217023604
0.592852 -13.858289036950175 135.66399131939957 -inf 0.0 -inf 0.0 5.309689674972669 -63.299681912249106
0.60085 -14.18089349309212 140.6833948997354 -inf 0.0 -inf 0.0 7.718046297019864 -54.81516835132217
0.608848 -14.020914158448427 143.7978345001854 -inf 0.0 -inf 0.0 9.651399171345474 -43.94008016591355
0.616846 -13.22035832031403 144.8292302208713 -inf 0.0 -inf 0.0 14.174872078285032 -27.112402019395365
0.624844 -11.989862689347826 146.6951739674763 -inf 0.0 -inf 0.0 16.772348267654948 16.144591970524676
0.632842 -11.106121799449994 150.00815695508496 -inf 0.0 -inf 0.0 14.326963902682671 56.308140077485724
0.64084 -10.436498744616012 155.25926901032236 -inf 0.0 -inf 0.0 13.1073637929991 70.33796544761138
0.648838 -10.36311668422815 159.1085363149942 -inf 0.0 -inf 0.0 11.470602990029558 89.95936391926199
0.656836 -10.458859676063417 159.05945936490892 -inf 0.0 -inf 0.0 10.834137141447082 112.92135883357129
0.664834 -10.231980721724929 156.26363656498668 -inf 0.0 -inf 0.0 8.443926514931071 131.42016379519086
0.672832 -10.1167780091596 151.9582700544378 -inf 0.0 -inf 0.0 5.592831536041112 132.77304350678722
0.68083 -9.222793074926313 144.030628679907 -inf 0.0 -inf 0.0 4.547587377452866 141.50882846063803
0.688828 -8.275107356286833 140.61408160883215 -inf 0.0 -inf 0.0 3.8292944854041906 144.8213418316263
0.696826 -7.579752575852293 136.6927127868215 -inf 0.0 -inf 0.0 2.9937011419428945 152.52695150195262
0.704824 -7.166086886289862 125.75779533955848 -inf 0.0 -inf 0.0 2.7282000953911294 158.51003504767507
0.712822 -7.516593795332874 104.92988642419324 -inf 0.0 -inf 0.0 2.674987333497075 161.72372071511037
0.72082 -9.13458680027604 88.11737195448507 -inf 0.0 -inf 0.0 2.731109202143938 165.2190490626503
0.728818 -11.174003275203239 67.76415234278433 -inf 0.0 -inf 0.0 3.242493733879368 164.36823629473716
0.736816 -14.41139598580087 50.731096472124946 -inf 0.0 -inf 0.0 4.555848038221682 167.1550595615531
0.744814 -18.816164881714982 41.542977888777685 -inf 0.0 -inf 0.0 6.190001557860942 164.08886467761488
0.752812 -22.609547102580052 53.72946868945639 -inf 0.0 -inf 0.0 7.802476762355234 160.46698909931695
0.76081 -26.936354239939668 51.51002051437874 -inf 0.0 -inf 0.0 8.201995596162066 157.01652613613535
0.768808 -30.36791714345314 38.56970178679567 -inf 0.0 -inf 0.0 7.945992870956853 143.19619337230992
0.776806 -38.78572150610289 68.97610422424724 -inf 0.0 -inf 0.0 5.248858112757695 128.50169452045495
0.784804 -43.60043779756613 76.41613959529042 -inf 0.0 -inf 0.0 2.856071141132212 118.9921556007417
0.792802 -49.484356237214016 172.14407084168127 -inf 0.0 -inf 0.0 0.5699962104573699 110.41056649100372
0.8008 -47.36133050075834 -163.72691266709828 -inf 0.0 -inf 0.0 -1.3395255326704594 107.19479375438158
0.808798 -50.04978442018854 -120.21801139978508 -inf 0.0 -inf 0.0 -3.105806712791975 102.44063500297317
0.816796 -44.479099360353736 -54.991914530441186 -inf 0.0 -inf 0.0 -3.8472556191726563 106.96294419653408
0.824794 -36.3327004822365 -39.55543857677313 -inf 0.0 -inf 0.0 -6.564712944086827 111.82665556990796
0.832792 -30.426728059414327 -25.82961204349932 -inf 0.0 -inf 0.0 -7.240576822293838 123.57117966396405
0.84079 -26.4835065181255 -16.45979272797232 -inf 0.0 -inf 0.0 -9.730559039381198 136.55337557078093
0.848788 -23.339640930551397 -8.8069778310356 -inf 0.0 -inf 0.0 -11.169108881670027 141.77318741059025
0.856786 -21.51897844497605 -6.690481953245616 -inf 0.0 -inf 0.0 -12.75491365538602 154.0721564583918
0.864784 -19.341258505954574 -8.37219153751979 -inf 0.0 -inf 0.0 -12.931885471368092 168.02073957960206
0.872782 -17.55914027076781 -11.380811704284433 -inf 0.0 -inf 0.0 -12.294642393790431 -174.48026874353582
0.88078 -15.354309417496292 -13.959740373557295 -inf 0.0 -inf 0.0 -11.67011061241524 -160.53423816432166
0.888778 -12.37969987379563 -17.49301634807004 -inf 0.0 -inf 0.0 -10.00468098538493 -140.73307717644056
0.896776 -8.94933966782771 -18.800157111822344 -inf 0.0 -inf 0.0 -8.90567232135658 -129.77644275474103
0.904774 -5.310114874221874 -22.900493110310617 -inf 0.0 -inf 0.0 -7.2998724120679075 -122.49453467637753
0.912772 -1.5054829866540116 -34.63119282947935 -inf 0.0 -inf 0.0 -4.662429462706958 -119.30283369591339
0.92077 5.183317570409284 -56.32468717014794 -inf 0.0 -inf 0.0 -2.477004549675925 -112.60441449774902
0.928768 6.073534585330203 -132.6365176569341 -inf 0.0 -inf 0.0 0.027668990847899984 -118.10722082830566
0.936766 -0.010220238835773415 -157.9971488487798 -inf 0.0 -inf 0.0 3.059544760711243 -125.37453467876182
0.944764 -4.451267593099369 -165.34580684132717 -inf 0.0 -inf 0.0 5.549038111440385 -133.03343084502782
0.952762 -6.660882751455231 -169.3622635518163 -inf 0.0 -inf 0.0 6.958362046520339 -167.32266212708598
0.96076 -9.11567486019927 -173.92862680760174 -inf 0.0 -inf 0.0 3.994092341302718 -179.18955178561285
0.968758 -10.388283012124756 -174.94998572544733 -inf 0.0 -inf 0.0 1.2645983346907461 174.0169190191353
0.976756 -11.489938630815475 -173.7271466472308 -inf 0.0 -inf 0.0 -1.0716168956964742 172.6663880262084
0.984754 -12.25377555451544 -168.711107811935 -inf 0.0 -inf 0.0 -2.853205060862179 179.78251905132632
0.992752 -13.458902843083864 -165.20956124449944 -inf 0.0 -inf 0.0 -3.693686500468092 -175.15922143735204
1.00075 -14.956984176604603 -155.48567511361193 -inf 0.0 -inf 0.0 -3.919326365821114 -165.48064765232263
1.008748 -16.55399388238087 -145.16841426864826 -inf 0.0 -inf 0.0 -3.6959742384697423 -153.50214401301835
1.016746 -18.434098830674724 -133.49312377002872 -inf 0.0 -inf 0.0 -3.032672489094528 -143.5295982450357
1.024744 -20.512144640371627 -121.63082735724252 -inf 0.0 -inf 0.0 -2.4211264637360808 -134.55164467148228
1.032742 -21.32547108752661 -105.4187100801038 -inf 0.0 -inf 0.0 -1.3607766834906148 -126.23962132209547
1.04074 -20.444857373707535 -97.79648471781057 -inf 0.0 -inf 0.0 -0.3940305245709479 -122.85500240130733
1.048738 -19.071583972967854 -85.4914267237505 -inf 0.0 -inf 0.0 1.322686314033112 -119.46402816198251
1.056736 -16.313915122072604 -78.06505085685751 -inf 0.0 -inf 0.0 2.1327158467650293 -111.97549916998783
1.064734 -13.69186630987258 -70.05708539035675 -inf 0.0 -inf 0.0 4.508870678564432 -108.92912704666338
1.072732 -11.060459554714235 -66.86281684924234 -inf 0.0 -inf 0.0 6.526437003660501 -117.14360672640149
1.08073 -8.394259899780934 -63.77134833705524 -inf 0.0 -inf 0.0 10.053574343458372 -110.77532928922227
1.088728 -6.321162265702283 -65.10107930669685 -inf 0.0 -inf 0.0 16.339293784832122 -94.78241945130003
1.096726 -4.358598968410211 -68.16470116016977 -inf 0.0 -inf 0.0 22.822790523089893 -122.53615498262133
1.104724 -2.4057523578795927 -76.96637462252279 -inf 0.0 -inf 0.0 26.516746954434378 15.880389970222996
1.112722 -0.7937938497935175 -88.82312237234578 -inf 0.0 -inf 0.0 18.432449903453083 110.99246468555795
1.12072 -6.622523219611952 -87.88679922895332 -inf 0.0 -inf 0.0 14.748003344009264 120.82130833727246
1.128718 0.7101883781692453 -119.28980617601684 -inf 0.0 -inf 0.0 9.797926198255254 105.69396396760887
1.136716 0.6800861084035674 -136.57605468845753 -inf 0.0 -inf 0.0 7.844329284904976 111.3708921314368
1.144714 0.054372155819237766 -147.5920276504487 -inf 0.0 -inf 0.0 6.3739852204607415 115.11626204519727
1.152712 -0.2321065192196192 -158.81231951518197 -inf 0.0 -inf 0.0 4.9227809635783855 117.60568461381605
1.16071 -0.9008865856504343 -166.50811220679537 -inf 0.0 -inf 0.0 2.8343300989752835 121.13430690292691
1.168708 -1.4835828116081529 -173.51583467782626 -inf 0.0 -inf 0.0 2.752609964870356 126.28847354294872
1.176706 -2.1238636794263996 -179.31203274839413 -inf 0.0 -inf 0.0 1.6140415597784266 137.33889896239393
1.184704 -2.853544189887256 174.90126120141156 -inf 0.0 -inf 0.0 1.2335613884053958 140.00329500980132
1.192702 -3.8383523375713446 170.7963942041186 -inf 0.0 -inf 0.0 0.3896925354785369 145.59947323836576
1.2007 -4.980994595039614 164.26524865602053 -inf 0.0 -inf 0.0 0.564105725184236 147.7813001863741
1.208698 -6.556465163018572 157.4780132493038 -inf 0.0 -inf 0.0 0.12625399637801415 153.84057392478513
1.216696 -8.034642792658415 148.6976618030472 -inf 0.0 -inf 0.0 0.06285692635366705 153.38991649206477
1.224694 -9.747968994540699 139.36806219563877 -inf 0.0 -inf 0.0 0.49570887244898076 151.77277387416007
1.232692 -11.360774370717198 130.9603911827036 -inf 0.0 -inf 0.0 0.2071160583036993 151.50898056241314
1.24069 -13.459020231697183 119.28859321598067 -inf 0.0 -inf 0.0 0.9314886055640939 146.14640509534686
1.248688 -16.196789909312365 111.0425026729628 -inf 0.0 -inf 0.0 1.5424349987166628 145.82260272991476
1.256686 -19.547318717868507 95.17293063795834 -inf 0.0 -inf 0.0 1.3250514324850644 142.31810830424544
1.264684 -24.199735353940394 42.34690082825811 -inf 0.0 -inf 0.0 0.6525329836103342 142.22992467065146
1.272682 -20.024469440358793 -14.981528161680185 -inf 0.0 -inf 0.0 -0.06545494269354368 137.1308112776742
1.28068 -14.527965233650129 -32.309725963453054 -inf 0.0 -inf 0.0 -0.21720568471995683 142.01521653296714
1.288678 -10.95063540764432 -37.83547997745951 -inf 0.0 -inf 0.0 -1.7023798792017226 138.75249234145363
1.296676 -8.568174564789096 -44.6928376488519 -inf 0.0 -inf 0.0 -2.4912657951245802 140.14983778796497
1.304674 -5.709243788857591 -54.84367795839367 -inf 0.0 -inf 0.0 -3.642596071570836 140.7935615216043
1.312672 -4.267238056126002 -67.71911953843508 -inf 0.0 -inf 0.0 -5.057763841557863 143.21440577768888
1.32067 -1.7448880103472502 -75.2072289346395 -inf 0.0 -inf 0.0 -5.390308304975438 145.1021794429492
1.328668 -0.6893996986463752 -89.509032476345 -inf 0.0 -inf 0.0 -5.688466164127561 146.1330242590672
1.336666 0.8696585391035054 -102.34281642581291 -inf 0.0 -inf 0.0 -6.657615822418331 158.2662782314051
1.344664 1.3540630837127179 -112.83634729799152 -inf 0.0 -inf 0.0 -7.171632595775677 162.96636150120258
1.352662 1.6123083544039818 -124.77290704221105 -inf 0.0 -inf 0.0 -7.237618103472396 168.29211035156473
1.36066 0.9481661384617333 -136.01483402462168 -inf 0.0 -inf 0.0 -7.624340660455854 177.65878671121612
1.368658 0.9409725828234171 -146.38564718439622 -inf 0.0 -inf 0.0 -7.842048179211557 -173.18540854464823
1.376656 0.5885436326343276 -155.43386731386403 -inf 0.0 -inf 0.0 -7.783318156565574 -170.90831492090877
1.384654 0.29751122404598407 -165.24971922520425 -inf 0.0 -inf 0.0 -6.536623059658888 -164.59310036085478
1.392652 0.05014949764079933 -174.19518124529435 -inf 0.0 -inf 0.0 -6.523966893734066 -156.8912893451129
1.40065 -0.43675106697572197 176.60988716980188 -inf 0.0 -inf 0.0 -5.05347340137554 -157.46634055675256
1.408648 -1.3038976641091122 168.25127241867253 -inf 0.0 -inf 0.0 -4.4523333256397635 -152.39446475632832
1.416646 -3.1478846135836025 159.81078835264898 -inf 0.0 -inf 0.0 -3.524185655098893 -155.12443982197684
1.424644 -4.88672725171397 151.77944259084697 -inf 0.0 -inf 0.0 -2.824414177215248 -151.34273476816662
1.432642 -7.86465256931473 147.20727942817095 -inf 0.0 -inf 0.0 -2.1301165732828964 -156.97021921390845
1.44064 -10.830610929881587 142.52032105062642 -inf 0.0 -inf 0.0 -1.527572284477783 -158.22471297735453
1.448638 -13.650207460354435 138.49160052658848 -inf 0.0 -inf 0.0 -1.2888836397250012 -163.07609290283523
1.456636 -16.075178456714166 141.821228054056 -inf 0.0 -inf 0.0 -1.4632343994562755 -161.62029438238523
1.464634 -19.02368532159876 141.51573680641584 -inf 0.0 -inf 0.0 -1.9377409679741677 -165.30188881258053
1.472632 -21.49360070303075 146.0881875043439 -inf 0.0 -inf 0.0 -1.8773502375279663 -169.42102145126174
1.48063 -24.919984048798177 165.67718416102792 -inf 0.0 -inf 0.0 -2.144904748050089 -172.70842005153452
1.488628 -29.197972136438217 -140.05472376802106 -inf 0.0 -inf 0.0 -1.71422823459503 -173.96921467757778
1.496626 -25.025519376329513 -77.66998900761837 -inf 0.0 -inf 0.0 -1.8267576780942238 -173.82948952738377
1.504624 -20.14610286538836 -58.09828587348766 -inf 0.0 -inf 0.0 -1.680927667422492 -170.95050607371533
1.512622 -17.704577290193175 -42.401584794648784 -inf 0.0 -inf 0.0 -1.762091364481273 -171.5970450480845
1.52062 -15.495255974509616 -39.92742600859893 -inf 0.0 -inf 0.0 -2.3869276714801693 -167.99505619621863
1.528618 -12.891237386536636 -39.20496166430366 -inf 0.0 -inf 0.0 -1.8357521750423844 -166.977360793752
