!Created with skrf (http://scikit-rf.org).
# GHz S DB R 50.0 
!freq dBS11 angS11 dBS21 angS21 dBS12 angS12 dBS22 angS22
0.001 6.829694091113638 4.399587297659335 9.694864361161388 29.779160663620072 -2.354640086516758 139.92301472899328 0.7199503871520617 -138.2312602549744
0.04099 11.79883368879796 60.12522233304162 8.17799455821081 -75.45200490608576 5.337843908927288 129.5003967769101 -0.23859894089278122 3.3696308703431312
0.08098 -11.74723484994751 -58.50083537570114 -10.818800097543178 97.70661616679308 -4.433503943696705 45.58432144428247 -2.7501593450649064 -96.97143719034725
0.12097 4.51212570720349 147.67205320485047 -2.798498099059292 3.8540514888408226 6.7456211689167365 -176.438465261622 -7.3076331315329455 121.4377006599216
0.16096 -7.054187825977295 99.56989359240511 -1.2908080025052768 40.531433129339085 -4.721169125794841 45.313757472834396 5.1350792915448915 -74.23130593138013
0.20095 0.3191683648087779 144.45814710407714 -3.0943843996510125 -94.26565933912845 2.202281469276111 40.84114310359855 0.9273558682380021 9.743961232814552
0.24094 -2.4315208480949684 158.5723864734643 -9.73983941060619 -23.252582858560682 -13.199369492040491 -91.16284918189858 -5.270841979954478 -93.73586120876
0.28093 15.152251962943367 -163.45524254161333 5.434213788110041 53.06216088080624 -13.49801444626388 -91.02183798761317 -20.14847909048119 73.91665215840291
0.32092 -7.876912345921932 130.8125650608599 -22.290915421780454 70.4479376841068 -5.8231747351501 -39.80221491400777 -18.66386086849165 172.97160893922094
0.36091 -5.465709705822425 -165.92690864420052 -13.377909627314219 56.028426928146466 -4.664503652829337 47.83032560579995 -5.004159840272958 65.24675622284995
0.4009 4.9580042717822215 -73.00147258918354 13.710601493128301 114.85053685335802 -6.341017547416281 -81.24031806193373 -10.571487670539433 92.38742051929096
0.44089 2.1491905651542837 89.0984698199905 -6.985273678091639 168.89181061546915 24.015605112246096 96.99558185977098 2.9885225543888567 -156.39647605562342
0.48088 -1.829980013847101 118.85158845496696 -13.45490210648479 45.351098847504396 -5.126821058994915 -48.08834183182748 -7.506589970795261 -72.45238823986813
0.52087 -14.17039274867524 -76.60187597897337 -17.85999110705822 -57.414106502549465 -2.7129252849661083 85.3869149321496 -1.4134514636279418 -30.94523772707161
0.56086 -16.22558423899494 18.272746565681363 -4.083880918584419 52.32010771662191 -5.36897062009084 -106.38573574105493 -32.123189894374754 -170.4151788269942
0.60085 -9.577813596662061 155.65712117907194 -25.37861187401013 71.10676636130638 9.471002809963572 -53.52165757374526 14.196346767969612 -76.06866571429154
0.64084 -3.2591222479141653 -109.17752302021627 -10.877139896704549 -33.63394771961604 -13.258714757200485 31.67420098313318 0.9531345690023258 169.45767526809007
0.68083 2.460133172983576 -130.12483871618448 -16.013155803449273 -25.5243606895541 -17.732480917493593 22.218133248823907 -3.498137818042401 -38.20374571921515
0.72082 -1.3396831817567096 -111.13202313373115 -13.8404113894647 -124.85577092892409 -16.302630508116472 -27.294628555903465 6.247933431759076 -107.19976074755607
0.76081 -14.480378693779185 -74.70510617241742 -27.041224746723195 53.62897643239466 -16.850289008229673 -176.67263956513094 -13.152977438239438 84.9301943710682
0.8008 -7.671056710174997 174.79239461936598 -8.03455437383041 -72.1737341847489 -2.2885931103067176 146.2593936575971 -16.665731251002494 -71.39489078719271
0.84079 5.328172996149796 131.6245986953916 -14.136580420156635 38.86900309030793 -18.565980882004347 -133.20433595291684 -3.2068312120379816 -170.74577794979672
0.88078 -2.6094454725049356 -142.10404128968798 -22.114438896453827 -107.24382412265241 -13.608728906899856 172.52214570665674 -16.205810630286447 163.49064177907704
0.92077 8.344440039402185 -89.17670415022498 -13.611654607031525 -2.98730124201182 2.0161651404123186 177.40701172274035 -6.8723648331232585 -168.45939180457412
0.96076 -3.1248515584756182 -157.68139670877648 -32.636635713016915 32.78290534053692 0.20542529592492056 -11.681001516432731 0.9973530687123812 133.39045850275056
1.00075 1.1905390965299734 151.3147618514504 -19.727761647516783 7.266314942207907 8.910834801624004 83.09172926459198 -11.048883111676943 -113.10619276589028
1.04074 -6.45655134912706 88.9476531943948 -16.985688869791172 -16.78362931463959 -25.02009590028827 71.85360329755112 -6.275581800440163 174.643816721133
1.08073 -1.6867120575949601 -163.6725568985196 -22.195110652954092 -48.97666492409813 -16.673163631017594 41.718068581681656 -17.375791602067665 37.993474479348485
1.12072 -3.806524993031581 45.538280056556026 -16.907538722029003 -86.99593828421239 -4.309685614113711 -35.04835264384426 -10.049778684172654 155.9319595792887
1.16071 -9.808859243226621 81.37816098420423 -5.902448549313758 13.314624636920703 -3.608693714091191 -74.22900233090239 -6.483065430104316 -132.73472358588944
1.2007 15.875897802963031 -81.05411132636343 -5.614541175170382 -120.76235299725148 -5.691804567177008 -93.17582257484665 -32.758131545848784 -14.776872079042631
1.24069 -15.657677413946196 -25.695163696924467 -21.240216559553076 -37.725619951727836 -15.901648448374905 169.60233126575244 -5.129652896769061 -21.578161898240694
1.28068 -21.367321533719043 165.6952454872259 -18.80709075978032 -90.9157421148538 -6.037437626865926 -28.361075651471744 -8.803211108040307 -168.54903880483394
1.32067 -8.794994178647503 -17.842299836691915 -21.649777012978937 157.3263271628645 -7.122742780753603 90.58611615342163 -3.161534894062777 -46.09705386616913
1.36066 -9.958536031098522 -167.35604428253941 -12.625873859967534 -79.96165773626039 -21.175442287464353 83.64299341646867 -8.967980599652547 95.01878922220803
1.40065 -0.5121096327062916 -178.32721185063994 -4.0635988289040155 16.86914483408226 -8.266917745435517 84.75257550439537 -3.4758309578663575 31.77854796847771
1.44064 -7.75255265577435 32.199529107939945 -6.124032141670968 65.49902537528922 -19.307064505130928 -87.11379872740586 -20.83590852539342 -47.7103061078001
1.48063 -0.12811979402543197 174.86953749440545 -10.992157643371234 38.53365547499337 -15.939937243423593 -7.037183004706824 6.327808099108006 47.63629479143504
1.52062 -8.037831646331725 -28.102010855837825 -12.989049682523712 73.47511582822099 -12.512105629435926 112.99185638276289 -4.8892095681253815 37.369574905890744
1.56061 -6.423089514970936 -131.8437130803366 1.1380484557562665 -8.422214090801502 -3.482119537013362 -7.627553142027419 -16.89625729164187 -97.75200640359212
1.6006 -4.923091873150826 5.887954968596009 -11.106162069872456 -65.01858936499428 -6.145304054558299 7.6276252037594166 -9.899462774518897 -78.8536348093146
1.64059 3.200574206053977 109.92286989162 -0.23581709678275536 -43.22788639883925 -3.874591527312762 0.697687705704444 -4.410383168489998 74.58048410773863
1.68058 -32.60801619063477 59.23625130075548 -3.0827425555625405 -92.50868193688885 -10.618033462015523 45.68520918458623 -11.82732345749347 -178.1415598191301
1.72057 -13.600034977176065 -65.11627873202846 -4.023631603047443 50.53414915656734 -20.01119138790871 -72.81549700663895 -2.3787739975586684 -97.51062272002511
1.76056 1.9375019410243275 95.81853145051993 -6.063223977378206 90.25995429672987 -3.5866810899360484 42.89874828132984 -9.62156213944452 168.50878003117313
1.80055 -14.499781423956069 80.82054488262486 -10.56261909242693 19.28305066603435 -26.159852364233977 -71.53359657203258 -0.617689419090346 -4.51798168059132
1.84054 -21.268179454080368 -168.17109430860165 -3.2469585602715343 -99.27927241969299 -11.511944466551011 63.36166000789274 -3.4281850615896294 -84.57965175128024
1.88053 -3.095453181224151 20.014439375533936 0.6573136119195593 -62.367887852364284 -8.77700654278485 -30.743810768923097 -8.379290172152151 49.03005987343697
1.92052 -6.418795546943397 -141.9224180355607 -11.732475281086565 -171.60954322312932 -13.167788789829881 109.42291593516482 5.15872030039585 138.40757562699483
1.96051 -14.943472687455994 -32.40215534881535 -1.89248434047926 70.55580511793931 -8.568356726694322 -71.51305835364934 -7.04450373279753 -179.6076927612653
2.0005 4.509640602075764 -54.286474625849344 -6.536370537283123 -26.98322348485083 -22.67200029364172 54.8246149482715 -0.622970370582336 71.88049648542325
2.04049 -19.904229854578674 -96.33501513149754 -7.194741180745535 53.478667607367754 -8.719940391803814 -67.33006956832712 -12.418260063867804 -132.1722964322515
2.08048 -6.087769871620406 77.10541390457257 -15.108692960884868 75.73593692122247 -12.896111254501726 -45.087996726013735 -1.4668997270259299 -151.76421116446244
2.12047 1.6570818352312529 -106.29968713681711 -0.9731542697446189 -102.2772720593479 -7.550554262224378 32.089124780299414 -8.898894437676894 75.07317059152098
2.16046 -15.161096532765239 -120.30491224824273 -6.342446876212174 -160.2192488092499 -6.893487663050171 54.69507373727289 2.2658659776976213 42.162335304468996
2.20045 -7.224237315742731 -61.61013740967541 -29.50537250933956 -9.80490925684978 -2.7055826071314275 -89.24168079743369 -2.2593530165235487 -139.2031621046378
2.24044 -3.896908368089325 -87.64234413708357 -19.716389447882744 -27.39797887972883 0.4149084919555638 29.623389905291283 -2.472045293014546 -96.2285426451933
2.28043 -3.2210810523313107 25.026178047162997 -14.695980950477885 -7.577249888796667 -1.5038216251090457 -44.24958525535749 -0.7574994606728458 120.53455426046447
2.32042 -2.0825033324779025 -108.57767756601157 0.43045388321259315 -18.305801678511635 5.151791993886392 134.19808889062705 -2.230569279613615 -172.13197962787575
2.36041 -8.376637765311852 75.66473733092863 -33.22667538505057 38.99293524307063 -10.056388583882343 -21.74761143866377 0.08389914347218994 1.2577457999403103
2.4004 12.20184028510011 -48.425851979356885 -12.390620321665494 86.74503157151605 13.449503001705514 142.82209721600347 1.9651922274077263 -1.9422215387966288
2.44039 -9.35592980963732 18.054149029561657 -1.4513502642193619 -0.3861727753528033 2.1445449740996976 -44.304144996450866 -10.064250689955912 -77.9432788461256
2.48038 -5.254189129810988 177.09677259046205 -24.492202841450865 164.67350039382197 -1.2765288832870412 -61.50942923910198 -7.270249678706273 98.80958743861405
2.52037 -14.316905329407712 3.554952632559639 -0.4410114692603731 131.76925698469435 -4.794051548762485 -92.64055414329164 -11.386981748678547 176.36451121702694
2.56036 -10.020529413048536 -11.069141546513787 -2.7015595687368292 141.6727340268967 -10.445239449776684 -149.09104854721429 -12.125027187887685 160.94150897378015
2.60035 -9.367465426045706 -25.32109699208901 -6.9596705872657 -78.30790643522676 -15.746105752526274 -21.04584947024279 -10.618907578190136 113.1078416312682
2.64034 -3.3975353662489742 -115.27834737069661 -23.561961247487744 133.30513857599573 -5.134990825394542 -157.24548362525846 -11.381570437324857 -173.57596402409598
2.68033 -2.3451099684665615 -6.00844958752213 3.094032807545981 -44.2822742331872 -16.02385600602066 -56.42748013119337 -6.412639970087683 -173.8135588909281
2.72032 -9.041174182547538 22.96554596229865 -14.110752698652336 9.740164560339316 -11.713912765036309 -73.16039788847013 -7.342326357436566 68.16018421752527
2.76031 -12.625743954120667 -122.05988905002943 -9.713148340804379 31.462033395338445 -12.542415898744112 -54.89473495020171 -3.1345599087293214 -47.971562706297696
2.8003 -18.842247565443895 -25.93328083182862 -12.470683102573226 -36.84560665714919 -17.925830917020285 -8.162656090653606 -5.680743818045968 178.494110276169
2.84029 -16.423209144460298 -119.53735092412973 -15.700626106641074 -3.5271532924905684 -12.739402785330995 18.316603508692964 -19.088022696714148 -168.17515069930639
2.88028 -4.206643642014448 -60.376425730407405 -13.332180460351209 -20.234543934984874 -14.936488209707184 5.045136250140547 -8.561438213311801 131.03709098844533
2.92027 -9.184839012298008 137.92958982875857 -17.956604475572107 -41.58652182680883 -15.904189910510054 10.092946112775634 -3.6180793093204535 146.02573736152985
2.96026 -4.973007539895643 -155.66040235965207 -30.386691657718245 -14.711999450490579 -14.2280205793964 6.115692262861781 -13.571284102047336 140.3592637241868
3.00025 -10.67627443741249 -140.8489546892162 -20.561834030655078 -13.867088209434952 -11.111528577448798 3.8248390886879737 0.061124094953497785 82.6476943481991
3.04024 15.708687625306714 -118.09800366897457 2.736462659578759 -129.4854377036074 -11.74395771455346 -97.70411913260253 -4.257342911469396 -156.81091451451658
3.08023 -7.029339836423168 143.78624365314045 -16.70314910374025 13.683503388574776 -14.858986356913174 2.913978423639713 -14.94519519343379 148.83853307007988
3.12022 -15.676658941836399 156.30204772786675 -12.224653818446253 -16.70273342916194 -14.396660710241488 3.2849767766117157 -6.590001468324205 174.19593706004193
3.16021 0.8020149331307482 96.33484791158821 -12.933304067168432 15.408573044596492 -15.910094569734925 0.5833212247010333 -13.696624147508516 170.06011347231544
3.2002 -24.951364214248347 -42.27152812060184 -12.483490812625115 -1.2508953616049452 -13.47041762271305 -4.340394400036347 -16.967120207607692 96.8121537577131
3.24019 -8.108953625134657 -160.90760356207505 -19.062050135890804 6.038519689653766 -17.068390722382784 47.378366923834776 1.0238429898474486 133.82458762779166
3.28018 -5.086873808828113 130.1833941081677 -14.348396173745158 17.410547653147795 -14.905768998636123 18.034153097652034 -11.44185601877394 -168.31023700331653
3.32017 -2.5289648662261595 172.02791468150326 -16.088843404779812 13.167059650309946 -16.430550686459785 -39.03575082385208 -1.8405250556262287 -149.61646197701205
3.36016 -5.649496551914748 -37.788446285736384 -12.94615298396594 -22.706089768186327 -13.961331190268274 -11.697366830080465 -0.8941995952297855 142.88789283410622
3.40015 -20.836606948310667 128.94821478228442 -17.550766281891203 13.26338056706347 -13.130017168635778 18.04957769858915 -3.279729083379785 87.4640669085212
3.44014 -8.241367856227429 -154.21100649678485 -14.488805349086508 -17.749792765471643 -15.698493892617435 -46.23525963529779 2.0799899054778876 -105.78304621639786
3.48013 -7.514279246712108 155.50330967560873 -13.914254976806912 23.492008389645243 -14.444206560490695 -11.522189034258712 -12.729308939293794 178.1919871217566
3.52012 0.7618961136321993 145.81311348353606 -14.37757080299567 16.305054944844397 -15.268109280484179 -7.206808896807816 -10.600529713022526 -148.2162099867227
3.56011 -8.46187631028085 162.66447220843727 -17.998970017111507 -36.64186509242713 -16.889903395891995 6.280509259307844 -3.7705352225552797 163.06744788936257
3.6001 -16.020282518007395 -163.32651350060354 -26.156212423740932 -5.3215721860326735 -16.623696450170613 -52.341509575592134 -10.739995076639326 178.4316816971915
3.64009 -0.11984935033541545 179.00376481771266 -13.991241964126841 -12.176621164951115 -17.711422733096867 -27.90445873722924 -15.019914167766558 -146.0851431552539
3.68008 -7.328224152516007 173.33168232047493 -20.043804461006683 1.7841867527011437 -14.76247532062791 13.71981896313944 -22.071374182625906 -142.86894221709747
3.72007 -12.472523724865873 -151.68133631871638 -12.58244545981376 -15.31019308458433 -12.292848211430016 18.01044365388016 -14.07090550483063 -133.89264595728162
3.76006 -1.6272677771965802 -176.72085603206466 -19.444704901854305 -2.370896794939812 -15.797418687903189 17.004138622272045 -12.200550968482524 144.3678192020343
3.80005 -3.646430500722773 -139.99639278774956 -9.082990259757475 -12.02621541413664 -18.446060092676642 -6.8762145295206905 -10.086606470621716 150.30549214783323
3.84004 -10.973017188198016 151.6515784673396 -20.680618655702094 -21.98440373958047 -10.833952939824998 -3.3731662512330507 -6.466147027033411 130.98873325158118
3.88003 -1.0533985542366535 142.362269239479 -17.358716585525237 0.11497601466944833 -14.254791712478463 -4.113654781943817 -5.181738940684074 135.9092947060771
3.92002 -9.398453285857176 136.67980115194078 -15.707341151684906 -11.650766402346095 -13.35926762856035 -15.911476517306916 -13.326472489647239 -111.6161284841743
3.96001 -0.9901313756857983 -168.648219745952 -18.33269228943395 -6.944380037104409 -12.719310201793304 -24.532417099241183 -10.929405521443034 -173.7345459193937
4.0 -17.94672308610236 116.66249567574364 -13.605616959727538 18.29942949494821 -14.153524063174618 -19.91902038739951 -6.180382060420916 -148.85605701631545
