!Created with skrf (http://scikit-rf.org).
# GHz S DB R 50.0 
!freq dBS11 angS11 dBS21 angS21 dBS12 angS12 dBS22 angS22
0.001 9.536373241068217 -35.47379357392142 -6.863692144382835 -120.62508523306144 -2.4317048094680866 -4.3301038852889695 -13.871462669748059 178.9646188989064
0.008998 5.386649038840137 -111.8092003893771 3.5897989553181135 23.56988581918802 0.095785346840618 2.581435925878874 0.35939717985947994 171.09689026657728
0.016996 -4.610955554602655 -172.5474859641527 -4.6368479619813385 2.1861283562654 -6.72039200894819 -0.23393851514122424 -7.230872831863691 -169.7401138535195
0.024994 -5.637628374135126 -171.50937067229813 -4.855404339764097 3.4226856558202927 -6.212934243358784 0.6235024828433148 -6.183297030537835 -176.40189548413892
0.032992 -5.818161517266906 177.8085856411698 -5.530146518545691 -5.366468083969438 -5.863180109215822 -5.561242295168919 -5.475035717052661 -176.72859045496975
0.04099 -5.94559177373815 175.3275706768351 -5.939246766967935 -8.309575017248084 -5.936345240748584 -8.36880191270204 -6.249909888711896 -179.04316008234244
0.048988 -6.307555739020096 172.3297238572351 -5.827626038636382 -13.059791141597056 -5.866638261965809 -12.050825138600853 -6.519273045771316 175.43206093558345
0.056986 -6.346041754523385 167.70020944059257 -5.751109836609659 -14.635941969741413 -5.769808701660698 -13.965433287747807 -6.340035278749609 172.2166366243957
0.064984 -5.876629360916496 167.6396359694636 -5.653773476830852 -15.195510424127527 -5.650169224887167 -15.09339499556384 -6.470641522798982 173.25465167424684
0.072982 -6.329161259083635 165.37890811551816 -5.915013822737195 -16.24672670345425 -6.045586238309774 -15.60587865112545 -6.249852031575146 169.885537093418
0.08098 -6.608324372616582 162.58420846118156 -6.07103113343051 -19.27047665415864 -6.139596234914385 -18.583310714971685 -6.401837501267838 167.60335385276855
0.088978 -6.188971575486439 158.0883162107432 -6.1940153281080725 -22.18812487740024 -6.087747085978706 -22.664576363906225 -6.38140029277073 165.44036445702923
0.096976 -6.293073835408178 156.55405025231173 -5.965281170809877 -25.895235341486956 -5.86481171500888 -25.987716823305036 -6.129470657596609 161.7415776840963
0.104974 -5.797767184671936 155.1829087940169 -5.635382711679444 -27.283751480394862 -5.7467959375270325 -27.247005761797706 -5.961616677987932 162.4319929659752
0.112972 -5.947792967700495 152.71088138419393 -5.4851131324739155 -29.115855142308867 -5.658651389962276 -28.15775798843819 -6.058065143895739 162.7358527567983
0.12097 -5.778712553998874 155.14813726778007 -5.617276770506571 -29.083420762495898 -5.858311355843032 -29.01866949548458 -6.108186767234759 161.02250878379533
0.128968 -6.137111694276155 151.67727592314716 -5.770141674837853 -30.873461393656505 -6.029282756251744 -31.07261658050567 -6.062450839279948 159.66960163542086
0.136966 -5.9701537243616665 151.0476818985426 -6.083328027579644 -32.31358963599314 -6.40135843252213 -33.544345086403666 -6.2533230237402275 159.0214303407608
0.144964 -6.452036264102499 149.02487358150867 -6.388272360176945 -37.61110045777212 -6.2790519642114395 -38.29939259061304 -6.217840569569066 156.08751996537677
0.152962 -6.179553366287935 145.77040276671622 -6.398738257108386 -40.79552688129291 -6.227301055898947 -43.14554428797985 -6.01470903441033 152.4009601207466
0.16096 -6.711831288633038 141.0912541046978 -6.12212351997562 -47.648873224039086 -5.799401896420992 -46.414068236177904 -6.074106473957568 151.7318906367841
0.168958 -6.13874898718704 140.4593902107108 -6.0190431945077485 -49.97433233332761 -5.415567546830156 -47.011634707156105 -5.403566148207396 152.26575686216125
0.176956 -5.827879020490245 139.3863386096781 -5.4486085175087196 -50.54493334376585 -5.2823222375139 -45.9229737933096 -5.2600490478525295 151.24784711027058
0.184954 -5.822852029465967 137.71661166754538 -5.280427631700587 -49.8469605429273 -5.1983313316682 -45.909654945127144 -5.5628721672911 150.67941243915638
0.192952 -6.111481407568745 139.12553720719728 -5.439246320103761 -47.082972480372156 -5.82547237075584 -46.855162938883154 -6.106637125780944 149.64045777242012
0.20095 -6.546655101018308 136.1135515476225 -5.8473792798587345 -48.76999550266107 -6.163196890642802 -48.61107699865509 -6.260726932953931 147.94875559864192
0.208948 -6.82153968215739 130.61879622417183 -6.112308093891454 -52.13518852673914 -6.118958028441468 -53.91922438368378 -6.3680470422630675 143.5223763969013
0.216946 -6.552233917867941 128.7558633262457 -6.315959151507892 -56.66200959803491 -5.789654609465305 -60.28722795254748 -6.110570006378223 140.36273468103926
0.224944 -6.249669523303302 126.73511460203338 -5.829096793472749 -62.726928282819536 -5.268928685618757 -63.242037929237064 -5.83898868297439 140.99632744116903
0.232942 -5.799832748068936 129.20413068919711 -5.553928769852622 -65.10589937844117 -5.184453967758542 -62.721768095251605 -5.5147221806199145 143.33413922750117
0.24094 -6.304776983713769 129.28243300682482 -5.137745372049995 -65.06581278423818 -5.4551900087906935 -62.67217820950847 -6.005395446236273 144.45766601282892
0.248938 -6.761883914891163 128.93255325366368 -5.387724455035822 -65.59189270448258 -6.187730650014288 -65.23790323130766 -6.859747468057337 140.45982299202876
0.256936 -7.519307282349392 124.0910144121361 -5.8503186190154075 -66.53988640316754 -6.6358572757481795 -68.80926172424108 -7.279507659105278 136.68694931968028
0.264934 -7.881923749648026 115.71809412129124 -6.211701214945654 -69.19196964878162 -6.671751763179438 -74.63156274074908 -7.0960763111851755 128.88676599411664
0.272932 -7.975227208998184 113.47705478008744 -6.640373509127974 -72.6711240929148 -6.281294985728944 -77.91194702787055 -6.323109081155983 127.13671186646626
0.28093 -7.237365379211711 104.23079744969125 -6.400347349535829 -78.90487213307637 -5.696486212388123 -81.27122753616563 -5.914030687272396 122.75089312779228
0.288928 -6.304620188901553 104.55949125738789 -6.065326291671591 -82.85565847329896 -5.154839732677315 -81.54566143250096 -6.046028699570706 121.0209446888178
0.296926 -6.316075749881513 99.49409013381779 -5.648909752924266 -86.07330695709675 -4.995752183054331 -80.89285248255948 -5.776423631473674 120.82935512485554
0.304924 -6.413859348908433 106.70734451077335 -5.271308292907148 -84.94228290100365 -4.910441430482178 -78.03363150496321 -4.940500406565762 123.28432209135849
0.312922 -6.184614915658847 105.29759222029315 -5.259864366385215 -85.22580871292827 -5.507764215495058 -79.47693401292159 -5.918666793279517 125.44376939116998
0.32092 -6.208121026439331 107.33280019271234 -5.186492888553362 -83.88511634306177 -5.76421493295462 -80.11786690717597 -5.680779326675501 123.7391755978575
0.328918 -6.559273899388324 107.37605169935689 -5.322918532985793 -84.86439604562125 -6.1917283205675275 -82.40982284124824 -5.98840245405062 122.69802990542509
0.336916 -7.329906263429368 105.12209067653141 -5.550077057615153 -86.9408046815699 -6.199298691040731 -86.33642065567804 -5.676264741657859 116.36619274543291
0.344914 -7.367372474375493 99.3336933224574 -6.0021807149226465 -88.41091371820801 -6.37807127610553 -91.41339735438528 -6.2583180608420586 116.04977174403943
0.352912 -7.07658051403829 94.75869046346678 -6.134078218294308 -91.92277713281413 -6.2354065109200505 -96.6763515667606 -6.580442326617581 111.6764377431544
0.36091 -8.194043251984118 97.211577575555 -6.6232311774124355 -95.22850643324846 -5.911356921375854 -98.90920596092138 -5.576566754565736 109.02752357830249
0.368908 -8.180503434126926 92.11075480953582 -6.5707129714937915 -100.34653653193594 -5.460691511997604 -100.35936475589935 -4.634882482898662 108.41119885273943
0.376906 -7.541811235473807 85.82919778293783 -6.3504872334771845 -104.03207486382433 -5.297870620032987 -101.7319727184893 -4.579640327389566 109.73364874095586
0.384904 -7.508795076475772 83.42389237623665 -6.010102524553523 -107.8555437219849 -5.182535497112822 -103.51270057054245 -5.049536008409769 109.90642896738527
0.392902 -7.021388089973932 88.61298520486763 -5.801407273328953 -107.00915479908208 -5.00933094540844 -101.56393228135681 -4.635089167640094 111.64019709375266
0.4009 -7.436795919712953 86.55626525111924 -5.388186036127315 -109.9403537500573 -5.333114718381646 -102.80793841344533 -5.328008007244525 109.62422217247513
0.408898 -8.436880672409103 85.56683392154024 -5.291986279794565 -107.60336919893693 -5.4670323774505665 -105.03395750571545 -5.542706844950005 107.42643278097641
0.416896 -9.237714508730217 86.41538319478929 -5.466772842394326 -106.36174518943514 -5.8809249554702845 -108.49818032608492 -5.677124198569777 104.05188628461195
0.424894 -8.922224588141502 79.80214129434839 -5.5222381573066315 -108.27198058511692 -5.741762237852559 -114.61441210292426 -6.019577415492158 100.46380631413888
0.432892 -9.12403424483931 74.48454800744084 -5.75038488347086 -113.35072780188564 -5.514492392675701 -119.42902478437408 -5.527759819434433 97.5438582090071
0.44089 -9.053748794370971 70.61703241247186 -6.0840829133524865 -117.55177298094347 -5.069607296027211 -122.55336371448317 -4.728157882980309 96.93171460795745
0.448888 -9.529987952772066 64.19746491996854 -5.954776870043732 -122.10812886872736 -4.602322547731948 -123.75692747763499 -4.506091129847075 93.86082446431278
0.456886 -9.32730584251912 64.1856810752327 -5.627940986488682 -125.86709557158069 -4.433736054376915 -124.83376725983192 -4.735635973973476 93.9177150374981
0.464884 -9.406150928974938 59.72753854239276 -5.33902931511029 -128.57529265938453 -4.607446536161046 -123.12571697138975 -4.961102299653759 97.62985208059546
0.472882 -9.123104126592413 64.20241060324408 -5.107402657144508 -128.78178357784418 -5.309175430465908 -123.61459525704551 -5.34178714753759 97.86379979064586
0.48088 -8.90178791868151 59.13414221627514 -4.9849604634101805 -129.81252822080344 -5.694750506936293 -126.84763697140085 -5.867089002952735 91.74319516136903
0.488878 -9.901148338877608 59.57094326331798 -5.2911506942245765 -130.06588895532485 -6.0059330747408 -130.7042481472026 -5.7405343404638725 84.32180695416226
0.496876 -9.438883954168457 54.92276463690117 -5.548018839185833 -131.8382207670657 -6.203533012854738 -134.82967117527548 -5.6369563191387995 86.90738691259227
0.504874 -10.040493660330723 48.62435417083936 -5.963455498963565 -135.680460436792 -6.0581823515792355 -141.27110011353372 -5.358107058373509 78.89094847981563
0.512872 -10.69790347819525 49.917738937500495 -6.123574186568703 -138.98787172438043 -5.604720828912214 -144.4230210623073 -4.879390140180667 79.96543235217442
0.52087 -10.01419730414785 45.248943486305244 -6.115640613981105 -142.7031751228073 -4.958979100858824 -145.78061696195772 -4.095952745935955 82.32417608701095
0.528868 -10.04194541622894 35.97493229233153 -6.1033113865402955 -150.22601337885183 -4.7997948195334805 -147.46589885724515 -4.4100427920714695 81.7653889071185
0.536866 -10.083481458893488 37.2627688968311 -5.727757706045768 -152.41647979761484 -4.685529232953346 -147.75544388879783 -4.183808278031618 82.05758915109116
0.544864 -10.183367674624133 38.790354187265955 -5.41340976536496 -153.28245702674923 -4.691082530648226 -146.56363483878616 -4.845053993389718 81.14195985100301
0.552862 -10.4503121217257 38.365582113908154 -5.1759224581847 -155.28271443930507 -4.916884749373541 -147.59301396586542 -4.870509663275742 78.1475016604098
0.56086 -10.859728852904801 35.323896208164214 -5.058913871087137 -153.5333642093728 -5.535905795427229 -149.45122940076882 -5.346329081345376 73.13283357919977
0.568858 -11.109728637159868 28.933654623291897 -5.416499513940519 -154.21287139102958 -5.584543060096441 -154.2861269213402 -5.270321789188833 66.41186403901551
0.576856 -12.40324602704665 26.438711035278175 -5.767603124981938 -154.20261901125204 -5.3945652895206475 -158.1352345295047 -4.64828235038617 64.96724310050459
0.584854 -12.642235559276012 20.515269131830756 -6.20196977589004 -157.91304046369692 -5.00773677755253 -163.25117884936336 -3.610446082601224 63.225768450466305
0.592852 -12.919757473097897 16.539544272391492 -6.290355592277196 -162.39581726818736 -4.6078679559161575 -163.17578475206636 -3.4264003673019388 65.09829471363724
0.60085 -12.227466467074777 13.998134661630505 -6.187028767121701 -164.01970356601976 -4.4843219975528905 -166.41409737742936 -3.6296074604057296 65.69726255461806
0.608848 -13.416304800501882 21.816613986893163 -5.601627655479734 -165.7802899658916 -4.234364594226085 -168.59092486473583 -4.405896323088167 66.05100737603729
0.616846 -14.602419116914206 15.691036929012405 -5.357261008573785 -168.40315674017583 -4.423063865598909 -171.14524642343378 -5.156113078563489 62.05922840825438
0.624844 -14.737319034858459 16.285211805616317 -5.164072029451551 -169.42045564647958 -4.12061357687643 -176.10416389963837 -5.082634408666266 56.917581441370054
0.632842 -14.243785255694013 12.729688105451732 -4.899026847007232 -174.79650697260496 -4.080464160116076 -178.29662031801544 -4.993032811899358 53.40782864612099
0.64084 -14.466983913727528 7.300556103393734 -4.919194278377611 -179.91930307355528 -3.9277424495305073 178.92300436547458 -4.467222335638992 49.64751444597662
0.648838 -14.593212170913946 7.270598598436136 -4.57194041587517 176.39830051064652 -4.007835209779248 177.77079279953182 -4.135633821783894 49.06598541813238
0.656836 -14.350117468384829 0.60757808945595 -3.953505557471037 172.48830763460728 -4.171731477989403 174.61777200898246 -3.936943920639976 46.50248598141235
0.664834 -15.037279663305206 -6.576797821701571 -3.7206995860666443 171.09597740598755 -4.199776896430888 170.97515311959856 -4.006963310343601 47.35121758658691
0.672832 -15.289192875587723 -15.046972919727846 -3.839802542174869 168.93886743519883 -4.414470033280188 166.78310207627763 -4.53760014408008 44.90451709136429
0.68083 -15.168125868464173 -24.051446181897315 -4.053437091133009 166.27856243492593 -4.467566379499501 159.22873729945962 -4.4395135811791455 39.16892383871095
0.688828 -15.270421172630215 -27.163999436228277 -4.6986342009127915 162.75795562278896 -4.261263286893418 156.1439780995323 -4.835847892199588 35.66205194394648
0.696826 -15.221865393371283 -28.680525302295827 -4.955640023662303 157.04595358782382 -4.102521654925157 153.06587218702185 -5.020641847543117 28.230604990363776
0.704824 -16.571266698670023 -43.05330076419664 -5.037254700062156 151.9241874341771 -3.9391925280292943 151.97850776151353 -4.312828129863523 22.16209743203907
0.712822 -15.690860152026582 -43.02824984006265 -5.083929207029774 147.693878916075 -3.817903313414222 148.4385572140796 -4.085371065061862 21.67158415082306
0.72082 -17.12122465937177 -54.02554255553101 -5.168622285978981 144.5031344921314 -4.671285858812154 144.53578604129245 -4.371124971265786 19.691954737115402
0.728818 -18.831178000438836 -49.61500909524592 -4.789555238280961 143.63165797996132 -4.72429824575144 141.28854610341634 -3.5670325149811966 18.124827148935402
0.736816 -18.776771355110576 -44.97986355667521 -5.194554804987913 143.36074767871253 -4.955039335935956 135.433178731348 -3.6180512923146284 15.471612216898212
0.744814 -20.86395939232385 -54.16987628673724 -5.544680635632933 140.4248978681351 -4.9686060533029 132.81652751536964 -3.811084022218445 11.8664431386732
0.752812 -22.92271955302442 -79.37205852055543 -5.98605282797288 136.48194845952142 -4.902404701897046 126.4865262991246 -4.322777282258332 6.113884306744648
0.76081 -23.78713437302689 -73.77635687706511 -6.20906419765184 131.10260172098447 -4.559917702987652 125.87884929627683 -3.9784428224285806 3.2443985098553436
0.768808 -23.358761165459157 -68.6859970001786 -6.181870392145539 126.04170543777327 -4.921367766758838 125.06292298555456 -4.015678882239853 -2.022066772442972
0.776806 -25.572008604027193 -81.93765259459013 -5.957477336393286 124.06814491728949 -5.7538134556584595 123.27965170701594 -4.094998591627884 -4.820777305116691
0.784804 -27.887488896503182 -101.88704603241739 -5.379171780035589 121.08640562367263 -6.285307240907398 120.23634100840096 -3.8751549061247132 -5.471131802891466
0.792802 -30.744368106592354 -100.12505973625949 -5.457622596851507 122.65091651175223 -6.673068183722837 116.78258961710287 -4.067071238638249 -7.531136220283589
0.8008 -31.000009382395724 -130.64713911169878 -5.440507917483977 123.60326167537141 -6.911967606039302 112.8914497425878 -3.9135445241039815 -13.128433191416612
0.808798 -27.051834950941682 -152.72054346654534 -5.965915954053259 124.22047986174543 -6.929805294212259 105.68489651429321 -4.183970421538948 -19.798548118684735
0.816796 -26.01496096830602 171.38210629367106 -6.502494687170364 121.95218322996627 -6.375514477279596 103.40173423238564 -4.246788323506358 -22.17123699231515
0.824794 -27.87761264501087 141.8754479305699 -6.815332670999084 117.56922534309811 -5.944072781279486 100.83483857815436 -4.053419967203331 -24.35762699945212
0.832792 -23.151237411823825 144.7223315711146 -6.773333226981327 110.96524822376595 -5.96307088463798 102.41308596269356 -4.2326784823613375 -22.13051939305869
0.84079 -20.36078445725838 146.4561400266358 -6.567554900415749 104.07241711326343 -6.010745276832394 102.79318813858478 -4.475835208377416 -25.5977859447465
0.848788 -22.436513440332515 135.89799000181586 -6.0883904179001505 97.87350125695501 -6.6547844256279065 100.29674150634744 -4.500823847317114 -25.462337371380308
0.856786 -19.73161710994147 126.27676454051124 -5.62824023149314 95.30767663953733 -7.373645835150263 96.91123595935998 -5.081485876691639 -31.637345059019697
0.864784 -21.117795215249267 114.5696249950903 -5.374355945977333 94.60113259024781 -7.918964999608619 90.51769730142583 -5.332377813985816 -36.86530393549387
0.872782 -17.59144849368318 127.59949828864549 -5.576097158857683 93.05742005467236 -7.912271048350309 82.30788443408291 -4.7684659913484575 -38.18533644118633
0.88078 -18.730734595256003 104.4883511241715 -6.0344492646841505 91.36000819314718 -7.707745414893768 76.70442192173664 -4.874817004236514 -44.49471503661645
0.888778 -19.70453688154388 105.67778313794976 -6.684348098926498 88.40215322715216 -7.379315282822443 73.73096412462792 -4.53033475597744 -43.047668244250595
0.896776 -18.42441343521723 88.53592268616518 -7.573322926789967 82.39215626101957 -7.369613832803836 73.22791529600008 -5.185897328004066 -45.58116814384704
0.904774 -16.782237546524797 91.6856958318223 -7.690239424272621 75.02857788511477 -7.3521842971763025 71.27910017126952 -5.578057537049799 -46.57359863784353
0.912772 -15.178266801687887 78.95010933944924 -7.944952846610836 70.19512030577535 -7.716621078168084 72.01444089293506 -6.228383703733417 -48.26300265532451
0.92077 -14.969519397093272 80.41539294331714 -8.074684242215728 63.96513362416029 -8.595492175833817 69.62616635853354 -5.842407574021137 -48.90172277046582
0.928768 -13.938698992016597 69.90039750090956 -7.976778028794984 60.159712849737275 -9.221268534938119 65.0677347268423 -6.775822347133654 -55.44599162094464
0.936766 -15.082023454209203 67.57153483103212 -7.889112142487457 57.9660575887781 -9.745175104426151 61.69463864279582 -6.246206141572721 -62.32592677464299
0.944764 -14.829185080437398 63.744819480897895 -7.827128959137313 58.32300648507811 -10.277680001524708 55.44429665629589 -6.5627450921121335 -61.8974297095679
0.952762 -15.119901967726186 56.415078762806985 -8.29138082167367 58.59369853190819 -10.609027783504887 49.81254053639843 -6.752407982094971 -67.36880568244426
0.96076 -14.010228201215611 50.735210216469184 -9.109764409912216 55.233157631036136 -10.553653217792982 44.32432432876145 -5.986337746938783 -64.58520633707352
0.968758 -13.109673846499934 47.5953192055787 -9.675843077983092 54.40229164692487 -10.186587292330941 42.60723571908572 -6.983909202365332 -67.67445345394117
0.976756 -12.027038768753526 43.18402343901015 -10.17440991568337 49.74237075732524 -10.324442937871686 41.08485608290661 -7.752541183871925 -65.92971918868214
