!Created with skrf (http://scikit-rf.org).
# GHz S DB R 50.0 
!freq dBS11 angS11 dBS21 angS21 dBS12 angS12 dBS22 angS22
0.001 -13.181304990452023 157.85122658894818 -0.8438356144983411 0.2815021319455466 -0.30731944285925245 -18.587797802424827 -13.323347740275896 -145.38925403354162
0.082612244 -26.99086064109261 -106.42490396909969 -0.3205561512479098 -20.8209247254558 -0.230214704489638 -21.034243336465707 -25.696373863295413 -84.66643890689751
0.164224489 -19.512556943118703 -90.60186127952002 0.037116174626011064 -44.61322334764453 0.4460066536637424 -44.76294079265731 -22.571145663596 -72.40099460589653
0.245836734 -13.348092448871405 -155.09131245532015 0.4523352297387784 -68.64112221617836 0.12012317794415668 -65.40347244852516 -13.756643205278099 -154.69796872311017
0.327448979 -12.059172306837194 170.5066049380534 0.10151151929722586 -85.04064374716624 -0.16810878419347114 -81.30159196011347 -13.371866345728726 165.63711938763842
0.409061224 -14.939468132665139 146.5889019111523 -0.005903666046913045 -109.47329579516939 -0.3223215332610724 -104.50178871156017 -15.505127078785634 152.55770270170973
0.490673469 -10.323276381274926 122.88525726222794 -0.1696812680070548 -134.627331963528 -0.7597605233806954 -135.59409215014446 -10.890536248895078 134.64287017144974
0.572285714 -7.421664883782499 98.42262732296385 -0.3610021306781027 -167.53179321133402 -1.0388955846609427 -166.62770556130582 -8.932736279629793 98.66661283574582
0.653897959 -8.189892710460892 70.1648521740858 0.10216780465788614 153.95655092551723 -0.42706655433480795 158.6928895598705 -8.516826029508346 47.6744777805213
0.735510204 -6.638093562256558 151.3944137832161 -2.8862085093675374 74.4543827085571 -3.155630327031375 67.07223706513845 -6.7660863044588835 154.78519081274322
0.817122448 -1.0287588437646913 89.69919393049753 -15.490483122079517 -96.9287171179149 -15.001494595940299 -103.60481778707059 -1.4686693552440624 98.96165908281044
0.898734693 0.42542643229695004 24.656968451374873 -36.840905978377684 -102.32287650170882 -43.18535556457821 -83.45494565574982 0.31902742955232566 31.501996976530048
0.980346938 -0.09649875872505276 -2.384143743505259 -26.587001487194478 -89.05532098793479 -26.64720124084141 -109.64548381958363 -0.1541947903577447 -1.2624111398250395
1.061959183 -0.5697099948341531 -15.229196856304021 -19.09267461598213 -97.30993915160433 -20.590553493947482 -107.21565391420619 -0.5923774698787371 -19.92479567144143
1.143571428 -0.9048193609204427 -26.671893493818025 -14.008435960615394 -126.58781577258105 -14.511666121126225 -125.31607005011365 -1.5032712330631317 -37.02559623003385
1.225183673 -2.7270288999813075 -51.82885572466856 -12.838557444836745 -152.54214744392922 -13.228468924906752 -143.65350288610622 -2.734440457831768 -57.612908865071866
1.306795918 -4.80615991681317 -81.76220552811708 -7.9536758553633256 -162.26014612475376 -7.502746862297692 -161.21151803286514 -3.8976074122752213 -80.02407006984743
1.388408163 -4.73879215669613 -104.38748901763053 -7.193927456504822 168.1327665997684 -7.040790510672502 176.69481553687655 -4.748150415264974 -102.55558674237422
1.470020408 -3.80216113716602 -116.12057522525481 -6.04656352580684 157.31433535284256 -6.236160835522739 158.78024321951938 -5.167668502753057 -115.75267735304284
1.551632653 -5.8857631027124615 -120.62290529446895 -2.5931553574645876 140.68735033543547 -3.220771018023903 144.7884356333772 -6.837691757205992 -130.95898949871392
1.633244897 -22.27718248083586 -33.686159355410595 -0.1053936802527873 92.68351763532496 0.13717185925163344 94.48657576223908 -18.72927824653173 -82.79452209549473
1.714857142 -8.267261768612794 -23.181516429275263 -1.9506944010169105 71.86545757297607 -2.511324107881216 61.53194792221082 -10.519267983909536 -21.14867280776661
1.796469387 -14.187137639038351 -25.137962145322447 -0.39540499296600856 44.973459278523045 -0.4184912327795546 50.11056764620381 -21.172810628290062 -76.92764481700772
1.878081632 -26.624775653674227 -35.121608464170194 -0.9641026512349409 18.9718271016822 -0.6389341214630296 20.283275950688857 -25.95419438453071 -123.62174932414835
1.959693877 -10.118870056385825 -120.95576630357581 -2.9553781574748723 -3.0834434322635818 -2.8477276578095445 0.9932909048477087 -11.675145803333006 -114.21193231698535
2.041306122 -6.160278686970903 -128.72724792594633 -4.509583832829687 -20.94068151286918 -4.358033456344408 -18.24301025964031 -6.617325853409962 -129.05890748515785
2.122918367 -8.89384605387292 -119.93733062956143 -2.57488186798778 -42.85612665893758 -2.4213024046632516 -43.05602252759779 -8.44207648328402 -136.4167058226988
2.204530612 -8.233744571128764 -58.930740862202875 -3.72860313648071 -91.40448674464291 -4.853628241697622 -93.97715547365132 -9.690283139148224 -38.05128256486743
2.286142857 -4.911235411157534 -42.94023519759016 -5.843131121966547 -128.46128515480908 -4.776149561596304 -114.52808570521356 -6.129328709002761 -61.154898399406555
2.367755102 -12.33384842190329 -52.7730565398377 -4.8280917855505665 178.34975535049256 -4.718091577808575 176.54004053880652 -12.96188773181238 -64.09867231631675
2.449367346 -9.206116230822044 -81.41482028733307 -15.15621030547335 68.04055246170851 -16.107561606418553 90.11289933332928 -7.323294798893729 -61.02117449465875
2.530979591 -4.463381271282884 -133.63190398372777 -25.807407469387464 96.49112296438756 -30.779150191626847 -16.43691819381503 -6.746084847485357 -117.60163067131387
2.612591836 -4.298557947232602 -136.93321715262684 -31.56947352177671 176.91448861438522 -39.01137663857634 -1.9834149567582353 -3.5177745948692323 -134.7506652147377
2.694204081 -6.414830141440152 -133.35323361068993 -27.621319817924007 161.08207826060124 -21.22711104020139 81.00818546344034 -3.5699109178113826 -131.59353660343447
2.775816326 -4.784589885842468 -153.13762973042398 -23.861347023720384 91.11875830316751 -22.216247023833482 90.39402726204193 -4.536570999021727 -129.62876408465038
2.857428571 -7.495811300892936 153.0529497444557 -5.027879146106784 53.17058157853201 -4.9072977738120445 56.48827805525592 -7.201774756832107 -179.39137055811358
2.939040816 -15.167223011582717 -179.83697721799186 -2.966523166506091 -25.098321860333563 -3.40985367513883 -16.88520483958545 -13.772708934111836 177.08882435287967
3.020653061 -7.443929315104878 137.48280452325102 -0.8858729183729661 -73.299519811217 -2.061458126486421 -59.57073253803153 -7.671788460015905 148.4852290106752
3.102265306 -3.1715831085905215 132.82949055874928 -1.2332949378458664 -100.04182852591872 -0.5138663436178613 -103.4534916323173 -0.9601015919169741 136.20254746023951
3.183877551 -1.9864966525650993 134.88556580913155 -1.7288682329402707 -105.95814260846763 -1.8128052601788613 -98.47646195667595 -0.554521427915444 129.11356633636035
3.265489795 -7.071166946204511 125.98584964031947 -0.19667883661083962 -141.47459507641312 -1.5276300406232621 -147.18798124356724 -5.681442056811592 119.94746243565694
3.34710204 -18.922295250947915 -124.00787074190922 -3.5649879518743592 -173.22144608235934 -2.261327710783772 179.60826086310354 -21.680682895837464 -146.35358208431725
3.428714285 -9.54663358375443 -132.01363673405092 -5.399258063007001 163.33330738055818 -3.8067136416467013 171.22004587772201 -15.501795710462119 -128.93991909938916
3.51032653 -11.94272914131373 -169.37193658679524 -1.6372343507765708 139.9426359079164 -2.244026837141448 140.48474609425307 -20.27660959437936 174.52050564234983
3.591938775 -15.037279145905424 56.81524329444677 -0.22824816870770506 98.46485667362299 0.01598019632010258 100.40050085724319 -10.695789518409828 100.28350514165585
3.67355102 -14.242716736671328 96.20227589265356 0.2514172887557419 70.61614878169414 -1.5950489883254342 78.94602094414783 -4.050963381067877 110.22024651254716
3.755163265 -1.8331487532387893 122.50566690985416 0.13297079716495644 44.39853466008973 0.2521899804694048 50.45380742924913 2.161268460016559 94.0236312609652
3.83677551 -5.270299703487241 110.15723221902654 0.40623281529662353 22.613021385005553 -1.0130199901971024 21.46540758235882 -4.520496052405059 101.69983535683558
3.918387755 -5.801953413171251 -155.2082081962335 -8.784290253725477 -0.8451395115725776 -5.17798882262777 -12.921910144816653 -6.609425053509063 -166.07162573839432
4.0 -3.522606001129117 -165.59677960762414 -10.568629347641965 5.714005954809142 -10.936184160854978 5.369605868906848 -6.035237781296279 -159.0011078245429
