!Created with skrf (http://scikit-rf.org).
# GHz S DB R 50.0 
!freq dBS11 angS11 dBS21 angS21 dBS12 angS12 dBS22 angS22
0.001 -10.769016374414326 -129.34629251019436 -11.31829246266328 39.17956256176935 -12.408420844126418 27.869851134177665 -12.196254989837401 -88.97312329647553
0.082612244 -6.336077779355492 163.37809726687675 -6.140185106074152 -11.100944715939912 -5.9218001720869005 -11.154119077347335 -6.322966987404525 168.51387401317868
0.164224489 -6.368229764743326 139.28653988720123 -6.133421499520992 -25.90857660384568 -5.780632353781505 -27.242438481525323 -6.181709222005155 150.42577535952404
0.245836734 -6.2843038325395195 128.53243388934857 -5.122653549144775 -37.91552044042599 -5.227026950653949 -35.241169618543836 -6.083240084092042 142.8553738565768
0.327448979 -6.769738775819915 107.92067558137907 -4.88484453013815 -49.60630931996196 -5.125579105543331 -44.979764814789 -6.009066606325869 123.59956823619905
0.409061224 -7.387126528551741 79.522472458611 -4.980597967073377 -64.8780728233332 -4.530625388495914 -58.79338877367861 -5.429449067852026 107.71649568501584
0.490673469 -8.934819930924894 56.03783814806045 -4.3473096399954585 -80.36456261149206 -4.740062653578729 -73.59310917435509 -6.011911745993782 89.14600129702627
0.572285714 -10.892842230660165 25.46098482665402 -4.499239062987569 -93.99594064810746 -4.993645645605395 -87.39110575364545 -5.520310644496048 71.18064464453903
0.653897959 -16.85847202785626 -25.619747983632926 -3.790148825698579 -112.8868391924459 -4.106819153432053 -118.60551404558376 -4.708560140519303 41.693695365089376
0.735510204 -17.80325257041457 -68.84840184485887 -7.267323293919875 -132.2694199229091 -6.5614962983638 -143.34935151884318 -4.897152272988255 8.814002574915252
0.817122448 -18.805948682224244 -161.32872836400105 -9.738603551246142 -134.27937732280824 -9.231727650020108 -148.01247710069362 -4.411596842550166 -22.3666986629833
0.898734693 -18.345379549668635 97.69000842191254 -10.386527479630765 -129.6020199028293 -10.424287083285769 -135.60604190021772 -4.456946216493916 -42.740361802264815
0.980346938 -13.36844754750955 34.91383025707182 -8.349733216007946 -125.14297848157261 -8.205934780286647 -134.24832839095214 -6.237554599538414 -58.61863706428721
1.061959183 -12.043912378727617 7.934979277869087 -5.704685743271245 -140.72780737060688 -6.012408232968437 -143.1856273066927 -10.19385419645583 -77.38231755290334
1.143571428 -13.689219914437968 -22.88319743222355 -4.206619343146927 -165.3724628992048 -4.3321844611558 -162.73562757663979 -12.050661096099194 -117.94735193233129
1.225183673 -17.26092276878269 -54.39460247751561 -4.847488116878713 173.51994525701028 -4.66189786266559 178.13658690448852 -11.40126141227206 -141.1452116675174
1.306795918 -15.904104987021237 -95.69808473391093 -4.6837957103050325 158.55981393209956 -4.064320802552527 166.9130492963295 -12.815729468357791 -134.11347582874043
1.388408163 -13.77582907881943 -116.64913657693877 -4.256381131447416 139.34591144576967 -3.789917142161209 148.7152554455811 -13.318490922957803 -138.9460787316733
1.470020408 -13.181097190767066 -134.54400108336412 -4.508315522078698 121.69620649318024 -4.873461094226607 121.30764254024525 -16.41963852629703 -141.87896440571217
1.551632653 -17.559214054216234 -153.42602348352221 -3.342026264143081 108.2762003880836 -3.684346889222322 113.03000337376089 -15.731424258110692 -162.27114338557834
1.633244897 -17.888398577602164 137.9649292492093 -3.856447097584834 79.58460512929574 -3.693696096375943 80.65928716568133 -13.785516866011909 166.15779108081114
1.714857142 -14.542484874528416 87.41164877933947 -4.518090897921152 62.986346034371074 -5.068441820555613 64.43306934036399 -11.285036009987724 145.37397725027085
1.796469387 -12.598234774758893 75.80195041426268 -6.816538431581485 41.497115140836215 -6.535698270265105 53.09152323003916 -6.710844247528598 143.57829326299967
1.878081632 -16.64568588609359 56.99429276751042 -9.83046103866617 26.48973514296187 -8.27059966928887 35.94248416232556 -6.720620284979929 120.13060185911515
1.959693877 -26.904292182306296 104.8235668706786 -14.893892941014958 36.342940046172004 -12.438099781018181 40.94262749126373 -4.8796545183179525 86.66241455587867
2.041306122 -16.61293503225396 -159.60110984702231 -13.287128935091417 70.58399872392854 -10.886961210786072 53.92986215167409 -4.423956497584373 58.584618150173235
2.122918367 -17.90326934792791 135.3229607354728 -10.285080861884143 50.00570175427225 -8.693990817140943 38.71435518513667 -4.921244058867973 28.206081894877435
2.204530612 -13.937263310178034 111.63301020087006 -9.047765685754168 40.45067516587543 -10.322618787356683 32.30990523405384 -5.877875127268966 -1.6846359599314695
2.286142857 -10.37030933066709 42.97152062438529 -7.588230607227899 26.473023906799778 -9.983014797126106 23.406433657159088 -6.51119526802853 -22.479042469418854
2.367755102 -6.784914424084494 33.57855524456399 -8.046547591625112 7.070432140141799 -9.721105734025993 9.303189621224085 -8.075303033843232 -41.90887890467997
2.449367346 -5.9351913870467765 15.306468141549665 -6.492048313183355 1.8702707125216338 -11.137445305605706 -3.7105609831287736 -8.727727936411036 -53.688622763472566
2.530979591 -7.326006581099519 -0.8702148521927806 -7.524694718498858 -25.156749774029223 -6.47118616704534 -12.48763021568048 -10.15754820035112 -46.04532691755573
2.612591836 -15.201225198850745 5.263079970949747 -8.46516380999995 -48.6918411793859 -7.533907628538465 -36.058264646037834 -17.601706710541954 -77.78526440701039
2.694204081 -18.266237041159282 -32.2074581493895 -7.970973366076224 -52.10987201371752 -7.345407682503619 -34.980366077409315 -18.56127644602903 -145.1203310809513
2.775816326 -11.548066247181046 -85.98791432326684 -7.121625940690524 -66.02405068897905 -7.623768473231376 -45.04506360679002 -12.178750343307685 -151.82484285519408
2.857428571 -10.910434221124676 -93.69042723720472 -11.00222989410479 -74.58172219302465 -9.528562005119793 -66.25046020614687 -19.05604546490706 173.93116676766797
2.939040816 -10.334472711741059 -79.80883868252833 -7.816542684989307 -61.19254150908716 -9.84248422871244 -50.66474581107201 -13.373915711652256 -83.91869104796888
3.020653061 -10.487045322789385 -91.93122977577092 -6.733621289302341 -74.72824055403316 -8.17190380737332 -81.97842496139461 -15.350256142850537 -82.27721847495748
3.102265306 -34.78675124282215 -162.56269437731498 -5.812807707370343 -86.12265485548156 -5.557421181534659 -102.51718832210891 -16.05051066660876 -104.92283726994557
3.183877551 -16.327979610453852 139.85727306938145 -4.406569430408231 -98.62183629228683 -4.036128771252948 -98.98557490312179 -17.043094363373484 172.33635630050514
3.265489795 -13.49202051693944 163.6679270975356 -4.588564591050872 -125.83418103485062 -5.170749098963185 -128.98446005896804 -15.927627530549726 -179.98751761834808
3.34710204 -13.37478554485491 160.85485830368378 -4.0522930365732055 -135.8169338248874 -2.195253397067283 -149.3652138937981 -10.70676296927688 150.32555339279295
3.428714285 -13.280540939487288 165.50650437268777 -3.885607099456056 -152.68825129494147 -2.2876504058399547 -142.63575360421981 -14.564993880051563 161.27424774419967
3.51032653 -16.13787058381827 -161.91461752149777 -4.442261000332982 -177.90583674250405 -4.119213637297918 -174.29793100518094 -12.299659636517031 162.01216433317137
3.591938775 -18.842694278118415 -178.17619711650568 -4.217075055670791 157.0600404775348 -1.9627350893684978 163.95373963464104 -7.7829453290164015 136.95255383536883
3.67355102 -19.749808839516916 127.54678867835862 -5.650762923055293 148.46825394567898 -6.358357895057971 148.4514185603029 -6.465162501590581 70.25839280395975
3.755163265 -12.35235757943007 115.9395124433985 -6.950849671869963 154.39068433669755 -8.594776327655856 120.38421061681967 -7.831349699039936 13.436280354920248
3.83677551 -9.917647175888154 92.25170388267438 -2.8439544411249127 139.60877653343152 -4.615022562188862 126.93307932557425 -11.492050315744207 -45.519843816937815
3.918387755 -10.639688233487286 94.52997332328879 -1.1089363793779818 123.49024979140479 -6.631857172755616 130.55325983463393 -13.771199504503155 -67.57935972742015
4.0 -7.173520617623449 60.68125684765338 -4.059290478219296 90.4162685673127 -2.160800850303701 92.78375107571189 -14.712572729090517 -88.30075970958023
