!Created with skrf (http://scikit-rf.org).
# GHz S DB R 50.0 
!freq dBS11 angS11 dBS21 angS21 dBS12 angS12 dBS22 angS22
0.001 -70.45895201171072 -120.25592494922813 -inf 0.0 -94.38242895883256 -93.80366418011312 -inf 0.0
0.138896551 -55.84582525488906 -130.56226150481936 -inf 0.0 -53.02080257651198 171.4642346560791 -inf 0.0
0.276793103 -54.650401726470115 46.195235027032474 -inf 0.0 -54.701938404719634 98.532772788763 -inf 0.0
0.414689655 -54.55833122189013 3.7752682112288354 -inf 0.0 -55.92369081753179 151.2768410099888 -inf 0.0
0.552586206 -59.069867156944554 -76.74087894292121 -inf 0.0 -56.45381771388368 152.5477659207633 -inf 0.0
0.690482758 -55.437279710462136 98.72633539919352 -inf 0.0 -54.954814822706 98.49863489411902 -inf 0.0
0.82837931 -53.022191324347254 -23.284037752077783 -inf 0.0 -55.233143610282475 72.36255396399783 -inf 0.0
0.966275862 -55.57631087712732 -68.13356825684501 -inf 0.0 -58.745015772149245 69.4734023352445 -inf 0.0
1.104172413 -59.58609190647509 -151.10692967862397 -inf 0.0 -62.73274115865222 84.30889785417298 -inf 0.0
1.242068965 -57.6301925798736 147.8773311646982 -inf 0.0 -66.76816572387439 162.7689291592254 -inf 0.0
1.379965517 -57.580725618672886 84.81542932389354 -inf 0.0 -75.17334869541027 108.69980361613956 -inf 0.0
1.517862068 -63.34546012497425 -51.289823479631536 -inf 0.0 -75.49935957136181 17.61157769772681 -inf 0.0
1.65575862 -66.97459422164746 -167.22479235669624 -inf 0.0 -68.21059054416392 20.270977309682305 -inf 0.0
1.793655172 -67.13334229233266 -139.918705317375 -inf 0.0 -67.58773073598846 48.453334916831416 -inf 0.0
1.931551724 -75.42511285983205 68.436870972504 -inf 0.0 -65.50561145127816 64.17048009155508 -inf 0.0
2.069448275 -73.44193071168787 -99.96764957469887 -inf 0.0 -70.41806504419534 119.26593123610797 -inf 0.0
2.207344827 -64.67523634362257 21.03782603586528 -inf 0.0 -65.82835530063078 87.1520237140245 -inf 0.0
2.345241379 -62.376818950348785 -55.40767944867286 -inf 0.0 -62.683586817708985 67.73842803290769 -inf 0.0
2.483137931 -56.19401569249224 -150.87238894263558 -inf 0.0 -63.11802660989527 28.335861795439087 -inf 0.0
2.621034482 -58.149569718326575 60.619771054826245 -inf 0.0 -68.91411426665334 1.827752907400576 -inf 0.0
2.758931034 -56.46967154942906 62.32945095952505 -inf 0.0 -67.72237923077267 105.41042352857156 -inf 0.0
2.896827586 -47.28206459889659 -41.141626037455055 -inf 0.0 -59.89199888217854 101.57766703997513 -inf 0.0
3.034724137 -45.40583243579914 -89.06436847096828 -inf 0.0 -59.407007819298066 163.67177440806915 -inf 0.0
3.172620689 -43.55715264364211 162.1091721626463 -inf 0.0 -58.07238185887507 128.05899570116338 -inf 0.0
3.310517241 -43.800409719440545 55.57213971398992 -inf 0.0 -59.33917247663114 121.03336777406112 -inf 0.0
3.448413793 -42.045991376992255 -57.244793497127716 -inf 0.0 -59.12209953743563 109.72452558655895 -inf 0.0
3.586310344 -41.68406863149816 -169.67932922434426 -inf 0.0 -58.48425875779888 98.15611341501564 -inf 0.0
3.724206896 -41.707386065078786 97.02397101586092 -inf 0.0 -58.33773445921289 108.33974430835381 -inf 0.0
3.862103448 -42.307585098467754 -9.140919902442825 -inf 0.0 -56.89913410253944 75.43253744358586 -inf 0.0
4.0 -45.139754259285134 -90.13153012329708 -inf 0.0 -61.8359799519076 33.73979759276779 -inf 0.0
