!Created with skrf (http://scikit-rf.org).
# GHz S DB R 50.0 
!freq dBS11 angS11 dBS21 angS21 dBS12 angS12 dBS22 angS22
0.001 -70.61208284856087 -121.42929095391389 -inf 0.0 -88.51806419853423 -118.30615193762301 -inf 0.0
0.138896551 -63.922110047731955 -129.82059529336527 -inf 0.0 -89.49153862930031 65.37691746500853 -inf 0.0
0.276793103 -49.10149325938293 28.69978805373531 -inf 0.0 -88.09075360600295 -178.1468001063741 -inf 0.0
0.414689655 -56.029343904802246 39.25675750955916 -inf 0.0 -97.88328877652789 -84.26943273762953 -inf 0.0
0.552586206 -61.01733954254356 -148.01211699838748 -inf 0.0 -93.25451179944183 173.28901608366004 -inf 0.0
0.690482758 -48.28605061633688 140.84757476823142 -inf 0.0 -94.03223223332402 -116.58425861166289 -inf 0.0
0.82837931 -64.22733509713771 47.00898552773652 -inf 0.0 -96.07829200200939 -104.05601881672008 -inf 0.0
0.966275862 -53.880474530852354 -126.035301528805 -inf 0.0 -100.76167655563152 -56.309932474020215 -inf 0.0
1.104172413 -55.30659037813404 -124.26605944578806 -inf 0.0 -96.95485166151748 79.6924644722641 -inf 0.0
1.242068965 -63.48575408601258 73.3529777514855 -inf 0.0 -98.62482411687394 12.524855458380854 -inf 0.0
1.379965517 -53.79182923601374 75.23836294672115 -inf 0.0 -96.7854120188329 142.12760224859372 -inf 0.0
1.517862068 -63.73175394733097 -8.304420619187297 -inf 0.0 -97.92170999197951 36.86989764584402 -inf 0.0
1.65575862 -56.53669526531451 -173.68676579030688 -inf 0.0 -96.78266778605433 127.89566431416439 -inf 0.0
1.793655172 -59.4782030020226 -131.31465333549053 -inf 0.0 -92.95419828965109 -16.383117760413764 -inf 0.0
1.931551724 -66.47238462028633 -51.62728484997321 -inf 0.0 -93.94271717463911 -145.29005976767388 -inf 0.0
2.069448275 -71.6032464072316 59.842082791283936 -inf 0.0 -93.06649373216088 -149.0395387908373 -inf 0.0
2.207344827 -58.651743832842044 31.028133574037838 -inf 0.0 -97.06019942855079 84.78904028501671 -inf 0.0
2.345241379 -63.888262349526556 1.7081300353193989 -inf 0.0 -97.24181086783135 -56.30131397536183 -inf 0.0
2.483137931 -58.313671209837956 -166.0803141500461 -inf 0.0 -88.025189333481 -172.6455563240787 -inf 0.0
2.621034482 -55.448481871287285 67.4466930863165 -inf 0.0 -105.6277108473759 -104.09561731145394 -inf 0.0
2.758931034 -56.83503991674406 84.88790879683118 -inf 0.0 -85.19844038925743 -40.31571529386596 -inf 0.0
2.896827586 -46.905677846170235 -42.67475883866263 -inf 0.0 -83.52406863776763 120.96046120916274 -inf 0.0
3.034724137 -45.50761261003559 -81.36546412266824 -inf 0.0 -86.92591603288149 -49.57445557595867 -inf 0.0
3.172620689 -44.15046573856755 164.0223787440558 -inf 0.0 -88.0782583478634 56.82009511322451 -inf 0.0
3.310517241 -42.945439197215634 60.66562754551304 -inf 0.0 -82.30253357604253 -83.3464040312584 -inf 0.0
3.448413793 -42.30658270600598 -52.503705769762625 -inf 0.0 -77.99287340219185 104.59749767336505 -inf 0.0
3.586310344 -41.29060032166076 -168.1552586516405 -inf 0.0 -82.80555360395306 0.0 -inf 0.0
3.724206896 -41.32723107254934 104.45572067906633 -inf 0.0 -75.44878933237096 -133.78264566631472 -inf 0.0
3.862103448 -43.38875069615197 -5.890286896645012 -inf 0.0 -74.73398078716806 102.39850531303705 -inf 0.0
4.0 -44.35850982070722 -89.69956414268808 -inf 0.0 -76.9833373509702 -21.037944145929746 -inf 0.0
