!Created with skrf (http://scikit-rf.org).
# GHz S DB R 50.0 
!freq dBS11 angS11 dBS21 angS21 dBS12 angS12 dBS22 angS22
0.001 -0.7224189316248469 174.68945427505426 -5.382514019520887 10.73674276895893 -6.25022766470099 -10.356332181622491 -3.636133816803293 -36.01918819305466
0.008998 -1.2402179656188206 -167.94646181212542 1.8511493797696383 -18.309893171094878 -3.2492833767139806 53.85924876904661 1.7040423693067446 -153.34570543134512
0.016996 -6.728217323055952 -176.75233644594334 -3.8434339463042795 -2.480279425837654 -7.241495179071116 -0.648812750824015 -4.80231115931203 170.79298269604013
0.024994 -6.605567441017098 171.2829574148552 -6.093726161802879 -10.125688986556774 -5.889985133369619 -7.013616007211636 -5.032490761198081 177.96126738621825
0.032992 -6.357902490329784 -178.71684179032948 -5.752677926250431 -5.3894454578535145 -5.542076672525197 -4.874353973074377 -5.640252494396565 178.93124310981088
0.04099 -6.186096941390144 175.54036627173446 -5.993636176163485 -10.295049915952053 -6.291110081746626 -9.056940671718378 -6.426532481677217 174.29936248510558
0.048988 -6.1999547031623585 171.0364023216862 -6.158817582130249 -13.413938502531337 -6.26294509589183 -11.875965508540952 -5.979966015919201 171.6878182230657
0.056986 -6.037606690890559 170.55452879677821 -5.8362656226268514 -14.541862836065066 -5.8877948360701176 -13.857857739971703 -6.323987055717763 169.2329251850355
0.064984 -5.899899105137649 169.2668652077117 -5.641438951112558 -15.920484679123474 -5.786746483155534 -14.585332013852598 -6.040757600045623 169.1437874779781
0.072982 -5.977949744665937 169.88092145250337 -6.037197995349216 -15.226953459942717 -6.073530238866491 -17.352902812446796 -6.366329062670979 166.06393064738458
0.08098 -6.154755555401069 168.62002657376303 -6.022654195096511 -20.299091146152858 -6.150935366114982 -19.375197302594124 -6.513956568695491 164.12521339643476
0.088978 -6.109866907572795 167.0129897436685 -6.228431770943098 -23.15570001237051 -6.191013110730751 -22.916024267533288 -6.160818102323597 160.90118566130909
0.096976 -5.961527915037209 163.28754560665448 -5.900645402627033 -26.641653834784222 -5.8149839990878345 -26.20450315476934 -6.082064813973559 157.36291722324876
0.104974 -5.93333790602496 162.3611409723537 -5.638896222609656 -27.588472546612255 -5.5079701987702805 -26.530610112262927 -5.952349527419585 156.97133131102743
0.112972 -5.6807976013370425 160.87259220665447 -5.217041504700283 -28.21402850569331 -5.711694713674537 -27.29362157517712 -5.814614539743658 157.80444729298156
0.12097 -5.607015818711128 160.52350919309904 -5.415851229849516 -29.260060746428017 -5.729543221537953 -29.011045399759745 -6.096404131632126 154.32744585763925
0.128968 -6.055642867076521 160.41251076161367 -5.777682640451689 -30.426612336004364 -5.931863256250162 -30.188186191305856 -6.4190950885388 154.26928547591191
0.136966 -6.2042459896051465 159.58795086945653 -6.084228755085002 -32.91681866635512 -6.226209982305618 -33.75624994427174 -6.566968794011643 150.8952739382465
0.144964 -6.3282012264397745 157.71354234529483 -6.3931518788708726 -37.65642499779304 -6.186220378438186 -38.122738694445054 -6.4950315209227725 146.40325937457465
0.152962 -6.540768123261848 154.30712262840095 -6.3208432841233355 -42.36777360429309 -6.005977042649327 -43.69079149246117 -6.495262579439141 143.6389801128717
0.16096 -6.4216577075659 153.13715107680818 -6.307455984348205 -46.918849254572436 -5.66610630205319 -46.34270228341593 -6.130317535455923 141.4049114705995
0.168958 -6.1188852296554055 149.8537539139969 -5.910450115304617 -49.232938041959045 -5.34172624471182 -47.55428703606268 -5.8574846620729595 140.50296268045722
0.176956 -5.649898894209131 146.74078370036372 -5.237968086765001 -49.66576962478595 -5.230259502784457 -46.89284474171396 -6.052797123055095 141.78029911798637
0.184954 -5.764642275598249 146.9963256879284 -5.235542841251682 -48.92012529210463 -5.412073202134108 -45.15545944647407 -5.80689159989166 140.78775114400685
0.192952 -5.774183601569472 148.96870051058903 -5.544052275549002 -47.301916533367 -5.862355539132798 -46.36373959151957 -6.185659458228123 139.3898932725067
0.20095 -5.811173677087803 147.56149590341292 -5.730350522299118 -46.25903827209937 -6.215240056110373 -49.258121900706655 -6.960342014296662 134.6890836604299
0.208948 -6.18404527560788 143.70320947745762 -6.066733405388276 -49.027165825406755 -6.346774071748431 -55.1844989653958 -6.628638849862233 126.30280717341607
0.216946 -5.9571532836297685 140.78687564101887 -6.049115363219682 -54.69560074394889 -5.784937704474464 -60.37781087256704 -6.133750072995813 123.29636031710865
0.224944 -5.9749995480090465 140.08490806816468 -5.997671366612337 -60.74138746320617 -5.15475979330109 -62.067403923983846 -5.552519191166709 128.60783950816997
0.232942 -5.386108641226603 139.4764194307405 -5.304885579965189 -64.82706032025582 -4.974097485293444 -62.197929147361236 -5.952874895056903 131.24702972050628
0.24094 -5.234983607969747 140.83768955422832 -4.999315152029597 -64.90145319590545 -5.4195457329405885 -61.11381580205972 -6.686817307796932 130.10999715193424
0.248938 -5.94797972461371 142.9853959980792 -5.246015139229703 -64.281903509326 -6.152474098274904 -64.31182113517035 -7.427770608748068 125.37329717971673
0.256936 -6.309802048327924 138.5988680980714 -5.805368411478869 -65.16320301095874 -6.590444454472609 -68.02328029702804 -7.47117164506371 117.97786633426395
0.264934 -6.732038248820558 135.76585423316945 -6.3186967075927 -68.15748197993551 -6.649213460364486 -73.7373790985441 -7.142470027584408 110.64333259181767
0.272932 -7.325044394701901 126.76689072822687 -6.533055395664067 -74.37602735229896 -6.223112491002315 -80.60686749422366 -7.039040197209875 105.60868347563843
0.28093 -6.822517322402697 122.89021952937584 -6.510363315014346 -78.8947067757843 -5.726296220197764 -83.03744731473707 -6.830632686068419 104.8221380621295
0.288928 -5.9415106825301915 119.07683753800396 -5.955207415980474 -82.62911980765685 -5.00124683614462 -82.0307980645058 -5.668591533550746 107.86199508919324
0.296926 -5.3257376653084 120.74128018397968 -5.544950946216874 -84.46636088398344 -4.744980206666266 -80.73035634105628 -5.937429979460217 107.73328308404867
0.304924 -5.276548781427461 119.7515579409529 -5.2832205712099505 -84.85529311602907 -4.917510387298912 -80.1708648288966 -6.27485524365257 107.31847189556647
0.312922 -4.74583168233333 121.70259123063911 -4.98384179183914 -83.86278308149888 -5.19679520827231 -78.71487295602455 -5.910901400989836 108.58659937669147
0.32092 -5.4677054021536255 126.31057722333381 -5.449529537130356 -83.87548107915951 -5.857983967084557 -81.02451438595959 -7.733343255860512 108.12048385417054
0.328918 -5.726064668947174 126.09468593023057 -5.707186887093114 -84.24747323146855 -6.225021947032692 -82.76551079718192 -8.04076107757618 102.49922952784928
0.336916 -5.683260335734429 121.09452672024203 -5.794590442611332 -85.1336683833778 -6.6227595832047275 -88.2138448496497 -7.9496911544575894 98.4442747825038
0.344914 -6.371346538192841 122.3779301534999 -6.340199306286209 -88.10833201943817 -6.513455538104237 -93.35334793253688 -7.694932106958675 91.2631313651521
0.352912 -6.5533830939312026 118.37937913207317 -6.3923843589708405 -92.50693011949383 -6.508784354472807 -97.04518042669545 -7.105788615287007 89.13762021691119
0.36091 -6.46524797867742 114.08026650257919 -6.625659736909592 -96.04949093510918 -6.227637843455524 -100.8775233634126 -7.142323772010968 85.47531393968157
0.368908 -6.389048384087968 107.61270337230458 -6.483631123806967 -101.45459129456648 -5.832497091433421 -103.23092289496617 -6.5414736043068125 84.47474538772936
0.376906 -6.568045980180294 105.4552118000607 -6.392849512174536 -105.04122008256012 -5.227990649943033 -103.49296736963917 -6.144131790139528 86.42960924454913
0.384904 -5.9151539032561065 102.94392591750287 -5.992228732242633 -107.25948073435545 -5.20784981690611 -101.84948603278308 -6.867668885337608 87.88574955154967
0.392902 -5.068958977443562 103.76687293695039 -5.472529924747443 -107.62662988502599 -5.1276807169043686 -101.19411759989761 -7.096087174143982 88.89830035085474
0.4009 -5.001615558374705 106.62912784013868 -5.349624528476127 -105.59070548056518 -5.163370977557582 -103.51548551768533 -7.536690158204776 77.81740880055797
0.408898 -4.899419439462474 105.94241326335843 -4.991708424321714 -106.39273230208863 -5.57570266770648 -105.48305962901989 -7.851754785380649 76.76314481703635
0.416896 -5.406146545200592 104.45706727390662 -5.213313803082322 -106.07541571015294 -5.981424272814286 -108.79733863280524 -7.507381971721782 73.06422085011143
0.424894 -6.20912123890613 104.92061341559736 -5.638031793168389 -106.58142391525823 -6.042405604858877 -114.0436194104715 -7.552915899474132 67.71992015007281
0.432892 -6.307882680713762 101.65420193831216 -6.072365344030773 -111.03923479055551 -5.891655161321273 -119.46719938512845 -7.538412188850381 67.91975276056219
0.44089 -6.419545872250328 94.37191559367265 -6.201052449714978 -115.87799312240547 -5.316070869924754 -121.63031052813403 -6.841239871231261 67.26974640557629
0.448888 -6.398256466434486 90.9636613233372 -6.008961000869975 -120.79770094260657 -4.9222708095043135 -125.12172724891127 -6.744543162557567 66.22532808388588
0.456886 -5.631494406905589 88.48667808058524 -5.69816268788151 -125.31329413723869 -4.721032290945593 -125.32547763303205 -7.472414689230867 68.11672245417687
0.464884 -5.696986561138133 89.56096240224129 -5.572008306163135 -126.4626982738558 -4.931371872724834 -124.64790992788112 -7.3689098405580715 64.82473086161666
0.472882 -5.382490354999741 89.43812537705378 -5.197847876863153 -128.58322229788288 -5.422756580595917 -125.26560918209088 -8.891703595343722 61.012220922434516
0.48088 -5.277100941221484 88.67305051724614 -5.214105125062183 -129.95660900922175 -5.689324850146643 -126.9590013614285 -7.914354485086501 60.702192484390686
0.488878 -5.405430025942641 89.55687325225381 -5.16484457291495 -129.44192760404488 -6.061250517976879 -131.48356723178983 -8.188020235080865 54.21850022703878
0.496876 -6.229444032191211 85.631077970164 -5.695303996309371 -131.37169892700933 -6.22308601309526 -136.73451748675745 -8.273600821751415 50.948075357463914
0.504874 -5.964225880118457 84.37055178395563 -5.782582860560591 -133.4789525815686 -6.05834606587114 -140.77361869927125 -7.8777876904973105 48.42588431982182
0.512872 -6.716236398319035 79.67583266897316 -6.396532101150571 -137.2529138005018 -5.805850246779187 -144.0951813843588 -8.08011402013121 44.269655934664065
0.52087 -6.317125227288472 75.40119938283848 -6.121450666750495 -142.98759199746547 -5.274741550953427 -146.43099617598946 -7.251700128682083 48.716685863548264
0.528868 -5.739947760719649 71.915137493566 -5.95548324674456 -146.73504133878498 -5.2311201526271365 -146.48328866722977 -7.875508206132643 44.089779174292005
0.536866 -5.460106256202527 68.09110519634145 -5.63686698339164 -150.08937962151856 -5.03092833803511 -146.3318344914112 -8.668999409250375 48.225110562810194
0.544864 -5.4681665596133815 70.15098784236021 -5.041625573791507 -150.2359977072452 -5.259012419961195 -145.6794216680252 -8.86636313793456 45.930935867358116
0.552862 -5.080257414084032 71.54015363075384 -4.829055931725903 -149.83018356056826 -5.6756226065229685 -145.86119098637496 -9.625224650106881 40.3700735991446
0.56086 -5.030983957958962 68.40573007411871 -4.7056063585159205 -150.5443704105817 -6.221503356898324 -149.06303357814636 -9.625258829717655 34.17984499268922
0.568858 -5.319459714549451 69.627264917974 -4.938356866953531 -149.07929684397837 -6.234947056371894 -152.88409885036884 -9.155720572451196 28.4516021118519
0.576856 -6.225381156395149 67.43329032130995 -5.49722745703683 -149.44547907635328 -6.041168205495538 -158.00354243654024 -9.115615447444664 26.678218442813506
0.584854 -6.566692830707849 57.90311265332148 -6.0357369494283954 -153.07917414390224 -5.670859747315778 -159.88721386111638 -8.945593764920508 26.597405584265577
0.592852 -5.9522439872433495 52.47002826633332 -5.821779735759018 -159.59425569077706 -5.533741926860455 -161.13150500428583 -9.426640773382866 23.573378530249194
0.60085 -5.541522336892555 49.88879208056093 -5.243433293908789 -164.19599267816193 -5.156265911796332 -160.53846270267147 -12.046627600255896 23.040686807843844
0.608848 -5.220558103242735 48.64271168219324 -4.948868852674745 -167.8654071679616 -5.109900976883716 -161.32482351937676 -11.611203836347954 18.85324580233881
0.616846 -5.032879481136993 52.151815000815844 -4.778929160641722 -169.92140449440726 -4.976513835833631 -166.13074391985947 -11.68706994722263 16.418402932656274
0.624844 -4.851745739294641 49.856122963383115 -4.666215418164363 -172.69081057171687 -5.066941443226534 -170.12531039066178 -11.554561140184521 13.632153561498852
0.632842 -5.030253709135034 49.44799065494046 -4.645840546452719 -177.0719142784247 -4.716724927081364 -174.80997310721943 -11.159016671046661 9.966216343824776
0.64084 -5.661246045928364 46.76161335929343 -4.3424096400138446 178.74334441298492 -4.508542039313902 -176.36657756064386 -11.013690896340119 8.795273995551815
0.648838 -5.604448541447153 43.03731179237826 -4.2928606262928115 175.4208451554141 -4.149344627893558 -177.35877351456296 -11.51881865385276 5.032467430359293
0.656836 -5.3837280863422246 39.089534870526364 -3.916421118991064 172.67351486473677 -4.452875846919195 -179.9823113883287 -12.140392745143753 -2.0662187975005324
0.664834 -5.168613823711282 34.305979100714886 -3.6191293677130303 170.23401279415415 -4.854342484590044 178.6920280003728 -11.707412846262116 -9.159725492233314
0.672832 -4.843278257435545 31.484451894754773 -3.891081374645454 169.4806068598627 -5.237989506140543 172.3042412797085 -12.290170507596041 -6.780516074978614
0.68083 -4.592106790044242 29.718098684731128 -4.091299263272604 168.22411011281574 -5.143983843051684 166.20933243741402 -11.812056040032603 -18.158960337837026
0.688828 -4.643303110996127 29.041311928872947 -4.579703105119963 164.71816865020057 -4.8648148190656215 162.55256492595947 -12.67234413143404 -21.33142600349652
0.696826 -5.028935535608957 28.715694638218967 -5.018319920076838 158.72705067134848 -4.68538471768894 159.85237029956392 -12.507541877453335 -26.708923914562256
0.704824 -5.104262148259261 23.361404094482143 -5.3751334226509755 153.88929509257602 -4.680187647325494 158.93318901832444 -13.062415307955948 -31.510129865927915
0.712822 -5.1757842152229925 19.23859450440196 -5.31264952482508 147.19580900722417 -5.0124158191304335 156.76383303917447 -13.354335736693459 -43.62256394623935
0.72082 -5.006863983368782 17.53479357513144 -5.070069884984276 144.30349869166182 -5.040632622032412 157.21559992948013 -13.915412501115469 -47.4217622631127
0.728818 -5.454424373643567 13.177121040259372 -5.061038941207926 144.75354623720793 -5.495701853491221 151.5334529004411 -13.872161542818889 -46.97662806415553
0.736816 -4.4830632403267785 8.99384701208309 -5.136815871638034 142.83182529834696 -5.415569696889295 145.57137164196536 -15.310267481582018 -47.84124407397894
0.744814 -4.402547234508127 7.554776129539718 -5.491559989961975 140.5861609350046 -5.199982616373213 141.77866963525076 -13.295496093205 -56.756698399370066
0.752812 -4.377181372416142 5.5414831167347245 -5.615133617899584 137.6862702997463 -5.193776529649963 137.77851922145206 -14.771970801777554 -57.50231220605201
0.76081 -4.42513262988611 2.046043442920129 -5.569910039924962 132.1050733697036 -5.141939506541519 136.1041027432514 -15.567829462338663 -59.357090039270034
0.768808 -4.672997713408687 -1.7414050865682305 -5.7585322776677215 128.83638737932444 -5.603017514255914 136.43684448897363 -16.01981034851506 -56.561903834441594
0.776806 -4.699032869412928 -7.452662741463049 -5.575871297454228 124.85421852306973 -5.894895309616624 136.07541754419665 -17.832861325432653 -72.36470734571331
0.784804 -4.450906716078591 -9.01280385505657 -5.1992593173807835 123.62388276017239 -6.602405855551389 133.84863313843204 -16.147122955611117 -69.13865118392427
0.792802 -3.901964576222239 -11.558447750838056 -5.180968578400855 123.16669828826534 -7.105063072769373 130.67215720018376 -17.09824360650628 -69.9906286668066
0.8008 -3.992098020052746 -14.05293219048994 -5.0840002362140035 124.88613673556058 -7.464857342199416 127.25880145719414 -17.200103565611897 -75.09703573471091
0.808798 -4.210705813954467 -16.17816746897499 -5.674104826480741 122.48777137763919 -7.509936712252971 121.77979395845621 -16.308442365987613 -75.6789898766064
0.816796 -4.661892180720647 -15.85731875801028 -6.267301979542604 122.23649638503672 -6.655940081277842 119.6069256781469 -16.455410878340594 -74.65961663150483
0.824794 -4.921239112503753 -19.68285229034434 -6.787272108067038 117.42995371066458 -6.216830677216065 120.5468461055607 -18.993287783063042 -73.2408198156335
0.832792 -4.895447536863059 -26.89505670103715 -7.049576218338942 111.69509370859168 -5.615768363025612 121.26530785903681 -18.683780944754524 -94.22322392476026
0.84079 -4.527641606766089 -29.430175105942865 -6.764573866848319 106.2420363171159 -5.471520312172018 122.68147659768152 -19.484310946082573 -103.08727845065226
0.848788 -4.283941850663812 -31.813597785997633 -6.347959916209574 98.19933763379636 -5.698404737050955 122.09550997059709 -22.752065735818494 -107.64325625063029
0.856786 -4.326908874113294 -33.32153795803559 -5.5429327051614905 96.5398868128549 -5.997218538681254 119.11162874551052 -20.373112663190412 -109.7820709204921
0.864784 -4.154890801526814 -32.8387873262692 -5.148747694568804 97.18756852669286 -6.352638350865264 111.93370400706841 -22.684118712711914 -121.63367141457742
0.872782 -4.322154242305655 -31.933259131081712 -5.117563123650854 96.20933359989753 -6.438029133598858 103.61876705483203 -22.29688775859046 -113.2582565476465
0.88078 -4.767381616178951 -34.8256794939205 -5.681881795763201 96.71898813462917 -6.260603618022833 96.31451516128107 -26.36003984349543 -113.2122155998343
0.888778 -4.638109953846378 -41.566120036640875 -6.367665049428215 95.40840105742994 -5.569739604400906 91.66499168426999 -32.25387591125302 162.60488871445338
0.896776 -4.559828019483873 -47.34977764568777 -6.901789766945229 89.62799468684307 -5.020717712701308 87.4706522963084 -26.626979549042108 135.43706474373204
0.904774 -4.582433564570454 -50.31718969467842 -7.580949199335281 84.83550845456207 -5.090058536100955 85.69600889117899 -28.54636260387825 113.3799844408715
0.912772 -4.137555896201402 -52.527005683215954 -7.648892107830085 77.37740213869935 -5.418489160278931 84.30678711229328 -24.923894239450618 93.494178657773
0.92077 -3.6772875777084453 -56.0548777622948 -7.729941241883602 71.25144981596259 -5.884895202512414 83.42125743711517 -21.948047561005705 81.72858544268615
0.928768 -3.3449103400354274 -55.907607338145255 -7.295668741782202 66.54617147792733 -6.549417180430668 79.9152947879804 -20.017089919505683 90.79396233018133
0.936766 -4.0396907575816705 -55.898277799997196 -7.189994704051634 62.25538397412784 -7.1192080283926735 75.0257630575605 -21.4238467376267 89.93185584675832
0.944764 -3.7660492054732497 -53.24494233233545 -6.817295036599682 62.67663783450348 -8.017455649435451 66.88417215914454 -17.673166444576133 66.35656314490659
0.952762 -4.125892937630749 -53.95963786963119 -6.787437616481328 64.31042346717594 -8.111975214761767 61.78777561698021 -15.10483605351499 60.01942199994328
0.96076 -4.743179235614924 -56.997253770396725 -7.126291379911017 64.68594242058269 -8.102266113156126 55.784990521801056 -15.639325230114963 66.1407931452129
0.968758 -5.004243319222391 -61.643550988749844 -7.727079524403728 63.99003376991821 -7.641670050166574 50.174791738606956 -13.717345138577627 60.98888330882095
0.976756 -5.1781524411313065 -65.92148941376517 -8.399483389649458 61.37484131221878 -7.324692254268575 49.86182380129347 -14.546272622514964 62.405682236710746
