!Created with skrf (http://scikit-rf.org).
# GHz S DB R 50.0 
!freq dBS11 angS11
0.001 -33.35091380918322 -164.29531575678504
0.008998 -40.33691323812658 124.02373989295158
0.016996 -46.66628152152194 -54.74762663902277
0.024994 -48.90430588814962 25.61906399810309
0.032992 -43.18324510498008 -164.36192909289136
0.04099 -37.01702518703227 -0.9682526834252257
0.048988 -49.2484468334711 -61.36489791585951
0.056986 -35.11722801762305 -105.66933196670867
0.064984 -36.51768672951974 102.02789142870401
0.072982 -34.298318172903876 -27.04766390662563
0.08098 -39.29371927925848 -177.34894952061958
0.088978 -44.103241793701244 18.311495224909187
0.096976 -50.81987994315391 -91.42631475618555
0.104974 -53.56936038576015 80.28347624653595
0.112972 -34.65470207942271 -62.938891567090145
0.12097 -48.517124531213696 140.52770160245626
0.128968 -34.13509804034579 128.2936721052548
0.136966 -55.20028351275417 -134.9093774356534
0.144964 -48.48043216140995 101.06036931281652
0.152962 -37.415582723900144 2.952349711515838
0.16096 -37.371786698794466 16.523662304393127
0.168958 -46.5129371806172 -100.94992174705216
0.176956 -49.68137269405944 -86.10039873018464
0.184954 -44.40002491627914 -71.82959779300558
0.192952 -45.56873399106947 68.84180163654858
0.20095 -45.879368113517735 150.77376101853284
0.208948 -38.28355849015825 -58.26507417713527
0.216946 -44.79605504022585 49.45659656739104
0.224944 -45.477460305517425 -65.66443660836485
0.232942 -37.94594763461374 78.68590957220063
0.24094 -35.75896539657577 -79.28468255725052
0.248938 -38.859356647195995 148.90270894226677
0.256936 -36.87249987921337 165.39052491399235
0.264934 -36.20770473323844 -133.79297980000766
0.272932 -51.237183975686435 -4.6633531001809265
0.28093 -40.50728564730743 -138.40248503893238
0.288928 -48.58059252955201 -97.23414685987356
0.296926 -50.92184574491267 127.08284789963854
0.304924 -42.50158508396608 -170.2328693684718
0.312922 -52.07609077232711 -174.68174417759408
0.32092 -38.0914712590247 27.393880102875045
0.328918 -34.089171009387336 -175.3618393123591
0.336916 -44.20097096513999 89.40536223262076
0.344914 -43.62576651735963 -168.33753968341165
0.352912 -34.96777025627682 -98.00300595951433
0.36091 -43.26151556039356 168.4655453222013
0.368908 -44.670392752491644 22.935282568880975
0.376906 -44.179805224719445 11.814686840594126
0.384904 -46.78265972955196 84.06455319814958
0.392902 -45.64591444845345 52.100688888991264
0.4009 -45.70023935366201 -28.543748784692028
0.408898 -44.71379612426449 158.16827540447267
0.416896 -41.12443145423658 -78.27773059917625
0.424894 -39.66702303081651 -114.87719366552228
0.432892 -37.61169052668311 -98.21688523692333
0.44089 -36.10441451274458 -33.252301927479046
0.448888 -41.20789515490027 -55.50763805662686
0.456886 -33.95039015561848 -87.36580354776409
0.464884 -38.040029107408714 24.118240221028994
0.472882 -38.56833478509637 100.02167421451703
0.48088 -38.268037853090384 6.177186991762405
0.488878 -40.6216369307121 17.471659728124198
0.496876 -38.514279614920156 -89.41479775154842
0.504874 -43.77726877303197 48.23422611483265
0.512872 -36.40854996366093 14.26736422916468
0.52087 -39.59039627030067 -101.71860169156287
0.528868 -45.08214430454891 141.83674712913665
0.536866 -42.93838528281819 -163.152766431644
0.544864 -40.66515467000009 80.24066521191246
0.552862 -41.621592247605065 -115.50144314919478
0.56086 -36.89277735696493 -18.306737081878108
0.568858 -51.32977083684638 -102.60945014116844
0.576856 -38.04026285807179 156.14036069893535
0.584854 -43.17439801938853 -81.4415121348324
0.592852 -36.34096437652164 179.23574748018746
0.60085 -39.55246094454554 85.85402882754003
0.608848 -50.128799104971684 11.17696833501999
0.616846 -42.27202661145657 132.56957849342788
0.624844 -40.92911066296188 125.10689545634393
0.632842 -38.553539211849646 73.55364044208446
0.64084 -41.933475688165274 -72.94999267635282
0.648838 -39.05808368779197 -63.17627274511897
0.656836 -38.66295432663264 69.76761667301177
0.664834 -36.63647532627229 66.70821726383605
0.672832 -36.45104141553086 128.16001694546821
0.68083 -41.94153228815971 162.47286624455793
0.688828 -41.61843791557297 -163.57098803582775
0.696826 -40.339916138435214 -158.59580239383715
0.704824 -45.45848270989366 -58.800212686404926
0.712822 -39.718735313280014 78.54164820474836
0.72082 -46.23398520117456 14.051505546012017
0.728818 -44.845632297757135 33.29487445692059
0.736816 -57.12802867140933 33.17486370232548
0.744814 -35.264502487866444 106.3324387542011
0.752812 -41.90739495130994 175.93785509973608
0.76081 -45.74989268916258 -142.4714916338761
0.768808 -36.22908877120943 162.7342390591788
0.776806 -32.85320136107647 124.03318463061574
0.784804 -33.568720654115154 99.26924718326906
0.792802 -46.84894257922521 -133.2339601649584
0.8008 -39.94183609832354 47.5815703003885
0.808798 -35.78536444099412 1.0323029673579334
0.816796 -40.97496171875296 136.63301333054758
0.824794 -43.51697241601303 76.07800242746202
0.832792 -35.00967542848473 175.03803845426702
0.84079 -38.33441038155194 -38.013431459567265
0.848788 -42.97098453834796 41.7059759005636
0.856786 -43.70173485303618 54.661935997162274
0.864784 -36.909498012500066 12.911696827228065
0.872782 -34.37641359649655 74.6539518274332
0.88078 -42.20281214724796 40.47955386355978
0.888778 -41.661685453140734 -166.1889201076774
0.896776 -31.419084945774685 93.29333066833199
0.904774 -40.10911069929092 111.48481494719945
0.912772 -36.14976050318051 -151.44186235394287
0.92077 -35.83642606388794 -143.34169173311938
0.928768 -39.67407795529474 147.74329648177346
0.936766 -39.71561389576851 95.13634046391805
0.944764 -40.17495757703084 -106.99620039400804
0.952762 -36.65588365239074 146.67473246432928
0.96076 -36.16528343241909 110.20930118263901
0.968758 -39.23257864097104 55.1437230329816
0.976756 -41.17929047142727 -178.84742338566156
0.984754 -36.771503646843186 -119.50083059489712
0.992752 -49.94858960637647 -98.00254010311194
1.00075 -36.73119543245908 80.14474954335931
1.008748 -34.54850896952542 -44.13362050939385
1.016746 -46.70386441797482 151.13129201925196
1.024744 -31.686336460731944 -178.8255313153064
1.032742 -43.35343443078236 151.36615401934904
1.04074 -39.86546042912827 -165.63619846875406
1.048738 -45.30465248045813 -83.16253950558695
1.056736 -36.11481697714537 130.23038594909357
1.064734 -34.95545631744677 64.94985992207145
1.072732 -39.759521220355616 -179.04369751806462
1.08073 -33.01799065324904 -130.61828407118864
1.088728 -32.72717114911214 -32.41534676898269
1.096726 -39.70972041287289 -125.57971853467507
1.104724 -45.37954026240001 57.86248298728224
1.112722 -43.572268022601804 155.63177738454564
1.12072 -44.489265128406245 31.583768907995783
1.128718 -45.589907798726166 139.21310487226032
1.136716 -40.13229336510004 113.11161917670749
1.144714 -37.01397446789575 137.06124364047648
1.152712 -37.30584830276675 -22.613207592869184
1.16071 -34.018109236606186 -24.25433714055168
1.168708 -44.75841539412259 -140.4611904834411
1.176706 -38.9775717871917 26.450229580212003
1.184704 -38.231341331721566 -68.02564602063607
1.192702 -36.126363175835415 166.8557708293613
1.2007 -34.71182764755967 -136.23364447778835
1.208698 -40.58868100360758 89.27656752710712
1.216696 -33.67822865560489 -46.21359149926767
1.224694 -38.101851652489394 -47.90800031672571
1.232692 -38.38527072521237 38.95739065779841
1.24069 -39.80934307413384 74.3403494373031
1.248688 -32.46907048648659 105.29607259768055
1.256686 -32.769886576582834 126.5063860927993
1.264684 -53.82295919545251 -35.61844128731552
1.272682 -54.775594479778206 -141.63416166765808
1.28068 -45.364804460877025 80.03458197462592
1.288678 -37.14743054105524 -112.96213998818766
1.296676 -44.1684178306836 133.6770016264141
1.304674 -35.08786998341246 -108.62345005852943
1.312672 -46.59936914820872 80.56260557007177
1.32067 -40.23426952200202 -110.62317371598917
1.328668 -36.11660734065125 -96.57239487560278
1.336666 -34.799012899899495 56.024795387797674
1.344664 -40.152875452067995 47.55035955883368
1.352662 -43.92325454289252 -38.19006462899911
1.36066 -39.28117991040821 -59.19251829268946
1.368658 -51.417584170954584 -94.37283764211374
1.376656 -35.049122547433676 46.8493481044195
1.384654 -35.93785971382657 -58.91746484344431
1.392652 -51.55006704848532 -11.137350705235185
1.40065 -35.38672029146555 -0.669867148879026
1.408648 -44.452617052302315 138.16588662657958
1.416646 -36.517641226091804 46.222274367999056
1.424644 -33.25084929574974 -39.436637130066856
1.432642 -35.818889498629716 -74.07511208395123
1.44064 -31.970707473680527 -51.183936128431405
1.448638 -30.259607171528167 8.73404877479891
1.456636 -42.76211023398855 139.96973085078045
1.464634 -34.992270575645186 116.1830066626514
1.472632 -42.03644938150397 11.991920789794207
1.48063 -36.37727189071544 -138.63945003391112
1.488628 -42.85915472474941 -111.3086038100622
1.496626 -34.59809993649763 147.82571973416015
1.504624 -35.48084192737863 -179.8434213156723
1.512622 -31.845384482915122 48.81962619748277
1.52062 -38.16584520218903 -2.7877975649376108
1.528618 -44.94070015194967 -58.90016292006641
1.536616 -37.481117809908966 122.48951121793493
1.544614 -32.51707571154475 174.86787558651312
1.552612 -39.0740160086327 -45.866972270565455
1.56061 -30.91365632008101 17.357784549143346
1.568608 -37.781445933735064 100.04931462165136
1.576606 -35.159181174049635 159.24049598390437
1.584604 -37.46649708560283 -44.62680437241358
1.592602 -31.340227609816083 141.45143638951407
1.6006 -33.95243081200004 155.93321850246255
1.608598 -41.908285660683106 -178.75328547141447
1.616596 -38.52639663682696 33.45217728982975
1.624594 -35.06987429819441 87.35587275971882
1.632592 -40.755239552680045 92.04368367037274
1.64059 -37.69444378552713 -89.67108584692487
1.648588 -35.60857248905796 21.014267826943108
1.656586 -37.04673356132161 94.74542078843307
1.664584 -40.591780198838336 60.37019474061936
1.672582 -32.245995846351306 -73.32293573628037
1.68058 -41.527511229879465 -104.94527436629163
1.688578 -34.068022088898985 -166.60318828260012
1.696576 -35.18394142341898 -11.961064082227791
1.704574 -34.78393393733282 -99.53494693539429
1.712572 -32.42743571119747 -72.33030925422706
1.72057 -43.83780520198768 -67.17669985135643
1.728568 -33.76035644821328 -115.05659634810071
1.736566 -30.957869271194006 -7.853946255959885
1.744564 -35.46164363776804 -110.1152659474808
1.752562 -33.24845526559307 141.19726928336343
1.76056 -33.66777700672353 -177.47463526353494
1.768558 -32.276252588950406 151.62549331896943
1.776556 -33.44890714422749 140.22975176614108
1.784554 -30.37323187302412 -8.037442810518327
1.792552 -32.89071743280908 112.49288906048803
1.80055 -45.56208993809511 177.1468261964822
1.808548 -36.92036719534443 99.31534010701583
1.816546 -42.61201931732316 57.138570796892665
1.824544 -29.134155490603696 7.747696796066208
1.832542 -30.904309277949796 39.27385131379913
1.84054 -34.609137437847224 -10.172077852016024
1.848538 -39.52573357032697 97.6044510638909
1.856536 -41.536314543482405 164.3862987244692
1.864534 -33.452534831407036 -6.324078691481108
1.872532 -38.85291193829654 51.56806226231141
1.88053 -32.04620282951097 -10.192852360963048
1.888528 -33.458228659381554 -47.99214258973522
1.896526 -27.50333507006083 -65.52422378435135
1.904524 -37.74143573103355 94.89821907893203
1.912522 -32.52097126943147 -33.57929154907805
1.92052 -32.161313534491455 -29.548232794320402
1.928518 -30.117357181387124 62.296289967839876
1.936516 -35.35476740198504 171.88153523663468
1.944514 -29.931450344888507 -39.971748814383275
1.952512 -46.08876554281109 98.80923648461571
1.96051 -35.19674838712463 179.48645380764597
1.968508 -32.58035553571228 -35.927410868163
1.976506 -28.394777395039238 28.312626860472644
1.984504 -31.24923684962315 -116.23737920933499
1.992502 -43.607612543409175 -146.78648196230563
2.0005 -31.98621456462891 70.0780895930993
2.008498 -32.936027455365306 -83.94272665443053
2.016496 -22.57923377461121 55.37367154716714
2.024494 -30.274427765991515 65.08170896391043
2.032492 -32.86886210340239 -136.79946141461235
2.04049 -24.90189269024097 27.071401712989722
2.048488 -41.77975001549321 -127.20838901864272
2.056486 -39.43624730696119 130.10600849934164
2.064484 -28.299676302056177 -66.04286356279174
2.072482 -32.617991971440745 161.51135349839245
2.08048 -29.28884953065067 16.48832695644854
2.088478 -33.9497497750188 83.77897609667225
2.096476 -32.768983946418565 -105.4688980747162
2.104474 -26.06856868160017 -86.80303908251742
2.112472 -53.568279541133265 1.2719979221646396
2.12047 -29.400199309596932 71.34917436616725
2.128468 -37.78499047950805 80.40900524311624
2.136466 -38.99610049260133 122.66308055458525
2.144464 -37.537241732019375 -16.57264559612948
2.152462 -25.993487089581564 148.73556698541864
2.16046 -34.73246574248296 -32.19058725691769
2.168458 -26.188071289749637 159.15784497322488
2.176456 -28.78949426649189 -68.27307188587673
2.184454 -35.66894792561295 161.12367840796446
2.192452 -49.39958096277402 -117.22161964677714
2.20045 -30.774313055714657 -172.23865662635023
2.208448 -29.22876416785172 163.64261089172678
2.216446 -28.255377809495585 -84.87437233011822
2.224444 -27.724799729499704 92.26862818194783
2.232442 -45.23726357573172 -85.88015086448011
2.24044 -38.175897394031914 77.06778543313791
2.248438 -28.592906450111613 -169.64642856603825
2.256436 -23.92546643865879 -56.886497242723834
2.264434 -27.367492266054438 -134.38110243513052
2.272432 -32.07907840046549 92.20757817458943
2.28043 -32.140919672568266 35.918165894842105
2.288428 -26.662271483508846 89.46710377490159
2.296426 -32.240338272394034 136.49736794406857
2.304424 -24.33830183550875 -135.70665534888857
2.312422 -31.841822692439507 101.05658127442997
2.32042 -27.667217859252236 158.09928147899643
2.328418 -28.149845613663107 40.82831291514975
2.336416 -26.80966338109393 55.96639668827287
2.344414 -20.28047753710841 168.07785336689713
2.352412 -22.396906207847685 -0.10954834639230392
2.36041 -21.458793020955763 -110.16879405352374
2.368408 -23.621280847082907 -33.950213038081394
2.376406 -38.25237408970404 -139.6527390377774
2.384404 -31.3937713641517 131.68446399391533
2.392402 -27.309037125470326 -177.15164178489505
2.4004 -24.149273287025018 44.499619332318595
2.408398 -41.2226662916386 135.722377905965
2.416396 -24.943350224130647 80.57543991709254
2.424394 -28.599113695496317 -73.94886948232784
2.432392 -26.509483598770412 -120.4081818388723
2.44039 -28.290206319761403 84.03092703340731
2.448388 -28.731414579487833 -138.73132554970053
2.456386 -29.219225039284396 -28.622823542079647
2.464384 -22.396200979445048 155.92460829921038
2.472382 -20.955226121153224 -174.72339371335138
2.48038 -28.674217007285925 -122.8454102433464
2.488378 -21.02608008765586 28.423543530420073
2.496376 -21.21121613746521 132.02559595606402
2.504374 -22.045474698860467 62.44078275658607
2.512372 -30.480654580675555 -70.80442611265178
2.52037 -22.940983672904945 -39.750287142887984
2.528368 -268.33997685763313 82.66888461371408
2.536366 -20.575391322030736 169.07687778373983
2.544364 -28.350823503670792 21.20155705336076
2.552362 -25.456389085856514 -15.665275140800235
2.56036 -24.168575183199987 52.39250405140409
2.568358 -28.277659383929343 -4.054015972820075
2.576356 -27.907109323614215 -148.98938378953721
2.584354 -18.20703262281273 -65.19479605271401
2.592352 -18.198789922286355 -86.20553926164564
2.60035 -24.790710153852743 -144.3546661565451
2.608348 -13.531832325957065 25.240197112615242
2.616346 -31.572758759022364 -69.5991273456948
2.624344 -18.57724802020335 138.5566902800429
2.632342 -19.01486236607415 152.574223117027
2.64034 -20.883385536153703 7.761249124187243
2.648338 -29.08454503789892 132.52753544190776
2.656336 -21.550867651130623 38.321346839635524
2.664334 -14.112826839820451 -152.64547888943096
2.672332 -15.714944584957895 -52.707763155954815
2.68033 -26.50069691946201 -142.11847739971742
2.688328 -26.23293569162132 -136.80328474114387
2.696326 -6.807775777812177 146.15606067340272
2.704324 -18.583961713706007 64.53933266175602
2.712322 -34.625833982774125 -9.529190578681147
2.72032 -28.80798567041987 63.415916760973644
2.728318 -31.63855158995265 -53.337403002792705
2.736316 -26.957720670811863 124.87815240741446
2.744314 -36.53917374676018 90.84503082104085
2.752312 -31.66928299321637 179.72798967979975
2.76031 -22.62316299250671 -101.27701053326075
2.768308 -35.5541702622443 111.32160492000808
2.776306 -25.28088384909171 -17.01319573078064
2.784304 -27.813188457312364 12.14427241692908
2.792302 -24.880675494527644 134.757054356728
2.8003 -28.995024138432946 -119.16579903294205
2.808298 -35.61801733897437 120.36859621493016
2.816296 -31.79252137831307 176.8908483542601
2.824294 -43.10175775634272 -27.714197064231943
2.832292 -28.070555545836932 -73.88878997226452
2.84029 -20.728874244993737 176.83722919888135
2.848288 -32.562810141586 68.68985895228019
2.856286 -32.82785587617297 8.656913154633171
2.864284 -38.846519871985 152.1172091478612
2.872282 -34.156771519349 -23.702006075556252
2.88028 -24.360173733518323 -155.27003223495078
2.888278 -28.437107938881134 7.644360259071244
2.896276 -39.7252316146554 -2.870464223202768
2.904274 -29.587689983682438 76.66689318528924
2.912272 -25.68954582261382 -37.04603916496861
2.92027 -22.547312670929372 83.6289066461257
2.928268 -27.992606223983707 125.76585501014674
2.936266 -42.678397545846785 169.34845273772027
2.944264 -33.336007156525454 -37.64149356527403
2.952262 -25.290188346141846 20.79082299708074
2.96026 -26.93227347963552 -159.5262722169754
2.968258 -24.26697847662659 -34.97614353269876
2.976256 -26.74383737752204 55.00324537739456
2.984254 -39.83704834568196 66.76140646187955
2.992252 -35.647128769296714 -147.7755499523075
3.00025 -49.57789727782813 102.18240321889304
3.008248 -30.27974770907123 22.471362786969916
3.016246 -38.60469622981976 -71.65899947491852
3.024244 -26.0366622476054 -75.72340507230923
3.032242 -27.284514876992144 7.687243145720825
3.04024 -31.148490553085608 -158.34588141482075
3.048238 -36.850658272395215 65.4354080192649
3.056236 -28.439616498896477 48.29999313227049
3.064234 -24.97034281325 75.6009384698396
3.072232 -27.88825082137988 -45.78642605209095
3.08023 -30.38873841511592 -175.25945313999262
3.088228 -33.13327192546031 134.7508061542614
3.096226 -38.275350121108495 17.948210590166934
3.104224 -29.78408952362424 -149.81632494549964
3.112222 -26.118731573793607 -137.6846818094282
3.12022 -33.308416567856945 89.31153453763686
3.128218 -27.241062168096292 -129.71299106591002
3.136216 -40.15798836927564 -59.78300153518084
3.144214 -41.95411454301784 94.91875585410526
3.152212 -25.636978454046936 -62.28179609702527
3.16021 -27.45472735936465 128.36441250086074
3.168208 -24.475500694314643 142.21867902063724
3.176206 -28.105576945822108 -130.63306954004324
3.184204 -25.63881493585874 145.2692569513938
3.192202 -24.964233634861273 -18.36767186224445
3.2002 -28.105256918462995 -142.08636632516252
3.208198 -32.95489232013259 151.033208741318
3.216196 -31.990884294381218 -134.19541204795186
3.224194 -27.982473909598372 139.80755553491665
3.232192 -36.87375859393438 121.82222792073367
3.24019 -32.697667891159924 -145.30577453952063
3.248188 -32.86758877429916 -90.73957597175875
3.256186 -27.73045595699335 159.70507058556927
3.264184 -27.332341398156352 24.556937058943422
3.272182 -48.61704444795904 -142.32484858271354
3.28018 -28.396936116555636 130.44061231076424
3.288178 -26.897077390914625 -36.66484162912143
3.296176 -30.225411775961128 131.94491252421523
3.304174 -28.795644103848744 -116.5622421038538
3.312172 -37.29907941146398 -83.07135793388709
3.32017 -39.93951846241491 171.72767145666992
3.328168 -30.467379388048013 -1.6479125442764948
3.336166 -28.706065754610535 31.834263142883216
3.344164 -33.06963910402918 70.70192571867773
3.352162 -36.65814117982086 -86.34940004275332
3.36016 -37.00010494538333 -137.32068037176006
3.368158 -22.42367533769484 40.44884505857946
3.376156 -35.9424017549119 -151.9926627741883
