!Created with skrf (http://scikit-rf.org).
# GHz S DB R 50.0 
!freq dBS11 angS11 dBS21 angS21 dBS12 angS12 dBS22 angS22
0.001 12.492492175389332 -48.27552890781575 -17.219682916046708 -178.61787296889 8.043402596011918 6.989901739113593 -8.007003227207054 -126.56308072477171
0.008998 -10.609480486839843 -110.81021083502989 -17.33681433117477 -20.121243049986447 -19.890096013593343 -71.94600839190622 -8.757600203142394 -62.28925694402881
0.016996 -35.78916985022622 98.89828739319724 -31.839656919008213 -3.412035796459525 -34.39442824846141 21.901810427756327 -27.917244713674663 -91.82070316190264
0.024994 -36.73495172337042 -119.5536474657386 -40.10504143300996 108.31082785289449 -48.68344448568288 126.82809334522763 -31.270745027682626 -40.77800803110784
0.032992 -48.099648099755534 1.513292831427471 -38.45670499916059 160.44023531195865 -38.30510642611046 -177.77805759136626 -32.20518318467819 -83.43721448437609
0.04099 -41.79741905709208 -51.076680607312596 -49.7724085321812 -142.30964364270253 -41.20761789943349 154.75712905569253 -33.6499135809041 -165.7951568903274
0.048988 -32.05085548163743 19.71210338757557 -41.85144169847583 -155.19862745600616 -51.63521141328257 -137.4428687985087 -37.418515114035145 4.909263661778681
0.056986 -34.274071086773475 33.080404211445625 -53.39859170741874 -86.80164613418165 -48.7087042219835 171.67632909737802 -32.744829090072024 -41.52994601051195
0.064984 -39.717077664101026 4.837084632478088 -44.420648426112315 -18.77057989005956 -57.98542219904479 -14.129157052651646 -37.970494922825196 22.294509440171197
0.072982 -38.65917685252474 8.65378710747263 -47.97602538784808 -79.68824177078831 -53.17718591261607 -72.11009789853078 -34.22946247993032 49.88898887185526
0.08098 -32.706929153926055 21.569350040376985 -51.900782626008 -9.953048695891932 -58.76855114123153 -173.19103768460937 -38.22669418621689 51.662785977985415
0.088978 -46.24916691303905 127.85655781804964 -53.97177163333911 -41.219800921806126 -51.14448076745657 64.15956814046207 -32.93980437310415 -8.864172299878158
0.096976 -38.78034096338242 -10.83398193537569 -50.804881753077005 134.98154488095386 -58.729352306643456 122.35591445392484 -39.96192282980268 -49.1021087046972
0.104974 -32.22058901960055 64.46067604064469 -48.16083144479745 70.85722979248678 -48.738561563916456 45.245634416111706 -42.323905495861524 54.45414281307287
0.112972 -64.37691393209795 90.79803605700148 -55.129562378635214 165.08544256491416 -51.381060580829605 106.98703230107664 -41.66561716693931 48.90793896737966
0.12097 -35.94637585627169 130.43648414287773 -43.922856881299595 125.43303740605606 -53.78969618540788 -62.27986205595024 -46.52427903825942 35.662186984346846
0.128968 -50.1919636196028 22.732424851601653 -54.0039078136713 81.47294126140633 -43.95513593312806 167.93700556897141 -42.76296639478126 -18.809377047068697
0.136966 -36.32440648792833 136.76748355492714 -57.242824314130594 -155.23866370039957 -45.24603943114532 178.3143497034657 -40.97732761660576 149.07565360147808
0.144964 -50.32703968061247 -83.90884326042173 -52.50355282290676 29.853233970992555 -46.873684665636574 -118.2426681685128 -38.64113139651012 115.4606218226834
0.152962 -35.962476640702704 158.1919131404063 -45.80840860884925 -106.91279329428043 -44.79756826159219 -48.39404044208872 -37.89059918463276 129.70767108200587
0.16096 -41.98899092693303 91.58767446858168 -48.65358862023673 -110.3663952260684 -46.845392005881365 -77.03051954645598 -32.81692831504233 86.70993995537852
0.168958 -34.072417605744455 -157.475700391878 -55.970419168793256 -20.971656681822346 -59.24690442013801 159.06681472732507 -36.8470460043295 141.24930166599066
0.176956 -35.234112184965134 -138.8907838187631 -46.24435098004654 51.372994828441776 -54.18933765385438 17.430634745306477 -34.12341178658923 152.6961357499106
0.184954 -37.491063367890455 -105.78271732112606 -51.47285613081566 25.2002924795771 -45.040515020760296 16.59313954581764 -41.39514326788543 23.81852972452396
0.192952 -38.76497884864458 -159.4245857854065 -56.45772286647987 12.668791658237083 -59.34999330291649 145.12384740793945 -36.53057647471534 -18.626354089533564
0.20095 -38.54551021930308 -145.7737690414515 -49.8764557447506 46.4610820218733 -55.44097498193949 6.562261199588097 -32.18090804176104 171.37118898557455
0.208948 -39.67025317329344 -114.75397484857001 -55.126144711722596 98.68362193197132 -44.19269636338246 116.03416829380572 -37.93979959083374 -151.84974662622818
0.216946 -41.141616529369415 -120.62888984001206 -64.89353948182026 -170.40165129254152 -43.64826862097147 131.29607486042846 -39.136240796142914 -65.96615006650008
0.224944 -60.630240511906976 -23.61148180564269 -42.09459548522324 132.02587502232723 -50.66862530845846 -141.8463151760921 -38.951589637247366 -45.13522227463386
0.232942 -41.210358307854236 -136.43656677332658 -43.64653543374366 120.15731656731462 -49.09044343905965 -139.72296726457427 -40.121547816570306 68.44629673179375
0.24094 -37.071683703950754 -52.81653419910687 -43.22297628788202 166.3048736310385 -48.747333867369306 -152.28319211217783 -40.82026069550271 25.97813433611614
0.248938 -46.49353764543566 -35.99057417900083 -49.27314464018765 -175.5296050884447 -41.21581577601569 -44.29809675962758 -35.53524459233632 -27.11948469350904
0.256936 -35.44210215144222 -50.53854109016709 -49.392361455401286 -49.55942675972976 -49.85680294254874 -161.14049105898485 -35.83944196993222 -50.20348745790573
0.264934 -38.457722539583784 -42.680503795612765 -45.42705735306049 -99.98927921133979 -49.0494142968827 29.41779332532839 -44.119807962102755 -57.588317499117146
0.272932 -36.85541516872002 -22.386964969714064 -45.435283690987085 -50.42280771136103 -45.58741257427389 -16.584442661640505 -39.07176431270833 -155.14839983055893
0.28093 -39.30049199389086 81.33452650887784 -44.44280491613576 -22.283385244796456 -47.51026643898483 -0.34134254621524907 -50.56004244738304 151.26806503776461
0.288928 -37.13820888986707 138.4525675493066 -46.984637821509736 34.66444205120147 -43.54842944851047 -24.93362926950996 -38.27919293513134 -97.09177325240773
0.296926 -33.46821695059951 -8.146265685736044 -46.26378076253201 -5.802256427409083 -46.76687496798287 23.59835537260736 -32.3562275943661 -12.448957151774806
0.304924 -44.46739399974977 -43.10721790425136 -51.84567719880654 41.04026313678822 -49.1247591683785 130.00310587971745 -32.022338906341055 38.880457835614955
0.312922 -31.835787480806683 61.099399561509316 -54.80260096653719 39.989569288117906 -47.76708663127149 113.07379589998673 -31.663897073596033 33.25837546070814
0.32092 -34.35333954204893 73.36965212489247 -44.632516859811346 -122.7530288355592 -43.98153395959024 142.67059028540024 -34.582421827475244 100.13366029949434
0.328918 -38.64584642691046 33.10019458338022 -53.09460463391011 -69.51395811200516 -45.36230803554161 136.21531350875586 -33.033441777877385 105.77684846329873
0.336916 -39.774796595439966 8.68372616954341 -46.37401366808395 179.51690530751293 -39.834447606484964 -165.98920014266767 -32.27578572642905 90.76893136331488
0.344914 -35.90880937854703 65.9205598114438 -45.29429177080289 -88.08671162373302 -42.80127866308433 -109.56063262642449 -37.709778259642306 157.9659746256114
0.352912 -29.878995031900022 74.35693005224213 -42.383791996773645 -108.24551190382242 -47.845648397905826 -161.17406551850976 -44.23638917440584 -108.12584807274987
0.36091 -31.896339110297497 176.61736129552926 -41.822203075051476 -68.50061292147066 -39.498015684782494 -78.30294612732438 -37.27059602038835 -94.47158284362837
0.368908 -35.96646799300019 -101.52488519547556 -38.125696121368605 -113.9986079425084 -44.99166180504236 -19.27253187320899 -30.240722568085104 60.11376873171287
0.376906 -45.29704633435572 24.229533254116948 -41.82261247184531 -24.77032320292234 -39.91226635303227 5.586582155261628 -39.527825773478156 178.5797246616069
0.384904 -44.99724430475011 42.34676646520694 -42.59696098438695 -33.20578251433302 -39.874426816141415 -16.12036887400432 -34.339534630144406 3.450434342016067
0.392902 -38.57339680165522 140.8968881494235 -49.10956686086238 71.34709630216108 -38.72366114620946 29.111381554021538 -37.6167398652441 167.31416742847946
0.4009 -41.262335246157605 -151.243567289753 -47.68830068477459 -3.2398744264680417 -39.90764410079355 22.35410317509883 -36.58825949457101 99.82419601718863
0.408898 -32.472922385050154 -50.435439943941056 -44.588984599140716 126.23455148899806 -37.473290174979596 96.882301947028 -38.94800701235302 138.32017550927165
0.416896 -31.65347230959273 -142.07749508092252 -40.72521129809547 98.14551832825573 -37.74122833371167 107.13863981193518 -32.799560630897844 148.30018696671303
0.424894 -40.45593417738694 154.83982226765897 -41.30958818407329 160.2494427035819 -36.90093523161839 136.1099391913532 -37.978721830297474 -128.23535114250703
0.432892 -35.27055063533716 102.92871488803324 -44.78309489372704 99.15964046204381 -35.78133888980852 -173.10018652681805 -39.22923849278216 -107.32113926910964
0.44089 -34.40670376898142 131.36906795867287 -44.25008395139288 -163.48214911960778 -39.648757343119506 -168.54981177321437 -39.283001823676656 -168.66868639309726
0.448888 -29.342809184022247 -164.8994437721625 -39.31618169411913 179.37325945563106 -35.467705655838564 -150.95155211322594 -36.395782226401515 134.92948497432587
0.456886 -31.408932206787178 -43.32596130110265 -49.31268285495746 -138.20311397379427 -38.314600661032394 -109.44615341940742 -60.03875889106159 -31.95454470996502
0.464884 -29.7933614161633 -76.77455448921523 -40.757368874567476 -126.08465547841398 -43.01722468172593 -56.67980940128293 -36.24801881355218 -176.18223353789335
0.472882 -38.42195111293667 -37.9129287079374 -36.96642459284199 -78.0061959011938 -39.67699632325396 -55.161909940027044 -37.162828306721735 -93.74736383000133
0.48088 -38.45320991216136 28.10622320434007 -43.37032406824703 -85.33021370773328 -37.16487063733624 -22.14085796452208 -35.717068521688155 77.06710094053574
0.488878 -39.38909462900749 92.71833477460457 -52.75939464681967 -57.14832668648375 -36.669481183444056 -33.85721167419003 -34.196204132179574 -6.317650143789668
0.496876 -31.538518245245758 10.204850424551783 -46.19595396456921 -6.306032822124543 -36.619014189457616 -2.498227175428491 -33.30951847874208 111.12289249613553
0.504874 -40.861919204881396 3.778270052099742 -36.82571845743868 -2.9598756087236207 -43.80442394241919 36.211580390785194 -29.09564467374129 25.928268175546886
0.512872 -33.3927661143005 128.05790405432623 -39.94716500708891 12.425681573216416 -40.9587313489125 123.48763068288203 -30.747935342069862 -103.4735330960779
0.52087 -45.70238581762541 -161.75948107313775 -43.05522435713283 62.43536216475336 -44.80309126837409 79.18487921512147 -33.78732391035649 129.9569532227886
0.528868 -29.719546944465467 -21.506212509678715 -40.362284916416385 57.779852441463326 -51.209067196917594 131.67933545750574 -33.67439108156696 -48.06380579782117
0.536866 -32.621765978852494 104.59992649778016 -41.68613919504919 96.08753421059919 -45.674267314777396 150.69178846812892 -34.657131847294984 77.13708992060744
0.544864 -33.171092839592504 -175.15610225293517 -46.65023468361483 105.42549953651792 -43.316886305114565 -150.6352639812182 -36.30359773310973 -77.6317642585484
0.552862 -48.37791629998317 -52.462496294507375 -40.975819121348856 103.76937608073561 -39.05393478090445 -169.33589895333793 -30.98449797463797 59.61415349521522
0.56086 -44.54316531998099 110.9794779153923 -50.787804296151904 177.36577697341338 -42.3368720364693 -174.3145234765386 -33.59667974923284 103.17640539565427
0.568858 -47.017614327898315 93.26057692934171 -41.86242258744417 170.48076795789325 -46.52789603970604 -88.8344716159962 -31.647179477842084 36.798588151678175
0.576856 -36.46132802847451 65.30628118504178 -39.19809951221999 -157.4020251851107 -46.364831944483996 -63.5500582680413 -35.61420235501836 -115.60682399193526
0.584854 -38.44759111106277 -104.49937328086645 -40.14455312565189 -135.88254755178036 -46.82204138126093 4.480289050984167 -39.429868631672456 137.91582979357852
0.592852 -37.12384924766285 -67.66539429325556 -43.46700829183519 -89.13991198641416 -41.46475932598129 -17.89727623064805 -37.61127896943035 142.28438316095836
0.60085 -49.19781130253533 -151.1661129589638 -40.95494383594192 -60.898285246091476 -43.72121826115241 -44.937517625338685 -35.41650874336411 110.51385617952103
0.608848 -42.64141121333199 92.39257455572809 -40.23168086004028 -34.04076172293068 -40.199447220249255 26.350233453507382 -32.94501448520532 141.85480135951207
0.616846 -43.888287534775934 -28.853023125623125 -38.97987207695839 -34.25568784437131 -40.415440238380704 29.71074590480996 -40.73532713517055 -151.00667531800332
0.624844 -32.369896996171164 -155.3086520097107 -40.81032112471316 3.392718725175208 -41.279328643045744 20.244613939646687 -31.797688419755254 128.2451691296987
0.632842 -40.918804273857134 73.8440144991163 -36.24583588451307 28.429706062038083 -36.9209842762127 85.19211273198503 -38.245605897838566 124.37195810766593
0.64084 -44.21896971891688 -149.10127377278738 -38.40873008224016 24.27963066107034 -42.4705984761955 129.93032451971618 -33.96976734496823 131.09592877895625
0.648838 -37.19166806577148 -157.55755690171404 -40.71938842404088 103.73369924962856 -40.832582009539934 169.34930823944302 -39.269074304328086 -161.766868848969
0.656836 -49.63161609874373 55.689545886785105 -37.89881165462778 121.80868605962975 -41.897047150544715 -172.93806855302407 -34.228004937545585 -154.88259379966127
0.664834 -33.058999157088735 -136.38453162098583 -44.779174883749995 126.36502739928868 -41.53455650976447 -151.76123253861425 -31.9392119240295 162.42397843214684
0.672832 -35.575615880142976 169.54416207412683 -38.47067537380226 177.20672621284237 -43.63471217139737 -147.31276543275754 -34.59363928153873 -175.1386065869891
0.68083 -43.502710356458635 -101.79088286000552 -38.651764536675955 174.4809237647579 -44.718075147885074 -106.65279084497203 -47.02690797736312 -119.14194142901925
0.688828 -30.753202429008837 -85.58622612065015 -44.24096809741191 -129.03404129826495 -43.58662029157803 -107.8913771737222 -42.85092196241739 -138.54281056274422
0.696826 -31.80517023727163 -43.3083159935297 -38.63248831368655 -140.28699054712143 -42.86118288782012 -26.930675632910386 -31.780242349421755 -104.60699773520896
0.704824 -34.05045854397016 147.21215985622186 -47.301764526003296 -97.73626782404395 -44.20730459799803 -59.106410321156744 -32.640095855363604 -127.33684713177844
0.712822 -45.06340844157891 14.875530875517638 -47.83236775131655 -66.70400943379606 -44.55451836054236 -37.725856994128755 -38.20934022830247 116.4267479560862
0.72082 -35.026109252003295 -30.064216791108773 -47.099037566237676 -41.23921339878019 -50.818290352617325 11.16801767586619 -42.4052260823391 0.7205638116891134
0.728818 -43.81076833027212 -61.78096265155304 -50.08908692255169 -3.6388520560602498 -41.34639889692869 97.09329020760437 -34.103879932015545 -73.95056498527717
0.736816 -27.862756583773752 -21.245199026233543 -43.77383572743841 -23.863797127011576 -43.866609275388726 28.37618337178527 -34.60621337176741 -29.835988196431874
0.744814 -37.62368575982368 -17.981232720413146 -46.837340153595264 35.06708425452911 -50.24988880734769 27.769998262223417 -30.30140147937722 -37.843767571715716
0.752812 -48.35254676128408 113.52159942398978 -48.0339032919753 8.26641090035708 -40.25563549419524 100.83951891802324 -38.25972923966177 19.274778451717783
0.76081 -40.56961864523628 28.68424039189852 -50.34726082040801 40.013742395959525 -45.842847791856265 1.457649085582933 -42.37763131246351 -137.0988704901778
0.768808 -38.828896317591415 -8.560088338860004 -41.324842833293005 35.884796143298324 -49.499012549954635 119.09017509061022 -36.94420690116666 -91.22636589598518
0.776806 -38.81728286295336 9.032158959376089 -49.47791469484454 82.08279616497828 -45.49474265670141 154.22343551175388 -38.87307998130353 -62.06586263844926
0.784804 -47.627099945786505 19.73968925384271 -44.218768749984136 128.12704606316547 -51.129033869313716 -28.842247608702753 -41.558167800315395 -44.58285700257237
0.792802 -40.5668345107769 2.8323765650616144 -48.871701761277436 -178.20071596090372 -45.62405349831694 -86.76382640768514 -29.81929537563227 47.73312489987552
0.8008 -43.312060271380524 138.85642742534267 -46.578312065199 -99.81695002401739 -42.2043363085099 141.6581253171998 -53.5558765913607 -135.31807898947196
0.808798 -32.45693078261076 59.74720169141727 -69.50942791545475 99.67629888306584 -44.235553238212205 -30.033871996227234 -38.706952141647335 -20.825603377802867
0.816796 -32.23154505656227 103.44665200641779 -62.656133676467725 92.48508711658232 -52.154285694202194 10.816500494800485 -42.387948220091864 129.15803836780557
0.824794 -33.964189107761435 0.24300378892487484 -43.9656919618114 -37.75175270913879 -42.952072708866005 -111.29517901927213 -43.813049041326344 94.8624510288093
0.832792 -30.430501202727925 57.79650659661011 -41.240200397990485 -98.51760319465221 -53.338137437722885 -171.78112340602715 -40.82703876194101 -11.492309197918114
0.84079 -30.497740949573057 153.56862927809445 -48.79375592854733 -87.76934536486094 -58.13883043273342 -53.00874303562618 -41.3061976201795 43.83547430413126
0.848788 -36.603552908581 85.7942956352607 -54.48390724175439 -3.6163204336731276 -44.96919697983846 101.30507723892923 -29.045051979217025 12.877335992066675
0.856786 -39.03592902279196 -15.464448103161683 -45.80279525800051 -77.13329900168128 -49.445834272782506 158.35210009347827 -28.890223812170433 39.447780873121715
0.864784 -30.20225971849712 75.29466008038649 -41.04134244108992 -2.3261367042507755 -46.36626752357842 -34.05235652430645 -39.08980305684458 131.43394358935032
0.872782 -31.56303345185847 127.52995890441761 -45.439157949607285 -36.839673616082926 -48.40923695401678 96.27331694178389 -39.3957976725729 30.503915232341118
0.88078 -47.844525223394065 -81.7600691062639 -50.666212119593865 45.4555292999438 -60.75847252459659 76.44777507857566 -45.88497668081894 101.21217636770105
0.888778 -30.571456939364275 -134.20627690077941 -41.870105034069084 -0.5523445999819337 -44.62629079757682 78.97626800561545 -35.634919454111355 -109.0853723176743
0.896776 -32.192415870979346 -65.06656307673288 -42.84044458469492 -24.655315941343996 -39.132489776990816 -64.04693266964404 -37.50844431938275 130.3414356057238
0.904774 -40.28486053826198 -156.0375556746236 -49.54428814832262 -9.884716319103072 -54.98749737764658 -108.2256489209594 -36.596913394656255 167.4438358691592
0.912772 -32.793278693082314 -96.81633499188034 -51.59813290600397 -156.73272284821908 -55.0641725826143 112.56791887452857 -45.94780787808328 99.96732738722699
0.92077 -37.08506481114436 -170.99484719369264 -42.794814860431586 164.47935683665014 -45.802655432375126 -146.81960410081683 -35.95996056797973 -27.60570630483574
0.928768 -41.29639262918456 -105.52141649216568 -48.81264565249407 144.08127009631647 -47.18888736403745 -137.72603230564704 -34.97348581667667 126.02948407004476
0.936766 -30.766474957520167 -147.2343790767077 -47.14873976101207 -131.82640097220343 -50.239896704353875 -97.10228453971799 -33.27530091211637 -103.85653485809839
0.944764 -32.81180601025238 -131.16747358414224 -45.19912574397664 -60.7634663062997 -44.00071988937956 31.24958108747357 -34.6180758928601 -107.06083663083153
0.952762 -40.80388669293704 -7.144684978112961 -43.08372699341703 -143.26865947718312 -52.83873492684465 -139.4072281997406 -30.38982909678744 171.37532425228596
0.96076 -43.656188485128766 152.63793421168677 -47.82610479931844 170.47444919718575 -37.965735758162296 17.68184294352783 -36.45049972057773 -67.39018793259484
0.968758 -48.34563804833047 95.59516004823018 -48.49070572434101 -162.8270159252871 -39.88643337018754 -1.3566001294252032 -34.74633801040977 -131.0864830148889
