!Created with skrf (http://scikit-rf.org).
# GHz S DB R 50.0 
!freq dBS11 angS11 dBS21 angS21 dBS12 angS12 dBS22 angS22
0.001 -70.48900113439532 -118.41624438291633 -inf 0.0 -90.74646896312281 -66.80527273086845 -inf 0.0
0.138896551 -63.55306479886365 -128.55693602278905 -inf 0.0 -105.37747969921577 135.0 -inf 0.0
0.276793103 -49.08792591566452 29.07674977588096 -inf 0.0 -96.30961100914305 138.35718875162254 -inf 0.0
0.414689655 -55.99839276321703 39.50590389908512 -inf 0.0 -99.86628054185637 0.0 -inf 0.0
0.552586206 -60.90626494118379 -150.43554856279047 -inf 0.0 -100.2918226817591 -156.81300312834517 -inf 0.0
0.690482758 -48.292024562050166 140.9859472853663 -inf 0.0 -89.28980742107365 -128.99007322898785 -inf 0.0
0.82837931 -64.06913804511339 44.75357946682024 -inf 0.0 -108.38777965585558 -90.0 -inf 0.0
0.966275862 -53.68572084975119 -125.80756087504113 -inf 0.0 -97.27713009971033 -68.19859051364818 -inf 0.0
1.104172413 -55.23183514985358 -124.38927639293647 -inf 0.0 -107.93190320183882 71.59869520111077 -inf 0.0
1.242068965 -63.44842084572518 71.49658307742081 -inf 0.0 -87.93555044595843 100.95507390600193 -inf 0.0
1.379965517 -53.76633843338628 75.86904416727289 -inf 0.0 -93.5790181207298 165.95881297906482 -inf 0.0
1.517862068 -64.1090041222181 -7.849217767431169 -inf 0.0 -91.8046636594484 81.47745084124719 -inf 0.0
1.65575862 -56.48865189455044 -174.40525346873812 -inf 0.0 -90.75387051327328 28.80434333157188 -inf 0.0
1.793655172 -59.293094013828814 -131.7726913623207 -inf 0.0 -102.24038022378417 9.435073107584916 -inf 0.0
1.931551724 -66.66782693322713 -53.569229982868144 -inf 0.0 -100.76167655563152 33.690067525979785 -inf 0.0
2.069448275 -70.97923072029432 55.809538055236835 -inf 0.0 -91.13828836872176 -164.067287639199 -inf 0.0
2.207344827 -58.6468772548172 29.853037793455826 -inf 0.0 -88.22984689784973 58.39610434677642 -inf 0.0
2.345241379 -63.836173274009624 1.810834894674942 -inf 0.0 -88.61398164431982 -51.958473990148136 -inf 0.0
2.483137931 -58.24783512568436 -166.06496374156936 -inf 0.0 -92.24148282976529 -152.10636264354733 -inf 0.0
2.621034482 -55.45491427318468 67.66199629447115 -inf 0.0 -98.6302181488824 102.53276241507518 -inf 0.0
2.758931034 -56.82478791475829 84.18404880637559 -inf 0.0 -80.99942179268687 -40.95298930335244 -inf 0.0
2.896827586 -46.94539958479817 -42.652602130679625 -inf 0.0 -82.82747310911596 113.86225447408168 -inf 0.0
3.034724137 -45.535670807252245 -81.2119229961984 -inf 0.0 -85.92284772284509 -25.277510184466294 -inf 0.0
3.172620689 -44.120165117376644 164.26182282344448 -inf 0.0 -85.10649115890229 79.46626307247683 -inf 0.0
3.310517241 -42.9478816859426 60.71513906169663 -inf 0.0 -82.59213098836213 -83.119753579958 -inf 0.0
3.448413793 -42.34315847742148 -52.474426339038956 -inf 0.0 -78.26290656028951 106.92722231118087 -inf 0.0
3.586310344 -41.27861109589009 -168.18906386559544 -inf 0.0 -80.34571269242971 -7.591707878335484 -inf 0.0
3.724206896 -41.29988263558681 104.40934349070785 -inf 0.0 -74.99551759906612 -128.9131138661161 -inf 0.0
3.862103448 -43.339855770528715 -5.986089949671467 -inf 0.0 -75.10085476894642 113.4170309899021 -inf 0.0
4.0 -44.34770052915597 -90.02401331775287 -inf 0.0 -78.26216538918787 -8.972808300349746 -inf 0.0
