!Created with skrf (http://scikit-rf.org).
# GHz S DB R 50.0 
!freq dBS11 angS11 dBS21 angS21 dBS12 angS12 dBS22 angS22
0.001 0.9902511199591215 167.45559232987455 -2.7079993068401524 22.759715306832458 -2.551893265745928 13.772457335103557 -4.031379714769831 -57.21224704716605
0.008998 -16.959790968554834 -102.78078583126579 -20.60940179171788 -82.32542500764517 -23.28339023918289 -59.824964150233505 -10.080512614191816 128.48946538534034
0.016996 -24.542243713552576 -119.058891067419 -34.61917744284661 85.5550974928289 -35.255182900086275 -3.0711902516792926 -26.563304092146257 75.82051911251473
0.024994 -37.28689822906425 162.96644042438425 -42.18029718358303 20.791147026206957 -41.24710473103676 121.11878245653693 -29.35503241463559 156.46655309403232
0.032992 -35.03692771539687 -148.80018907427834 -41.883400383624036 120.49315138428823 -47.29330295344066 24.14069533509024 -33.269015969466416 -149.10658789018774
0.04099 -34.41228428801179 -45.573489272689265 -45.42518962970662 -116.10738759277436 -43.322711817059314 148.01676158628703 -35.4948971529621 -131.36266518865568
0.048988 -35.52738068455085 76.20804294777025 -46.528914558108916 -87.30492146974541 -61.357085230698836 -148.83977158714555 -36.141648676621244 -133.75877648464368
0.056986 -37.467397415134165 5.584958569910233 -56.0341232690964 174.10936671031706 -48.882191875707704 -105.79554102514136 -35.18126561983893 120.32075107732014
0.064984 -37.43932262592719 -21.144591296047768 -58.75844437097656 -156.30860484937938 -46.88793463072848 -3.119290309482616 -42.70196344932189 62.80205333222464
0.072982 -36.9398694488149 170.18725659813748 -50.35646162326748 -30.314856930522588 -44.0360310591855 -5.5048703405122605 -41.06758938812557 -33.77959577537414
0.08098 -37.61468642270252 -6.059168838144825 -49.89727667616017 -21.393309009438724 -48.09326336966067 -84.54963486795873 -46.337999573159465 168.90714115475913
0.088978 -37.61773284521051 -135.4818926308798 -40.84835160120449 46.841479219560156 -42.51582658907749 -64.8786716294724 -47.55667933710188 114.49954295641864
0.096976 -47.33966637129672 -100.90889075163298 -53.617512880172676 56.914189082666475 -47.06423769702973 -154.17267138544022 -35.74308454918257 114.479535091679
0.104974 -40.42480818340177 122.21959917268325 -54.74686734187381 -57.553925522514874 -49.340900484198386 102.16504832923418 -43.9963080168415 20.62356182728259
0.112972 -42.93426620745272 -9.371217147687606 -51.53019206200095 136.43915682232324 -58.96528398697083 5.453888107732322 -36.541883086194616 142.83735094515563
0.12097 -45.13335326223421 176.15044007359455 -53.732318839297484 -157.20462737656686 -50.69548525186829 95.81186394173919 -37.131998327410955 14.595978741973875
0.128968 -32.63472667724335 -35.7574739636054 -47.95180450494718 147.96228442162504 -49.82214368551959 -131.04177088683844 -35.70230044706149 76.62616687119815
0.136966 -35.52836214364732 82.56739276556765 -48.43538919494077 -101.71623976192522 -45.444277012990646 -177.5278526773635 -39.27902249153831 56.90169269604378
0.144964 -39.21260853750282 93.20692723141937 -49.77056737101222 -157.3686646800843 -44.72016343901182 -113.8354766123802 -34.669150738584875 64.67356406353257
0.152962 -34.8802473495271 -30.638735004151204 -43.95030497942338 -109.06368717985649 -58.447141732150804 -81.23090159071593 -37.34804366754055 14.168385350871537
0.16096 -34.25935292216632 -123.67417415791847 -46.64593578959415 -49.06147042019989 -53.01324777121085 -67.01157295599727 -32.0323430724988 102.98228852902808
0.168958 -41.57074639219151 -135.20112090317545 -47.90575284303658 2.824026766469862 -58.4291281756498 -6.362875069530529 -44.118902141511676 50.85420786780792
0.176956 -39.13553293874153 -3.6654953070818164 -51.348554186355955 -70.56874360114956 -46.34996188107273 30.68082202741261 -42.83358774782458 -89.10329004719216
0.184954 -49.958118273555705 -127.60699455852637 -46.27706257704526 32.167257124404564 -56.48224034204422 -45.854679479360556 -40.05886028644425 17.263742970854693
0.192952 -48.82197028484868 -177.0912696088142 -50.52666357849715 36.161804186524776 -55.087702229565465 -31.257054894808782 -45.799859281817454 46.54365073584103
0.20095 -40.25210605044308 151.35521047226396 -43.41971111523403 47.59752935530188 -71.03762483381924 -123.71904444644787 -39.10229190252038 -88.39064128749328
0.208948 -51.26200885963546 -156.84354565705615 -52.80598380803502 108.33257742548587 -49.9115071457014 154.45356257169274 -38.07447988568206 -24.089457122712897
0.216946 -47.885317265925366 179.10609460077606 -49.692534378281636 -12.610159562729416 -41.323426385431915 -172.35117995196148 -33.980105598139204 20.371705976775644
0.224944 -33.97040080999424 -100.10974893201943 -48.03717235956082 80.78397590688299 -54.61692885532465 107.70726229287988 -36.10523206351246 133.69558151335758
0.232942 -40.71176515695768 40.18893647730278 -49.55134024624126 54.8190567451967 -52.38650229043933 -88.91709833594487 -35.501953028914386 163.1462113895208
0.24094 -32.45362601147384 56.940774734247675 -46.733778859969426 -179.16457980694645 -59.213421385821945 -48.43692074992981 -39.60872659588808 38.43270816307757
0.248938 -34.00728916717031 -120.87205600822939 -50.72732766429176 -59.53432619104431 -46.73260687971407 -84.25841980128067 -39.12937520732111 40.81062350288195
0.256936 -45.323859806879305 -161.92569551843062 -55.76201350335457 -33.39832779273441 -43.03646317524872 -131.5979293758388 -34.123414280420086 57.662859500104815
0.264934 -38.86008292047506 -157.29412798793996 -52.71195879646782 -28.02131366646697 -55.459083901947615 -55.71856421201946 -40.01846436653176 104.76759416764772
0.272932 -37.57724282117961 -16.61972880289166 -49.711109561149 -44.80136992977835 -44.480410835500656 -144.93277973650189 -42.85726009939537 63.557325421018774
0.28093 -30.406148179518553 -20.902056430705652 -47.46361575532558 -63.13132599550662 -48.80069420723536 58.60598929032015 -34.42574605869855 -88.04306802291171
0.288928 -41.023059684584815 98.90748428108331 -44.77357604048571 -53.46103952971321 -42.46128437064328 -82.20285843502612 -31.662511888132393 93.00893269671437
0.296926 -34.800716811652734 83.44130134398115 -45.16260684209935 0.2070116682193101 -49.69857493415305 -59.03638277559818 -34.86827344200894 28.18774904679451
0.304924 -41.13215696772247 27.16159459275889 -45.343098491226776 69.68669250991425 -44.52413426688526 79.73477730428934 -47.778178296508045 38.53496901839538
0.312922 -40.66379347646262 92.5773267321211 -47.793214678286105 6.7849729708732545 -41.12207461704358 53.72984733708846 -40.831123910175265 119.21729619294581
0.32092 -39.99513136703239 172.616298931682 -50.53029099920893 59.24053804038089 -41.406268008883636 44.04687681996577 -34.696764842738474 -77.29505455273929
0.328918 -39.12130517537716 -153.41421747037725 -40.88607397060819 28.06465335744734 -43.27000766585756 88.621582286865 -38.585197828276094 -150.2538791646263
0.336916 -41.273271069791576 -57.05088075320579 -45.55619156518646 42.04651295911102 -48.36929331918241 124.70601372601786 -49.11870896056841 129.46634520411044
0.344914 -48.5956441944574 -122.06363669896538 -45.79952289344166 104.05232962427696 -40.73472102467716 99.36407700010537 -41.05109565178458 -115.25044161246852
0.352912 -45.84373632740097 -42.74608719941808 -47.16196891667242 -157.90046382470098 -51.990036112254316 -119.19126829837695 -38.47855897411164 -88.46564512542045
0.36091 -38.6303056474225 36.34085328802601 -47.127594825279964 -165.59226895687834 -42.37113137344065 87.42874601872309 -42.25478546551596 117.84522126652791
0.368908 -33.24259029551876 61.77605445721743 -42.284889806173496 41.71076157498311 -45.62742820250317 -146.67061582334972 -41.014498003800774 45.58424136690799
0.376906 -35.60713420743167 0.5717040074307496 -54.5049249836549 -90.1250392670624 -42.6111986900948 -127.42657739825897 -40.12393597949239 148.1421968579545
0.384904 -33.92510900022059 -23.93978875446704 -55.07227799464141 -58.18730097820671 -45.02307632171927 -4.65521734177554 -40.09886972511267 -22.46911477286536
0.392902 -37.163892651201415 77.7873183667909 -49.54509338704119 -161.6151509598746 -54.79535565231198 -94.03838612985899 -39.58877034862243 148.08183895932513
0.4009 -35.09682450788432 155.47602689266745 -55.97316936800045 75.55278059362838 -49.365472659947116 -88.33534042577952 -34.64871887845001 13.018408736726899
0.408898 -38.32137387265642 -127.32851938549915 -50.14458958971225 -138.39908931007616 -48.7501999184532 -20.39085480626542 -42.12380124775267 29.494644698187415
0.416896 -38.61997444748794 112.08044684949084 -50.40957085748146 16.73521070335143 -45.77023341705339 41.501174264703685 -34.66904491500269 -162.59201582252723
0.424894 -44.04441609554816 142.067073368235 -46.079254297811644 -99.80118207310481 -58.77707954614222 174.59597330522166 -47.99179382398726 -109.18622722318003
0.432892 -45.176473447825884 -169.35199451031644 -49.36410415433546 -72.39540025448012 -42.64020007142237 143.03827074603825 -34.03764781454309 -56.06977623033605
0.44089 -34.96283444523188 -146.2199779805513 -45.663029116013945 -66.14546743092536 -45.050366502121655 121.96243371490374 -37.13935165883917 117.55271393502672
0.448888 -37.14145766121861 64.3413131329406 -44.98324999149514 -68.76995134915344 -37.7079317461544 -146.25474329610228 -36.863375095580615 65.83570612988106
0.456886 -33.492301342617296 100.09814077160283 -41.66675086515346 -31.31977645827256 -45.53163365170665 -153.91424841452576 -44.118004447547065 -150.5825919875079
0.464884 -31.824691084335775 -123.95461585143701 -53.76981559887103 -170.12236326813562 -47.31107618942504 107.83641025422929 -59.578771555764654 80.93470760104645
0.472882 -29.947960747681662 -67.33676931045073 -57.03268957000368 -117.47294677394436 -56.00168714244834 28.188100546158882 -33.626601798785714 -43.79549678641967
0.48088 -36.79955107843688 149.9037910308516 -40.893067799421 -13.230685945700602 -42.044394549077225 21.059570649331093 -35.05717303313929 83.01916249578589
0.488878 -32.502262156586276 108.08448724323681 -46.161238613717586 -80.81294000270975 -41.621009815324314 -7.4407276717187845 -37.35447846265834 -56.24330704779258
0.496876 -33.2663014164804 7.623078108144859 -45.910146090905705 23.376648696287866 -50.51091360273408 11.658014841949898 -38.98858904574609 53.71823935488656
0.504874 -30.176721702846187 146.89058098581577 -39.57271400111915 96.02441085039305 -55.78575962205384 135.28576210774287 -35.10970393080947 43.737089273850415
0.512872 -43.31226061434667 -88.72553153115065 -47.47334661410338 144.45960051707976 -50.91744541440603 153.68743601617632 -39.593075078636495 -88.74672676257866
0.52087 -37.99604393238767 6.7946969619182385 -52.500557381851536 -115.06394951051705 -60.78427801101286 144.6898362722973 -30.65495723397725 92.72209762076822
0.528868 -34.32524027894924 141.27232445267953 -43.68748375687151 100.0391778071106 -47.57067254387968 100.44001988296854 -36.53043462808724 79.3746482269123
0.536866 -43.581679853646776 38.03520532330751 -47.668367426639435 -103.69188851921693 -48.3910918111438 126.94619106382304 -38.991670553145454 49.068952104189954
0.544864 -32.151549314332506 -160.3227924664473 -44.504616140391924 -168.2916438472121 -39.42288070777023 -19.716631466840287 -36.4190347078314 154.6837217557344
0.552862 -35.53665394933495 -125.92314111901206 -40.64236227893992 -173.96229977948622 -53.72099676693462 73.7722281947051 -45.12168061989187 175.72328126655663
0.56086 -40.20757758856129 162.72927747198602 -68.44366287409757 118.50100348307852 -48.02498174266003 6.013632824365378 -39.32931658537454 174.23825925102446
0.568858 -39.72897964220627 -90.33640819147318 -43.84079181418696 -89.397582256702 -48.77627119679394 -30.983450400381287 -32.77305251509665 155.29314708372354
0.576856 -38.470521499236 71.06286499988336 -45.34745895465241 -170.51438665686644 -40.421896934464776 -56.67636889163503 -31.769837287920026 112.46848117911325
0.584854 -36.67027418398433 134.06781058525877 -47.499378925826996 -113.5080624359987 -38.535115882518326 17.655593326183737 -43.311724601056184 -72.65540284489585
0.592852 -32.77817144376564 83.89122295449803 -66.54286672277395 153.90766210124931 -54.44523762261862 27.177061151874994 -31.08514997059524 -58.32903268392545
0.60085 -38.87427309233713 38.59183558021446 -41.67505615365953 18.75581075336606 -44.22413522321838 -17.569312478651145 -34.330787401027706 -139.30151846797963
0.608848 -36.713218353492536 30.45415638901277 -53.803332045126915 101.24008711794401 -57.82531876593515 48.134686965178794 -31.951312988822007 -151.6882819562352
0.616846 -49.26912248784348 -157.7654426032366 -42.26295955328066 31.850596707427155 -41.464859593498744 112.42057458992693 -30.39213549633109 115.02712840511207
0.624844 -37.50615281743003 121.65244059488403 -43.69204886152657 60.87708115048642 -43.223564224794025 169.11814278653787 -37.60470114683925 -128.22120701253235
0.632842 -39.80595315178809 142.8894348843035 -41.21525508421976 82.44579899213022 -40.47596550021554 136.07465130780122 -39.60998553109065 33.37575341704164
0.64084 -39.27592950487027 -139.50386385598134 -41.24020266453408 75.3778535657323 -47.851456087463085 158.1302108283314 -38.42888984107756 -20.786157891573534
0.648838 -33.26577291600121 17.365929846121215 -38.39877469120244 110.67160629353243 -49.45699118486424 31.56566683783979 -34.30568243305191 94.94788494290756
0.656836 -33.47620037164254 -103.25215225370117 -49.41542679480765 138.79998364742215 -42.55262693124252 178.69770186369246 -40.86773121858296 -147.02827693489687
0.664834 -40.87844486228656 127.61234977161875 -42.24681070619902 163.85754702384102 -45.984103060263266 -163.71889794651483 -39.87546257588034 -178.00172635439253
0.672832 -32.293089138966025 -19.00270814384344 -42.22897169716887 -176.65260782687275 -46.31989973901155 -61.057699339496 -35.69272260740165 99.2994365555794
0.68083 -35.57718221352249 -50.41412780082653 -41.9405670803183 -98.6961678548344 -47.05701555529025 -4.29527714748875 -41.03013041865579 7.886383453178098
0.688828 -35.252340649961916 -158.72007067603778 -47.584729324614884 -54.08531392678828 -44.92675005358706 -84.75602210484625 -41.16161096943873 168.01500139659638
0.696826 -32.73330375880475 155.85822113375298 -50.75232092335887 160.5214303018805 -46.95554492411727 -108.38443782314197 -43.40921275363192 117.4717597601608
0.704824 -33.4664762798544 -85.81487195558924 -43.08020572610826 -75.90747787369628 -52.045951389604525 -121.27797869735426 -43.43049937459127 -31.501626025486004
0.712822 -36.468471245592596 -117.1795842441422 -46.125828789304094 -50.81649935771476 -45.965200001758646 36.16297080526545 -35.86796172001899 -44.75429835702966
0.72082 -42.11694173265646 -53.98671764078563 -53.27652405126539 -119.39693464067152 -45.514289450175625 56.14990650115609 -32.52931093452747 -93.46323051987031
0.728818 -37.09860039302024 -131.89506673736682 -52.792878871820264 -148.7549982910323 -48.53508651996404 105.18154571058697 -39.90866556300417 -148.15108199081305
0.736816 -32.99475949895191 48.2232774433179 -42.313507201678995 14.64153643669021 -41.78309843717145 142.63000072540564 -35.52117439877337 -23.10506000375315
0.744814 -33.61449768702613 0.22635607676267488 -48.727819828823904 29.36435071197652 -49.523866536226095 -44.56214252772464 -32.8796669381126 -117.9800317741121
0.752812 -38.97778910932524 -129.53398032672033 -52.33378657042424 114.21123029055714 -42.588971947626526 -171.52508336048476 -46.19715279384192 108.36823650409174
0.76081 -47.7161012913206 -68.52027750560869 -52.97334315726074 176.49371328405567 -49.56201173444473 102.51885786456346 -35.08180269847579 38.42075527257808
0.768808 -44.410677050278665 38.934127948514636 -42.57115459116871 103.65138062433209 -44.365095583439846 136.27704525374944 -40.975171632137474 -118.5423766252578
0.776806 -41.31087277078362 -43.54872844747697 -46.156852346649735 119.52586155334106 -45.1014832157599 155.45279190859748 -34.50309971822055 130.90744197282814
0.784804 -52.442214415821155 -127.96305248492847 -46.817655938374266 162.6864879891277 -59.14862039961812 122.28913756160975 -39.700264839729016 -53.28787621326819
0.792802 -40.30167329225854 -100.74947075657494 -48.158782908684486 97.14002078039302 -53.18388586234949 141.39819539059766 -38.5080000851586 10.674874666392101
0.8008 -37.719797374960315 -81.142593976579 -52.12187737586195 136.63556804276215 -44.888890163934136 -19.615770912827816 -37.37954478520484 23.501021382197614
0.808798 -42.957852901178406 -145.60382033011874 -42.00324962409938 -46.86853376109809 -45.179767613547156 -44.6530410722224 -33.316004176742894 -57.39527040373142
0.816796 -41.873659951517446 0.7720295334125526 -62.55921995089036 145.4665158039561 -40.8255234779861 6.012561037595035 -43.46970524981316 -88.59110761395935
0.824794 -39.7027558874157 -172.92790084477699 -52.33894954971417 -167.9174241758993 -45.3069103871219 -104.90348933160845 -29.770128266279766 44.255759038059495
0.832792 -48.0690447760319 44.752534078935355 -47.57868567793934 -3.316834836313094 -45.68676831247471 -157.31219479430058 -39.858545343044355 170.71147819892317
0.84079 -33.25988736975265 -42.65194568336713 -43.97544805619442 109.83808134188139 -40.55611353888639 69.81723321923928 -32.439037587909226 150.9504025626552
0.848788 -32.73764095171042 125.31020147658984 -51.18140239603284 -100.2563831624924 -48.13956686319771 63.741386019292634 -40.824071430334854 6.238666918482934
0.856786 -35.06650651133568 121.99404450275772 -49.239568124052376 148.98085867933625 -49.68906815717392 42.471588904356366 -31.288968113599708 -32.409096046115344
0.864784 -36.096272580831645 -171.420011524389 -43.38127422768261 -176.3580643846886 -42.81494507161205 102.81374716666372 -39.14009792610875 62.03876997299822
0.872782 -49.24320652689759 -91.12194659415071 -42.84821965073132 152.06999634316168 -46.06185256594906 24.271910978818028 -28.524887064051864 159.7598661766327
0.88078 -50.38921079186494 65.54932997852845 -45.47939797147835 -148.87179147829892 -46.58241778972716 -70.04570897027739 -33.93510687414799 -49.08843999929086
0.888778 -50.55114502383523 -26.989840570594257 -43.767803178764034 -142.3856437181917 -46.970957061405976 138.58706372721423 -34.228045467686655 54.99393438474483
0.896776 -47.889138344085225 -102.23299450689122 -45.28488985759664 143.51828372562449 -44.664087819047 -53.62114105610764 -40.23334519404142 -152.26140465478323
0.904774 -38.473301257059745 -57.98431119014625 -52.007087847448915 161.55463028407098 -51.13198944274214 -123.85973666637386 -31.458680937805617 61.07679019043777
0.912772 -34.90349208884093 -14.357543421188645 -48.7950918568609 87.99303494398173 -42.707616235737085 154.6964723649567 -32.0083201647246 58.126085421681296
0.92077 -33.80477698272932 -70.88218496774107 -61.07278947306018 -144.22704955512955 -44.93958365091798 -12.751262668173228 -31.748229784193637 93.29752328928112
0.928768 -44.80941396354883 -40.69200905790012 -47.56803668729142 -130.4754355343479 -46.96434050758879 -77.39908134825951 -33.841768910236766 163.4352750325791
0.936766 -28.35409470875991 145.75518461932086 -40.62233082061161 -117.01482352318624 -50.75535075114716 -162.6386978697191 -30.87192394658124 -154.86980178636298
0.944764 -27.439158095121158 26.575935240795776 -53.323294702421975 -120.1802554128159 -49.78554057497493 -56.75082793401124 -39.47346745141904 -7.2617353125647846
0.952762 -32.35250308795906 -67.54248459331566 -49.06580565840763 41.953438101960735 -41.01412670401135 38.6806370044872 -30.80769768515009 62.63441729351121
0.96076 -33.91167815016962 103.4648283724484 -54.85306635727255 -105.36807226179717 -44.37547959077534 164.81556208092738 -40.989982039517876 9.032936592391893
0.968758 -44.133994497616385 116.67255232136998 -55.26941273980409 79.61599304052788 -54.030064075115305 127.41696826734173 -33.14158208014254 116.27498620814588
0.976756 -39.58496944185215 7.0883289788561195 -58.518901637981045 51.745576657206456 -55.09225263598816 133.17847240624909 -35.91720360339995 40.56262273043552
