!Created with skrf (http://scikit-rf.org).
# GHz S DB R 50.0 
!freq dBS11 angS11 dBS21 angS21 dBS12 angS12 dBS22 angS22
0.001 -70.32214536235782 -123.09246482559394 -inf 0.0 -88.49255638098839 -101.69051881586428 -inf 0.0
0.138896551 -51.995749403155884 -145.66750421554576 -inf 0.0 -91.06655113413937 2.6108788957698548 -inf 0.0
0.276793103 -54.26918736170134 66.43096092836325 -inf 0.0 -89.72258599601349 166.4996896884619 -inf 0.0
0.414689655 -58.49374060933528 -6.1912384495293225 -inf 0.0 -88.97375974908994 -34.827914120048746 -inf 0.0
0.552586206 -56.48374537165302 -104.8250225404613 -inf 0.0 -95.41979975431121 167.01482518082574 -inf 0.0
0.690482758 -54.12619212167013 120.50676410577842 -inf 0.0 -93.7747199227577 -119.75522442879361 -inf 0.0
0.82837931 -57.754227713055606 -12.632241714336741 -inf 0.0 -93.94455170487767 -34.6924644722641 -inf 0.0
0.966275862 -57.85172395110812 -93.86711513343582 -inf 0.0 -102.61291612957845 59.046133987336795 -inf 0.0
1.104172413 -55.70844377828945 -154.62627171080166 -inf 0.0 -99.28743421840133 -20.574456459153197 -inf 0.0
1.242068965 -59.43602922716042 171.99498640839528 -inf 0.0 -101.39467805315748 63.39011645373601 -inf 0.0
1.379965517 -60.45697642107481 76.05706120966317 -inf 0.0 -98.89590560609125 -153.41813668152864 -inf 0.0
1.517862068 -60.886474847937436 -60.04513523375097 -inf 0.0 -100.76559419020619 56.34872446505502 -inf 0.0
1.65575862 -66.24888250219993 -149.08795363221822 -inf 0.0 -92.24024332631444 117.909078788008 -inf 0.0
1.793655172 -67.95301782548448 -128.68795696005202 -inf 0.0 -95.34900624919726 -48.005357590522976 -inf 0.0
1.931551724 -75.5516929631801 126.95533425929489 -inf 0.0 -100.07551308649883 -39.81659799349801 -inf 0.0
2.069448275 -66.38436214610444 -176.96269320686076 -inf 0.0 -92.35066077020275 180.0 -inf 0.0
2.207344827 -62.31032205331332 39.149270412823796 -inf 0.0 -97.75137659899171 -11.309932474020213 -inf 0.0
2.345241379 -63.89258642329422 -32.33157952112749 -inf 0.0 -98.0563562718312 -66.03058036384765 -inf 0.0
2.483137931 -57.59299031617283 -154.93988741704305 -inf 0.0 -88.55346319044781 -107.81694602610328 -inf 0.0
2.621034482 -57.31013829819024 57.09478801255427 -inf 0.0 -94.97717684125945 94.07367589481396 -inf 0.0
2.758931034 -55.54422712021709 69.89780238864668 -inf 0.0 -82.41241110001357 -55.24389846405537 -inf 0.0
2.896827586 -47.91367702434446 -42.23475255681879 -inf 0.0 -88.0563562718312 95.53447081323034 -inf 0.0
3.034724137 -45.48325817969057 -89.68531598386538 -inf 0.0 -82.80475757843422 -37.87343233532942 -inf 0.0
3.172620689 -43.519633518372984 164.39934236403255 -inf 0.0 -85.36605646205393 74.9823854707917 -inf 0.0
3.310517241 -44.12639556466133 53.83927560573207 -inf 0.0 -83.74516207398156 -94.48537659399699 -inf 0.0
3.448413793 -41.73535426014196 -57.187366101170916 -inf 0.0 -78.61879842679866 112.95570384008035 -inf 0.0
3.586310344 -41.709509539181525 -168.49372978900269 -inf 0.0 -84.94645347944585 -9.038128097041206 -inf 0.0
3.724206896 -41.82712903395676 96.4979137697115 -inf 0.0 -75.30374642677243 -143.72277388574338 -inf 0.0
3.862103448 -42.20744753047584 -9.719929373864185 -inf 0.0 -77.24173257331623 93.18051959353939 -inf 0.0
4.0 -45.1451901005029 -92.22438285550821 -inf 0.0 -76.32818331552754 -18.43671792100133 -inf 0.0
