!Created with skrf (http://scikit-rf.org).
# GHz S DB R 50.0 
!freq dBS11 angS11 dBS21 angS21 dBS12 angS12 dBS22 angS22
0.001 -10.372546181308662 -126.79207551595213 -3.3930814080340204 115.73619114818413 -21.01540128694248 119.74569912683917 -7.614775738381212 -155.36684065430904
0.082612244 0.009414970028997166 -179.61436201446273 -58.73494227442577 123.75067822083942 -66.37965443182644 -116.76532116110565 -0.03190185870515088 -179.46615888682157
0.164224489 0.07258631176403238 179.55487438109938 -42.92802372137923 163.80257340371415 -43.607997132838754 -139.46710056388991 0.011591751079966198 179.32811486057201
0.245836734 -0.004912285056385978 -179.6378913646384 -52.049675224381446 -165.14762166875656 -53.892372531216076 -85.41473966720586 -0.019279989262115167 179.79188409478013
0.327448979 -0.01279616070987817 179.51885092150096 -55.993628769783406 5.098193893939133 -45.43907097888622 120.7917598372096 -0.11803639499710061 -179.21464791903728
0.409061224 0.08446961127695099 179.8670412506807 -45.63019881228398 11.462752732305363 -38.56249703646644 40.24091778464867 -0.018073476598481485 -177.69654291465403
0.490673469 0.11155731929570022 179.00295490714393 -42.744737835509795 -83.04756094543295 -36.55245070718608 -17.053699694131733 0.09366363304481436 179.74519175137627
0.572285714 0.020355339956641575 -178.44369187773955 -36.31019066809196 143.53336029868169 -40.30509874853297 -83.79281268560216 0.1921108305146689 -178.61654219101015
0.653897959 -0.049962280221721 179.84722921864068 -40.23405173603267 87.87539046189303 -39.359637047942826 126.71887348877083 -0.021440525869488872 -179.84662823955713
0.735510204 -0.028035323667468557 -179.98366506812326 -55.424747016901435 11.485913925625733 -48.92969527734039 47.989170510588 0.02749615079456574 179.99372602379574
0.817122448 0.12766896697707156 179.30339664078897 -44.04530871029404 -101.63837350930692 -62.8672081138382 -99.3304866524356 -0.20309737386797144 -178.65261562896958
0.898734693 0.08866068016338534 179.63863892123436 -42.35777075076456 70.22028978990473 -51.960771560906295 136.05233831133935 0.02239883494663353 -179.95724048911794
0.980346938 -0.040063155428486916 179.69589611511782 -50.54430902943718 -66.77646288817353 -39.732038826461626 86.28424568245255 0.3385175498034004 179.56625356036866
1.061959183 -0.08880299088018102 -179.15419016487348 -42.581432486817675 88.68008671454405 -40.965666059184755 -125.65592646973116 0.1070133066585573 -179.4249516776428
1.143571428 -0.16749305394923542 179.72422705379367 -40.489819425525695 168.41373842120367 -43.9736740640341 -17.63701393779779 0.05621508309952056 -179.48240953982605
1.225183673 -0.04278556213693125 179.5045844498066 -49.14869705108216 7.671132838409372 -52.280254911983306 25.360687503750082 0.014272440247660393 -179.81970361013788
1.306795918 -0.02498911567322444 179.3601207077021 -38.17420357130957 173.5549210585091 -41.19765341202422 172.04079444327593 0.21201844403033338 -179.10736616214058
1.388408163 -0.03793668666740622 178.6261844586366 -41.675369965269354 103.37218343956276 -38.43933288410345 152.20998334489738 -0.08713062009865617 179.79587293077591
1.470020408 0.23338222593630328 179.52609060167396 -51.20436385775366 -23.094042189949548 -42.20790680500346 -138.43735880045165 -0.11827936303456371 -177.81687286225784
1.551632653 0.025804316573631546 -176.92630426638394 -39.6972225215527 84.6447343438058 -37.83831407001331 -106.39856810126855 0.14535134910531872 178.84156997010314
1.633244897 0.003101677262082123 -179.89001486758164 -45.18428845502232 -108.10990479163588 -39.5715517268424 80.34507536215794 0.02962353904032576 -179.11888248804172
1.714857142 0.0868809005306991 -179.98755726007522 -35.475986961197194 -67.9113797005785 -52.82126982240487 40.126098307525005 -0.03796179285970381 178.3874139195302
1.796469387 -0.09186362143444068 -179.03270779383797 -39.23452616938959 58.629743467985 -33.340864950656545 170.03451472149874 0.27515098914466096 -179.18919601099773
1.878081632 -0.050008487724187985 179.83104801729203 -43.48499414926071 -71.21504102815057 -35.63079567588894 88.90470487510579 0.3640539357769718 179.66862762953696
1.959693877 -0.504015080336864 -179.9614155247051 -41.942589889535626 -10.908712399698523 -41.32441814842566 167.03110490200612 -0.176595018874467 179.85405762219983
2.041306122 0.14180883447633885 178.79208955201 -38.52403827285286 33.145817828008425 -39.13406970818616 85.9528401220186 0.17262501175580391 177.1140566824196
2.122918367 0.03150280975017353 177.69139633668658 -39.491522134415916 -140.04909287094284 -41.6147812737245 122.01543808401706 -0.07728016295307144 -179.53769941311094
2.204530612 0.19844773557995768 179.3263594909875 -48.55915596422358 -117.69834187761235 -30.863639053069612 -89.87424378691361 -0.37581494211296795 176.87093258549078
2.286142857 0.16491286836422997 -169.9087490840364 -39.692674347125894 -2.23209541349131 -33.31363977280898 108.17471261632029 -0.05292902195203676 -179.4601252094775
2.367755102 -1.22319887176363 -173.7648723959474 -32.86837632653279 -101.6574186914198 -40.75522197075398 120.82666428892742 -0.24196206735280013 -178.1931462716577
2.449367346 0.12533288401644133 -175.2763425524266 -45.19881600760219 -144.877099774019 -29.444885553560496 -12.164108727688271 0.8902832308935316 168.9022388382531
2.530979591 -1.080826831366832 -175.85249478328083 -35.34147306594142 -111.24655847578478 -34.04579855678085 128.06417455683504 -0.4490810677745517 -175.7937796708063
2.612591836 -0.3332033877163803 -176.38742492717364 -42.06952072225012 -50.0456616781317 -31.321975392974267 -99.01449427488006 0.3381025770090439 -179.64718080619144
2.694204081 -1.106614148367008 176.11015224029708 -26.378719745266366 -54.32046979680203 -32.58447109960089 81.0138133714512 0.1824466042116018 178.48031428324987
2.775816326 0.11641865817338752 178.0720037401542 -26.697191436807934 -12.558951348783522 -31.106733515456625 -36.76855920544074 0.31927704334213663 177.2666111533987
2.857428571 -0.71372237727909 -177.08900689177096 -54.012801112597884 41.65661133717025 -34.269681915800014 126.73772290787382 -0.19854724051300687 179.54495552884742
2.939040816 0.03589681058541663 178.97187944942118 -35.42568375551233 -94.94492479391076 -31.076020665648052 -153.5653153824395 -1.0838334497702955 175.79396204701615
3.020653061 1.6096303058710861 177.71852018596135 -32.48361839512094 91.91828899279481 -29.93794462642366 156.95172275336438 -0.9774278460406937 -176.4650836224034
3.102265306 -0.12158841349233554 -179.32852943990747 -34.10786576224271 96.95653688703666 -28.575288018781645 -168.37366983883817 -0.5109957360437258 179.19325930026835
3.183877551 0.3557167954271213 -179.85664007316547 -36.47163901455506 -163.75280334664333 -29.920289374531535 -57.12168588366289 0.03563633885639633 178.90998445093794
3.265489795 -0.6131105811420045 -179.8650693691734 -48.58884941990204 35.74350906871289 -28.650064375316777 44.43379894165803 -0.15552446410134474 -179.23582506286246
3.34710204 0.08520412062674085 -175.49081385411264 -48.94429438055434 170.2668463100605 -25.06654443992353 169.99637318065774 -0.029036476278170797 178.3814754524552
3.428714285 -0.7467442541343414 -177.3450905006786 -39.001373392149844 -21.22997680443033 -19.438180647824993 -40.07132639283031 -0.2727017917231923 174.49438044485026
3.51032653 -0.1447303972995522 -179.60935169675034 -34.95024799688473 -1.4254828221494522 -19.78022227489358 66.47896682560125 0.14939712826906532 -177.11146638956637
3.591938775 -0.025864947258551523 -178.04402206188246 -33.21484928622061 134.4729683773918 -21.628877488421306 -162.61131874360964 -0.2038923096666082 -179.50075657374927
3.67355102 -0.978058380909418 -178.75854385586774 -22.920027216569334 -115.5276548209627 -19.995573101272036 -33.887446691880236 0.1549705844630156 -176.72187087144863
3.755163265 -0.2014975086793118 179.91037900132156 -27.68487182964085 -57.89468650733294 -22.701878034656634 48.873108567315725 8.587889114856524e-05 179.7789501929897
3.83677551 -0.11507525782208375 179.26372431664643 -29.66551129144697 174.82053716858664 -19.98913312017432 -154.36386140423053 0.32902720014877584 179.06675872922776
3.918387755 -0.6700763866920184 179.68675129651538 -26.160937465433616 -74.21699662983896 -15.987274056543313 -29.49223051896135 0.3241886681413829 -179.17502483609871
4.0 -0.28850552589132156 -177.4130535481582 -23.52997428386032 14.062523090321912 -16.7047419496099 82.97695074408261 -0.02446383921070947 178.8822866763224
