!Created with skrf (http://scikit-rf.org).
# GHz S DB R 50.0 
!freq dBS11 angS11 dBS21 angS21 dBS12 angS12 dBS22 angS22
0.001 -5.4030617758333745 -36.19827685726844 0.2774446869817927 10.316681392280623 -4.165229344863112 -13.858323757315842 -11.387423954498374 7.37233849686355
0.008998 -0.24517388055264808 -0.15053423466950178 -41.79435568889001 96.69805849438887 -41.61071397315294 3.2750582049799335 -0.3442760294334214 -1.1990574967706784
0.016996 -0.15898935454203494 -0.837314090985386 -54.26418521526217 -64.9713646082432 -39.31907844662964 108.26112459758502 0.227970206871893 -0.5905831167884235
0.024994 -0.19404405946185682 -0.3333528320123458 -52.61649628498682 97.22656623834632 -36.29979910230324 89.82074969733573 -0.16311520018029224 -0.7179286305247579
0.032992 0.003362792511663729 0.7751371122385151 -40.13194303794792 -131.436578575181 -43.677142005281965 -171.87503415400047 -0.0801571094230806 1.0091282728434665
0.04099 0.03427044437081446 0.04035255113171417 -40.63952314140502 -133.86362139967164 -40.82608161070603 -114.18632442228122 -0.029165171524506216 1.4451097206447205
0.048988 -0.2476234444978423 0.49524983718136795 -47.56565261859176 -76.81157192579428 -41.7730590450913 -117.940013241891 0.09316624347019858 1.0586903361315867
0.056986 -0.07772352769409005 -0.6736351309343447 -39.06040626012935 -61.8347687336245 -44.37092869913219 -155.5082645277026 0.14695269549147177 -1.142277097983102
0.064984 0.04478084858073703 0.6878457022112049 -54.55358344536386 -50.72704284981852 -57.8389047130489 -53.13575523516677 -0.033837685514343754 -0.7306869048071137
0.072982 0.05796908595944954 -0.2633249910974072 -43.85077884618149 63.781284508837835 -45.57258685975508 7.984918779132171 -0.05860236232702227 0.9812568182427196
0.08098 -0.07601333563528422 0.09000006020913154 -50.73608316859867 38.074752297819714 -49.07751874186904 24.004761943421304 -0.13890994687012198 -1.101689196340949
0.088978 -0.05166956625936276 0.6393295446883998 -57.698970648350056 4.227046455226906 -69.15530053148994 28.96510376310407 0.0729887692368737 0.25267238140931836
0.096976 -0.11204144564420576 0.254560637967598 -49.74407867993747 69.55217188671229 -46.588973545741375 -39.563392650890044 0.09550643426632258 -0.2913093294236092
0.104974 0.06273750078063778 0.15825330279225344 -54.43020461034256 10.686904490860503 -45.90430792025943 116.53904700499179 0.08029220861653001 0.15487825610426326
0.112972 -0.06590301172627089 -0.0021884749202453163 -45.51517087244651 124.09461281575273 -47.75134348834222 143.62157124257536 -0.059641116765541374 -0.16999284767806763
0.12097 0.06542621149775316 0.03620317631719484 -63.71640680304175 116.56380309583452 -53.75854973540385 94.36160492755837 -0.045076572850652 0.17597419067826525
0.128968 -0.0010279803954419383 0.04045702707880867 -46.34702181637855 129.22679953331038 -49.430700582563745 -128.77086396004734 0.020138917247310727 -0.5928721887771325
0.136966 -0.021432222524148944 0.18450861202970112 -46.62704681962353 -137.7108337965122 -49.91704613152689 -177.76909711230212 -0.010422081369983254 0.09003264916318011
0.144964 0.017608046722640068 -0.23639158172642638 -49.495561776952414 -167.77198639763995 -47.80778848169899 161.3336974630026 -0.015527359779954581 -0.021050835742357676
0.152962 -0.054529955054262974 -0.6750975048585718 -50.453971864347544 53.8108870887034 -42.755683416513804 -132.28977030913111 -0.04320552499436936 -0.007783546387877536
0.16096 0.06969332807381035 0.03848342278341262 -51.29155354034238 43.11636136710801 -47.31047643640045 -85.81533173895698 -0.07803011018224294 0.4972429273820459
0.168958 -0.10446702074244377 0.6707984974380125 -54.256811100280366 -166.98002658806655 -49.84968835981883 -5.145937248368453 0.05376663410234569 0.06762772520568221
0.176956 0.13093069323048187 0.3173330204886519 -46.437078961751645 10.584684032243597 -46.44622507416823 -31.75227842653175 -0.06394311688409077 0.6997157751586364
0.184954 -0.009492659116806577 -1.100512808570002 -48.14694534450898 -5.744919168932182 -61.75775534278144 22.121752251616726 0.04427762664231053 0.05205074157954776
0.192952 -0.2362098797717838 0.8034723734236615 -44.0338767904329 31.54163549730422 -44.123356854491355 86.74342423910771 0.005859881222388959 -1.2126720104121322
0.20095 -0.15186078983827436 0.4273240258577499 -41.25985878017374 147.31420866263346 -50.16190487207665 141.10837621944808 0.1722484828028782 -1.0537517802645464
0.208948 -0.03070833673560803 -1.0563694904285759 -52.64613188796942 34.87428144299694 -45.86207822668228 122.91531488936083 0.07745387913777918 0.9464638526424847
0.216946 -0.07177936849174087 -0.46438111890600187 -43.6114449996353 175.3627639813293 -35.56764749226976 112.07238544996055 0.03828600447870976 -0.8088836937538532
0.224944 -0.08333925447082666 -0.6842395703390751 -51.31241020597181 -113.35658101508007 -48.526880174554265 87.87400940699706 0.11780243588368954 0.43980782261391016
0.232942 0.0005312104930525327 -0.0008355505127059603 -34.7108680504284 174.07612208785508 -38.94500093303836 160.0318169070081 0.23046060696144136 -0.8511614137472574
0.24094 -0.2190281521080489 -1.3037427548269156 -36.57352680717956 -170.56021207611442 -45.45024457607472 -113.43937006017724 0.19786269155683964 1.0912399502506815
0.248938 -0.004612520050000207 -2.6480323763167064 -49.44960967334332 -165.02607768578943 -38.88542492896665 -97.7677858342517 0.0388099906979622 -0.5671425792375897
0.256936 -0.21504788785118786 0.73209983922856 -45.88614131247329 -27.15170233415953 -40.782976214410525 -9.521405229841475 0.01932062711204091 -1.17464625133387
0.264934 -0.29751378656032257 1.0387743296352947 -41.54162214164671 -67.00545639155611 -41.980667750506136 -110.5087389632844 -0.09188120477287177 -0.24718786755801567
0.272932 0.030499135313942487 -0.882280722324992 -63.641636941516495 -31.78829472967553 -37.471222661230044 -35.343106077617364 -0.04034591244761922 1.1251369504846056
0.28093 -0.1252738101254232 -0.9473300130798302 -38.551759202452416 -61.632946379183096 -54.981106477401084 109.53194149848859 -0.026359472580954536 0.20785927730947143
0.288928 -0.10189934891795718 -0.02664315854804722 -45.82281110764577 -45.928885209321486 -38.09911581037199 -22.11551707678632 0.28565054900091763 -0.928386054714498
0.296926 -0.05801648099630578 1.4930961808248793 -41.86879321053596 3.2898441054311904 -53.759373822565415 66.16292016978606 0.005682212917486111 0.530023814895503
0.304924 -0.01977514322030493 -1.099241111519384 -60.85351668974208 85.20996693533976 -40.73739565150227 41.95979161667242 0.11210165424909997 0.7463334429289872
0.312922 0.18165817923847996 0.060740952038596877 -55.86646524133447 -106.60699018187097 -45.149886988272996 -111.63274092040398 -0.1728310845955579 1.063114624929676
0.32092 -0.15712051482776584 0.4193244639404449 -43.80198129223093 5.34403343210726 -41.277474212967896 61.93093951571696 0.19385243525358212 0.2986932139091572
0.328918 0.1343735746365195 0.8110561624884547 -40.66417968164902 55.61498001170738 -45.365436352796856 140.55390524117826 -0.09032278727694665 -0.5639585268275947
0.336916 0.13481837620206627 -0.09458029838225096 -52.41461015425156 145.0386225113037 -49.64255213593521 36.15515551648907 0.0005789771510928165 0.24460519795238678
0.344914 0.10875517804374404 -0.12093000987818459 -52.121398571844765 119.22664492184846 -46.61224106575418 61.13584343164692 -0.012913081051411389 0.39220581185244835
0.352912 0.015834899252727387 -0.4926977941454354 -43.70631253589658 149.707896953797 -49.70280031993525 141.19752901791506 -0.0816657413665693 0.1980302200802241
0.36091 0.0431557466533038 -0.22334986350511932 -47.823615123015344 142.98465880514954 -47.36878503875937 140.8220992606034 0.026031473278903716 0.17296796897532718
0.368908 -0.08519719518453019 -0.35694138496855404 -64.26678164166515 -79.61674079788757 -46.26698764885015 163.87766048067436 0.014445495973113972 0.06779817704330525
0.376906 -0.05442238219238053 0.24215545444423997 -53.39946093719863 136.22752122761224 -50.728979479141294 -164.47990711319133 -0.03273289607312391 0.4663140777147972
0.384904 -0.006356154490625401 0.08268855637441813 -49.111579703084686 19.53300089707079 -54.14762525194631 110.42332992500947 0.03235030603420514 0.3152102694795659
0.392902 0.05924858775285254 -0.687093764584748 -48.79663236699251 119.74697016231379 -52.002699175745725 77.62296264102396 -0.006049428869156077 -0.28495495295343304
0.4009 0.015672751639854158 -0.17821522681143195 -48.015589906076606 -99.55203294390525 -59.753196682559924 76.02776724352793 -0.10071925715607419 0.35538815921287786
0.408898 -0.028394946951323122 0.5957616186757495 -46.098273823361225 135.15974139761556 -42.54855494701473 138.01841310568764 0.00295060127740765 -0.5177988587613378
0.416896 0.004394572568745418 -0.43875492975221536 -53.634166968021816 -25.66691881061934 -51.793464380281975 96.59606834199015 0.06449476987334632 0.6690994804087095
0.424894 -0.1568907294810426 0.6651144369906687 -50.917221872083154 -114.96724747963006 -53.5032765520082 96.16918644883967 -0.04633372649350381 0.1429578342964135
0.432892 0.0746878138693746 -0.5918327374205127 -45.86795622515497 -163.89549327316985 -42.549038440665015 161.4191013311265 -0.05324300835757914 1.2637861148657943
0.44089 0.11416874135309502 0.7674590269919611 -46.40841412259053 -91.82900781254702 -43.306529174791 146.2129241121548 0.07749975927215322 -0.03938866917620539
0.448888 -0.031953702552588406 0.0910171868886965 -41.44856598777814 -64.34649286228499 -46.09312168428588 -121.38692507838938 0.17488597696870756 0.2737184467717614
0.456886 0.023194788952348045 0.26332849449454976 -44.40264817722057 -11.20161476322319 -52.46941356086631 -138.97019067903932 0.02657706888887995 -1.3777534551933597
0.464884 0.05583647617822067 -0.11658613026286678 -38.55141120380957 158.29586534558229 -46.50227594740511 -36.51912755357944 -0.09982356299025294 -0.2538363363363942
0.472882 -0.09292873054208355 -0.4463950814935423 -51.87432276507742 -176.2963295206901 -42.042479554521194 40.92882429115108 0.15426486487408322 -0.12402952679062387
0.48088 -0.08752389900192598 -0.3482323574530435 -54.26629171601161 133.77464076712633 -54.41698102501078 -109.68649915705672 0.37999810866269823 0.4545481871702126
0.488878 0.04602861291452307 0.027231464162216397 -57.119482405155765 14.74082741713905 -40.98247182377137 104.0327639547995 0.2487128057011056 1.5140054921962975
0.496876 0.039217362106419996 -0.8031304941720078 -44.16080412894274 96.60688993345902 -43.08714995011144 89.60151703256332 0.004935374985188191 -0.1357992700448456
0.504874 -0.03003699529080894 1.5198077372396326 -50.23798616953077 -82.75640472227191 -47.64194974843829 51.69793206027701 0.1060925705695992 0.14814649656999546
0.512872 -0.026396709689869204 0.24751706594694958 -50.92438791604798 57.36248594712032 -42.34162285224734 41.65515555653683 -0.21624543030930102 -0.7547840701658525
0.52087 0.04984391928671262 1.0848089416295705 -45.58902279544188 71.22459305471813 -58.54168540179289 -148.54201363064658 -0.06475102130313776 1.540078690661237
0.528868 -0.06822432859710825 0.3144685304588794 -53.831332266457814 126.52202821603625 -43.64461605780073 81.01908658872486 -0.03619215668004742 -0.7605674092862565
0.536866 0.004709559308209016 -0.28231178707597726 -45.228469748587756 152.55937230330812 -50.73453760484704 135.4046427595774 -0.050563417209706786 -0.191844082957124
0.544864 -0.012891478356375148 1.0249527197259527 -55.304586939751175 124.22887376807967 -40.69741214139121 -177.28895495911442 -0.04360281074095648 -0.6660929823988088
0.552862 -0.014275803172664601 -0.7490216432382021 -46.04811127584498 -167.8084050919408 -47.33954120356245 159.76131469535142 -0.002414917407960677 0.9570683360825049
0.56086 0.08527513378250813 -0.14660318598428887 -44.452153942448696 158.57866275260812 -54.92053933297435 141.05531738757847 0.0008931454987081895 -0.31946500299099506
0.568858 -0.0033575073962119374 0.08843300889865825 -63.617678053683704 -129.22291666472137 -53.26137843464736 139.7179779792924 0.014451873937809718 0.8036337471389492
0.576856 -0.005369298286704847 -0.10633798114461189 -47.08762675297508 -68.36829012487618 -48.855351332642634 4.9634556790745945 -0.007001433170688329 -0.5390158244967787
0.584854 0.03909958620921972 0.1695970996168436 -47.0709372078075 -54.81258203062792 -45.80182659472718 70.19413792696396 -0.029951247328473648 -0.020614323856672587
0.592852 -0.018666052189513387 0.3778037635782141 -56.513526331287885 -45.37704133233589 -45.369305447402894 68.12012557955477 0.06337640817511912 0.38689114725895163
0.60085 -0.04652209956209217 0.11122920312591884 -47.275788882722765 -0.7597587207018155 -54.44862493821005 -13.341835763406607 -0.01676978826392036 -0.527438322200192
0.608848 0.0076331105510165954 0.34341116981594694 -49.95704533715827 4.743646112541502 -49.12001979321049 128.30677634135094 -0.1232291410940204 -0.5715511580830516
0.616846 0.056009763004158664 -0.12615960310373353 -50.17002029923511 19.085890855274858 -49.90390837339295 148.97697188032285 0.1468129469075569 0.36231529413381564
0.624844 0.059347775346510374 -0.06361509754099907 -44.27226402006505 108.97635932578456 -44.80553223839648 139.0475108963416 0.08824902186834647 0.03287369438611217
0.632842 -0.038341847672660405 -0.8916525493414638 -44.93655460100035 114.78047575852543 -43.62620062489664 179.28961466071277 -0.10160130468326928 0.7337957378594546
0.64084 -0.007407119175913628 -0.5249826791336434 -42.506648966473065 111.04064614943049 -46.238056966157345 162.4432335100612 0.08644646651489116 0.06413401568497785
0.648838 -0.08911317852457794 0.4258691167359126 -50.82948368221179 139.34565501164715 -36.160215567608326 -154.7602556281707 0.07728857862435151 -0.5795729837167497
0.656836 -0.11451394252090512 0.9871833101749988 -45.44569853307315 -151.68815537845757 -36.60276420991916 -89.48412239504927 -0.17204270050422038 0.2480428746657656
0.664834 0.010837006462137101 0.31384746318421286 -43.127685658601685 -115.86215659227393 -38.71915139425266 -145.08328272979935 0.1574562231553574 -0.47236308418824
0.672832 -0.03471467211225378 -0.33993316416659125 -40.78331460324432 -171.4852944105968 -40.94442037023281 -106.65822342090136 0.17957407586250865 1.1588816724656323
0.68083 -0.04296159727476551 -0.2656587868741683 -54.15903783854329 114.56360597271915 -62.39181346347168 -173.50793493921356 -0.22891956948316503 0.12056698215011478
0.688828 -0.07674866775252312 0.28072075359690074 -41.53928174742817 -83.18521875820392 -41.40995234734185 -73.19941706136431 -0.06324388898443647 0.8430135157353805
0.696826 -0.0603654086931065 -0.16243190790237272 -44.859984421741146 -49.28139541946836 -45.835810581858965 -21.966226345768252 0.04679427847166525 -0.37183864148295265
0.704824 -0.004997476261005331 0.3297507743558513 -40.52766897177438 -67.52773078620031 -49.28102807649576 -151.7407036451179 -0.015379738383041155 -0.13059774399139962
0.712822 -0.013830404275995491 -0.6977319916772079 -55.461533167963736 -79.72254553421136 -41.54805628961568 16.442496483076578 0.09845159615776436 -0.02252219488408982
0.72082 0.12378763368312602 -1.5725908687225298 -37.800136837087464 -6.098216360077168 -35.317626672984524 71.59898682601282 -0.04588756665725913 1.420330392513789
0.728818 -0.18734895588603726 -0.5589090667798727 -39.194428673694674 -14.555563026622554 -36.94292582342968 73.0263878149221 -0.20295142678117917 0.6977385911169987
0.736816 0.026985135637088112 -0.8555955383795752 -38.73972084628699 89.88720603738568 -39.626668729363956 39.116763220865 0.1481228923468354 0.18645105404984225
0.744814 0.12027802519130512 0.45573471591442405 -39.9198762786109 82.92544630443575 -37.80759469340431 -153.68359370825806 -0.11314048341757782 0.5013535962558332
0.752812 0.024055973627173335 -0.752775111143924 -36.81633829714028 46.31413942583072 -41.25838959154166 150.02649540526954 0.2000333911468692 -0.9113046233032057
0.76081 0.030041289180898455 -0.5189306708443155 -38.44475323461153 16.45640523829794 -55.15694723582514 -9.904730832770593 0.10620208250242195 0.7355519248157175
0.768808 0.22503002855925516 0.09727133852339472 -49.336529697722085 45.05875875422691 -44.863758973927816 154.8756834854468 0.08590334033050503 -0.3514058552401751
0.776806 0.12324577943757327 -1.2672110790285276 -38.54783196503751 132.0539146517702 -44.97029688896389 32.70070269540469 -0.15354740260801333 0.9858423325632862
0.784804 -0.18611782153025422 0.5392352305433332 -56.93731687353651 22.496705430668214 -39.43802945135915 -119.44081619577365 0.2241811586448558 -0.10519832662782608
0.792802 -0.243643751573898 -0.5045867826895183 -45.01779363909754 -87.42859183335396 -52.84670640682321 171.5852661730822 0.24913966695602546 0.065236067838892
0.8008 0.09065771089292221 0.7223457826408995 -48.94886658020717 -64.9336630699969 -51.7004143114887 172.97324522742832 0.1913394996037675 0.4775166326757925
0.808798 0.048327833843362686 -0.2905535480346162 -47.08360086163985 -130.6247628868331 -48.75821192315012 154.211806739511 -0.1179009893766232 1.2951345276131032
0.816796 -0.04027690731965211 0.7853050100991534 -50.989024711847705 175.62881791706982 -41.34038959159852 46.74430101811704 0.001585764816088065 -0.7444548408589828
0.824794 0.004813997330668571 0.4356355766949517 -54.14270688181274 -41.236761312516315 -49.65998904265991 9.40367637047066 -0.10886838432596897 -1.5350023210015085
0.832792 0.046099799945459215 0.44401997039987073 -48.552235740810815 -90.86039055521672 -50.33957306718854 146.3342725473684 -0.13363311237733907 -0.38977740151042634
0.84079 -0.1444478931522585 0.14460844435130696 -45.802445871771326 -147.83752362584238 -47.79531160266658 40.002554726843485 0.03825166589336795 -0.49247271058002157
0.848788 -0.035210155973518606 0.5689785878384942 -45.87106866955971 -74.4407390765013 -55.2522819481026 -32.01657668477966 0.09701788787690938 -0.6706511241178748
0.856786 -0.2526450329607265 -0.9377631449194404 -48.11242053271678 -2.9324324285448493 -50.348904763408896 -110.0963021252183 -0.24192331844100104 0.3856834691908314
0.864784 -0.2831285953812638 0.324238959179841 -53.67912056732634 176.27955550880947 -48.76310514632116 84.68283362475745 -0.026535234415918943 -0.0007274655067005303
0.872782 0.008921614106126768 -0.20753344012938718 -46.737727292588154 127.19500569540536 -45.5386316764575 -178.37971868813287 0.1759693568382727 -0.41952092566056765
0.88078 -0.4834755824219316 -0.9211218456033526 -45.735779161404444 157.8606136026567 -52.85387941301867 -147.44129581537064 -0.007652077591711525 1.853293708955373
0.888778 -0.13555812873535814 -0.3583353978274253 -47.11600037352259 -23.147735670352823 -42.21393055012573 136.74124598209215 0.14389763165979266 0.2997164779093005
0.896776 -0.12249679499114279 -0.5326326497108488 -44.81486879782307 -150.67664794632034 -46.86392622684805 142.5734613123755 0.10827845136724067 0.34549724222627665
0.904774 0.13970078057783195 -0.954729977162847 -51.346753740837485 178.0764978055761 -42.19424507066296 123.4358941703817 -0.001241737940471657 -0.07019098412601674
0.912772 0.07023597895884043 0.24459914051032144 -50.6870553769744 167.99516087259667 -43.09601519044613 95.07448343890134 0.19682653352806445 2.5078841054685017
0.92077 -0.03036749734017547 -0.20301737229045036 -45.30234036520932 -64.02440727778094 -46.871177735530765 -145.53942989088074 0.2598407200947255 0.7534997227790952
0.928768 -0.06458224432653356 0.7690369691276804 -49.03211463426785 -67.53488850951166 -46.82912124668639 -167.15823284635843 -0.012383201889166846 0.21245851455220674
0.936766 -0.260179424710252 -0.4321229227479953 -39.55031749959997 126.45272618177466 -47.5682098827228 -148.14689321454605 0.25854848455254964 -2.326458392230102
0.944764 0.01024538951064591 -0.4564294513079715 -37.84733329251863 -38.288975267197024 -53.15987472266397 -51.58802981535894 -0.0713607768567747 -0.7384834208686785
