!Created with skrf (http://scikit-rf.org).
# GHz S DB R 50.0 
!freq dBS11 angS11 dBS21 angS21 dBS12 angS12 dBS22 angS22
0.001 19.37935940049927 -38.35264147139702 -2.767252300189634 6.646862867214575 27.570097560114945 -58.13959657532651 3.720248754861461 -28.605543006594772
0.008998 0.0070867104476896306 -0.1965759747199066 -42.79505309881476 94.90303425713653 -66.20933383471737 116.17447075123324 0.13528180823874797 1.1603731467951492
0.016996 -0.012819217590680228 0.9840077813637592 -47.608785997323295 -82.41732067570373 -37.90052300305277 120.56283500302757 -0.11227893457995068 -0.30387772267286306
0.024994 0.08568219392607089 0.4419336278750363 -46.10183181974377 -159.19099085425506 -41.177290113448635 -140.48572640646287 -0.00692953235451871 0.44163872940221427
0.032992 0.25920170602489434 -1.8248130692702413 -37.745555695940816 -162.20219276000697 -37.3807353496952 -141.20388705597063 0.013527412400486783 -2.025804636646166
0.04099 -0.10132944835355157 -1.6787915582571686 -46.24569870717097 -99.6724174060023 -34.87396813714856 -145.87018146419808 0.019617062420873417 1.147497888874544
0.048988 -0.019783105222354665 0.9761336711198562 -49.86979385619085 -7.644094449736334 -39.764397801084506 -174.7077088513878 0.2092179949089286 1.4868973946433097
0.056986 0.14612920156169196 1.6240635154412744 -65.38456698526855 169.20769684495195 -47.25156124225225 -66.40438446964501 0.04338054076301161 1.4409574477549105
0.064984 0.20948003996641268 1.3323626465902407 -41.55500593390225 -117.46654877785738 -40.563489964659425 -21.671423793506857 0.0043800468908264615 1.4548310478165862
0.072982 -0.019723196517680515 1.4157535648707125 -46.745044370505084 -22.02479052691887 -55.666357903574806 11.979374384301533 0.09580255648735633 -0.04244339590222829
0.08098 0.0061513245648127084 -0.22298252112701952 -55.61522245228892 -161.018433447573 -49.22570392841823 49.80901268786661 0.0024754830745268696 0.23218994508341617
0.088978 0.09261006849492429 0.6854051384749256 -51.43296595091897 17.493373545125745 -42.46144124569919 44.17647184204582 0.13290986920543163 1.0961835780243796
0.096976 0.20195434680912003 0.15036893206979238 -48.59994516092367 -28.49810375109621 -42.06491415431447 41.978469037348454 0.01864663706745639 0.5919264063884992
0.104974 -0.040532690699740144 1.4491626941639828 -43.982874414782955 87.32953203356703 -55.62485214090163 71.33044646694572 -0.0463697174338068 0.8762235623174399
0.112972 -0.05892947481492387 1.0644729157263837 -55.80264789105476 18.784709232663445 -49.49648812428851 75.3071046003198 -0.07570094045298925 0.8308552253320081
0.12097 0.015120529871412682 0.634215444463191 -54.577016908399926 143.3472743417253 -45.0354212831921 151.5042354079937 -0.04230327286070881 0.9275607457841547
0.128968 -0.0027900748003743463 1.1454014355397082 -48.41687819979836 -179.80549235269808 -59.142385539749256 -77.87260644760225 0.0338437115114453 1.1422088560917394
0.136966 -0.03848211345281107 0.5320232370544951 -49.92998124306206 -95.65756275182852 -56.62326881863409 -110.91049657896443 -0.04438119860113513 0.8951563356327045
0.144964 -0.11597947166517157 1.1797300560597557 -49.80824975671951 -157.92966185655823 -46.91163857442943 -144.29055899168307 -0.07608233444645196 0.620444231672006
0.152962 -0.08463012588037061 0.5120458316967029 -50.33593306348451 -142.62289623942198 -43.743935608708654 -93.40411526048364 -0.12724462318932142 0.522547176132731
0.16096 -0.11663655726431763 0.6694006634523998 -53.532001253286424 143.84121600489428 -48.33860130133001 -170.79917826181733 -0.051675310169288086 0.8179849732484795
0.168958 -0.004330173458675027 0.6917466417917171 -50.53354410392974 -123.76485853213615 -55.96062267962786 122.50224538419499 -0.1476846340068389 -0.009855074053873704
0.176956 0.037261253518826636 -0.23645077371104625 -60.645471600798324 15.049047975371662 -53.92307781665715 -77.87688969653613 -0.07927614496103488 -0.2719208358833149
0.184954 -0.12212506234674933 -0.3087449458714849 -62.970432250835884 95.48362038332907 -43.81453061806984 26.07915012926066 -0.14452518736056197 0.1432852805151455
0.192952 -0.2501260696233081 -0.10191197150341903 -61.95985010876491 -70.29659461100856 -57.35279474450128 31.702502155315123 -0.16209251017835674 -0.03950466982774646
0.20095 -0.09883656715471095 -0.12815722320605574 -44.54328371851467 59.90497255703473 -45.851998682724 -41.35374811283145 -0.026820283495795627 0.04857648832554031
0.208948 -0.2046960989994018 -0.7953091524700596 -52.355640456792585 26.780421768404437 -42.131954913397436 145.47971596621088 -0.13315924165114842 0.1795413632484011
0.216946 -0.18091329517918617 1.623165571509005 -40.6272409172888 118.1542283885388 -35.67386451596679 153.14530224499492 -0.08293475894360874 -0.8747351968291786
0.224944 -0.16835352113489233 -0.48597999595094227 -62.969367723964055 147.6427458249888 -48.84613653289204 -168.76970831398734 -0.03259076158129245 1.0034746044787384
0.232942 -0.08594491426756208 0.7319119830961658 -37.353848119298895 171.2967933791123 -38.348647992211106 -159.17149731281683 0.07521681164852187 1.1698239458421495
0.24094 0.3334275306955279 -2.3265739329980035 -45.32860891548006 -169.11176654168054 -42.33516130828249 -96.22732049020354 0.17492730988741892 -0.5137968526896339
0.248938 0.11240762996119856 -0.6757967337109869 -43.983696469775815 -136.6673254656321 -42.60456272685595 -96.27768341145538 -0.1694576896259259 -1.338800517491612
0.256936 -0.12998411668651488 -1.524213528000091 -37.656153299015045 -153.06243206723695 -51.92599010540487 -78.23512845345871 -0.16679874590839902 -1.7523290521268544
0.264934 -0.003346488158790642 -0.9145544748538036 -41.624364876680005 -94.95287348037765 -46.8984189755742 -142.56247064523782 0.06202695586663649 1.2577538301431277
0.272932 0.023840058872988398 -0.39860287138573863 -41.872219342065044 -12.017334364460485 -41.50631844671597 -60.49483005161074 0.3401167103975555 -0.7254016746368509
0.28093 -0.21523814130966423 -1.2062605894116283 -58.107418189290186 22.10658699019372 -45.41220874312454 -168.61761220342115 -0.062391263220318155 -0.6891761830448762
0.288928 0.2860015909778048 -1.3137776919271078 -39.43035394805383 -16.68414633069646 -39.3882686016221 -11.791363422822055 0.03233993994809594 0.05855109743215093
0.296926 0.0905467580541066 -0.014159801836346447 -42.01173755559722 -25.156954267234347 -42.05913712228788 -28.813988991670175 -0.06913323310312876 -0.11274527067669189
0.304924 0.05525143592560642 0.4040236988117854 -45.16856051567722 66.05956354128678 -38.280002823671204 -7.79944132164141 -0.04755081788385915 -1.3816791869977316
0.312922 0.3447774527335274 0.858012725440146 -54.36652221547375 111.49498085493359 -42.08547885123373 35.47721407852469 0.18386121465153418 -0.2984215943036906
0.32092 0.28058834293506446 0.8194497291081789 -45.11866707585372 102.32143593313617 -38.42959430805545 101.60081587218231 0.08287966170576 -0.23025777173666978
0.328918 0.13725410846724428 0.7759380454009466 -52.927467203072155 21.413493324213867 -40.963679559552226 71.6458765027501 0.21308718611962535 0.07619415077753196
0.336916 0.2117740264136864 0.9142805749674964 -45.9654143071845 170.6638413696903 -46.50567149939263 126.99368972076842 0.052768981235275875 -0.07480357157611212
0.344914 0.08135310664718623 0.5782282788202012 -46.89399541246025 -135.8704177063758 -50.47658670718998 98.34817890245634 0.11885118286447319 0.38730197557339574
0.352912 -0.00269167987234409 0.1542498147572631 -46.14189249197152 -137.47224500751184 -53.10422588513496 -140.24478297361213 0.04935623102085541 0.7163355582701023
0.36091 -0.13303739929707184 0.7256421459937527 -48.29777763911526 -95.47554167618127 -51.675786612748304 -175.76989221316938 0.03478498950019446 0.35384130273367687
0.368908 0.025001783795646375 0.32737964117315604 -54.53459037392772 -85.04165650185975 -45.0580325417409 -115.63889835065424 0.036580578855118145 0.9261748948553853
0.376906 0.009662076405243962 0.9876235142818295 -49.90093419542772 29.787035810727392 -48.30359750692759 -45.77287740872588 0.04315115549954462 0.7300901884246402
0.384904 0.01314583628658595 0.2929284084707488 -49.691746968638206 -22.51553862749901 -42.30778028012558 -24.99845251899499 -0.010993059973330261 0.2712889807406123
0.392902 0.06976165623950423 0.41971905431898004 -44.76024485529378 -5.212301030095036 -42.87966908583265 4.8658033278699735 0.00816796157510614 0.290185684754182
0.4009 -0.11825357862044834 0.5785667004998802 -43.90457819209213 45.896754515283014 -42.66707533568141 56.14788732673527 -0.04341382127469855 0.17780100058833936
0.408898 0.024487052965572135 -0.08994035517969053 -54.78943118361283 67.38171001922304 -38.90605306114752 105.74158815449745 2.2264531417752924e-05 8.839343521987874e-05
0.416896 0.017643514932902005 -0.28709099793877446 -46.71202881073154 125.31992849730716 -43.51380670574417 126.37794639214712 -0.02810110225983783 0.8867440797771959
0.424894 0.015693598958690155 0.7813334244037281 -46.56475215368097 124.41240754188301 -39.645229288003904 138.49180065117946 0.03277826550643858 0.34938188180524615
0.432892 0.14190141707104106 -0.7778722570855042 -40.440114795404085 122.90048033619888 -37.19854242346167 -178.08243895496432 0.1423596485833255 1.0668453000188622
0.44089 0.07054628597210437 -0.27872923509701314 -44.43266795399306 170.65958442741245 -37.174309687980525 -173.82649464150475 -0.18664357180479232 -0.3979460467688509
0.448888 -0.12110965836785016 -0.4241206164728446 -42.35184505173227 173.32008382850665 -42.53310734059852 -136.77419933939768 -0.09865211535413423 -0.18640197500650765
0.456886 0.08372720860474528 0.20357380997588304 -58.88078646213417 -115.47724804754785 -34.13208103388318 -114.78412321666362 -0.0278582305044084 1.2174966542777905
0.464884 0.05475755495405553 0.10627438430562038 -39.277053183477555 -146.37648822980287 -40.29272085054718 -46.13285017318303 -0.013075920027039055 0.8868374241854846
0.472882 0.11427403402758281 -0.09034283983031208 -40.158079305230046 -122.93753201489382 -44.086784291815746 -104.29332570248518 -0.10002858196297143 -0.09459178313631696
0.48088 0.05131052226503938 1.8174508031785124 -40.13607849962796 -153.4546587063697 -38.845053020411555 -16.03502116071413 0.0345175600538891 0.43865813373802737
0.488878 0.009899399075304238 1.367056088036708 -41.098346840439305 -80.43819796234544 -39.47677246250148 24.972705370407667 -0.07997982078261712 0.4717502096324263
0.496876 0.08822624058623693 1.0720751338643881 -38.22867116367113 -28.185676789559885 -39.28503965631414 31.966316883840413 -0.05332024845678991 -0.44060804417903443
0.504874 0.050616708791215645 0.2774509850299487 -35.4336188309258 -36.49418305571035 -40.95608190636512 68.34784758677414 0.16226194075766712 0.02031541219428482
0.512872 0.029059604795193122 0.33026815722469754 -42.19687642907026 13.583630815457747 -41.57968011323244 4.24647897508725 0.02698795856148425 0.16765758524325117
0.52087 0.040819021276529734 1.5068248660739523 -43.93718357479755 34.42131243186476 -41.97473934345065 88.10684222751178 -0.011196759368797552 -0.6939871294070058
0.528868 0.011905582308565768 -0.13306773394619378 -40.288244906591416 19.192078337594364 -44.811784886244595 105.35115557463922 -0.06389127549746287 0.047793163693039466
0.536866 -5.301179966414907e-05 0.21526203504997365 -49.20621052841929 8.549378316552563 -40.39459037352344 92.83724553547877 -0.11525058872888135 0.15565279193022566
0.544864 0.1763469142281024 0.6382914725090347 -39.89368490569608 63.34038157057254 -43.080983503007495 136.77630278464326 0.03210922041927163 0.5923682843802477
0.552862 0.028457830065859606 -0.1305787799317928 -42.361806745557104 93.64443807751816 -51.89667497980082 -40.37440688180501 0.035106582765305226 0.18931737285313616
0.56086 0.01272508369585884 0.7878488284535858 -45.70527837949045 148.3289998279366 -48.405234979327815 -163.77399310782644 0.07751553045304463 0.30843881197914064
0.568858 0.013123013018520016 0.9218089887115978 -41.941333403275216 -161.61078051990708 -50.17823741146536 -90.57299586541932 -0.027109242155325737 -0.01842552463951355
0.576856 0.09747811690024055 1.0303092539931065 -48.48419644530481 -127.98528256116735 -46.792958348151075 -101.28771922439765 0.019283220491590116 0.5329394222895854
0.584854 0.0007699009700365815 0.700690083516357 -45.03982797364819 -112.24383103357239 -48.704743118547775 -63.80449217414945 0.048995735335862364 0.5797635479648839
0.592852 -0.09090549112477085 -0.01587505531492061 -46.3092841267926 -78.66609675780268 -51.46378333482852 -114.57217290805266 -0.055450252195569205 0.5270904594265032
0.60085 0.04437534830808252 0.4807197306523674 -46.19342965748836 -64.47107025164185 -65.83764147867966 -24.341839284490195 -0.03651228732722399 0.6971659329171627
0.608848 0.024694894807614016 0.3240107526858048 -41.22199641651849 -19.279710967269214 -59.386349657869204 26.695606234211017 -0.054659420847758655 0.6087007863744897
0.616846 -0.1304100503174468 0.171845381289119 -44.82172418931519 -11.058377119920022 -47.665656567913324 98.32675894241461 -0.06771860952866168 0.3093016123557895
0.624844 0.012801952696025895 0.01262220869967588 -45.79746503759014 19.210258359285113 -45.68027641940258 86.69032429154387 -0.10736428857947601 -0.053936113837603626
0.632842 -0.01136902141455394 0.3695885204983539 -41.591345184383435 76.23282057609359 -43.594716316947 124.11582830800778 -0.0982219169375523 -0.0632421910890579
0.64084 -0.050989232934999254 0.05780699430271258 -45.51956283424401 105.58423996021352 -44.958745075347686 173.86951715145122 -0.006088506307692633 -0.08388426352027467
0.648838 -0.0024980283135597765 0.48487985841267756 -36.850910596984235 103.05898164367733 -40.836159005098835 175.02210924596065 0.09003924136269809 0.26712837478580764
0.656836 -0.0424742964154955 -0.8051538033627087 -40.50614125802019 126.47993653301272 -37.393684268256834 -132.0841288085394 -0.07018549725084049 0.7083661270971625
0.664834 0.028458695642358117 0.19198693170153291 -37.07718586968432 151.11001837729856 -39.43163324635777 -110.90519891595795 -0.09348305396782942 -0.5336921351648555
0.672832 -0.08526058752862634 -0.29842444133854934 -36.423749742205096 171.1745525597306 -42.27228512183327 -96.06890331783542 -0.26028978134866904 -2.7659185404025703
0.68083 0.11704078146223318 0.49566560120508 -41.76001668463665 -135.47045451105248 -36.91805291619755 -83.84917487333131 -0.15452906855890974 1.6880730314455639
0.688828 -0.031176082278456106 -0.6681820699907073 -33.20592636688225 -128.88145337565157 -39.493075914688546 -77.04012936460755 -0.20302067306534058 -1.306761392509202
0.696826 0.07760495021048473 -0.9040434687292651 -35.93714326006029 -114.16681877652583 -42.28452326003154 -33.44341944656069 -0.011021481017798372 -0.15497112306982228
0.704824 -0.06579779785759404 -1.3137347050865444 -54.50304825103284 -111.7846366207242 -40.027962193423875 -66.889091307867 0.24310739460100053 0.19189535802655058
0.712822 0.21823697228797828 0.8657118619022793 -40.57540256187994 -85.277910792998 -47.277822332052466 -45.96352295262719 0.15357293521809523 -0.8240856336570201
0.72082 0.0031131245417603893 0.5504586655674815 -33.136172281768765 -59.02467079963615 -35.49937188133851 -21.532261119044115 -0.3122167783738342 0.12634150444737538
0.728818 0.29265324557322997 -0.10140977357728494 -36.867470307313 -82.218148133549 -39.42150067722132 45.40745310249366 0.12889045053785403 -0.8900185529086124
0.736816 0.22907314544048793 -1.7855988876767426 -37.73315283339299 -35.72398599526781 -33.968380607522064 17.913890596330848 0.044253182780148975 0.046871130450568614
0.744814 0.09258657556091138 -0.9614051917411938 -41.679400704008046 49.631851415387175 -38.28759573719484 118.82211534028511 -0.032579928594787526 0.30587815441201116
0.752812 -0.4185464729844247 2.1320247286407 -40.34701986625501 32.242489745067545 -36.96135086281749 89.76955593966042 0.11488125260623328 1.92393964866435
0.76081 0.3476355861519931 -1.6881370999355347 -45.369498361449736 47.73872116958159 -41.217396876442784 132.26949832447664 -0.05047813086513377 0.18171130340127628
0.768808 0.05249633953594641 0.8260427415881185 -42.05033942793361 54.94356955059333 -41.49821988932831 79.48771831038317 -0.2155362984995357 -0.8380737893510922
0.776806 0.16676695357564153 -0.26211830216690507 -38.81623396897558 107.30644185659278 -43.383446549934355 171.93880968006155 0.11032561950964423 -1.7860383442496293
0.784804 0.1439636766954468 0.8069892641233649 -45.334566925748625 86.03730107100492 -41.26682358464542 -154.80956036790207 0.0788684405480808 -2.205924398474942
0.792802 0.09636081625048493 0.21195093597683778 -38.20453137223751 90.16451728806322 -47.7190884003501 -151.16203735424972 0.03178894209732999 0.11989326096569085
0.8008 0.06723946216389348 1.828939768122246 -44.861549065514374 140.59904818258713 -49.71360423171856 -166.28413154882836 0.19367729585201918 1.4539829618544005
0.808798 0.020993470459113532 0.890634808334758 -50.573685184574174 -96.27396163470085 -51.26014598324655 87.42414636972583 0.19521660910767002 1.026582551845668
0.816796 0.2438774383765398 -0.7092601609327025 -61.486287114912344 -6.124021379303948 -48.47236546769488 -86.56284046020774 0.1516497118709544 -0.028787572898982452
0.824794 0.13717051102693636 1.1335905969873685 -42.33855607064699 -163.64526263890662 -54.9055252888337 12.268679491057735 0.0008572117117571457 2.2485782322313734
0.832792 0.04472701203977904 1.1317457090998257 -62.23947220044855 -57.24315077818398 -51.49570727846108 -144.3949618705419 0.13230903210072092 0.5875186524993138
0.84079 0.07430389298513079 1.1840767987404333 -47.681422590464905 -156.21493128966924 -49.62139117529621 77.84607773790341 -0.01228939079298689 0.23790645001533425
0.848788 0.14935431793598142 0.7279428426873004 -51.05249417052703 -166.6912421506906 -43.34482644465773 82.7166381849352 0.21843324680370696 0.4516222946608366
0.856786 0.04466126548128914 0.638963402963156 -44.84297131420415 -13.320073511421795 -53.31384344053093 103.59668200015508 0.007388842799373192 1.2440236963988525
0.864784 0.10330259765515448 0.7674536212908295 -49.87102616947613 -5.984670983292828 -45.69927439401256 41.95067355677581 -0.04303434976887101 -0.0490559764494843
0.872782 -0.1668589210605828 0.2789264589092344 -43.989864471263914 93.85235278241392 -51.841422877985764 -169.53636656363855 0.06172874971582494 0.6675191106119512
0.88078 0.004261504338817546 0.3158899283632815 -57.13051776824333 152.11562162554384 -42.76905645563688 121.04199702114182 0.04610016510643217 -0.031237215814177693
0.888778 0.006187654087238769 -0.026367643693907743 -45.85232850007561 143.6746819524154 -48.11944248250434 -25.78046366003138 -0.033272219149604175 1.0308705766398192
0.896776 -0.034585569440403155 1.042028724656406 -44.89713874087572 124.13495183402019 -49.872779521500576 81.7057328554883 -0.08336582541677859 0.19219112684750528
0.904774 -0.00864866612358216 -0.061498654787192644 -50.837050344993166 -0.7653157656732454 -39.741222412770185 -158.43382059530344 -0.00963264777638815 0.06911167176390204
0.912772 -0.0903209127670386 1.494016947883331 -46.230537106796355 90.34003270847425 -39.603311785836524 -162.53420199372113 0.04410390213113929 1.2325404625317746
0.92077 0.048368116806841915 -1.2707688328398448 -54.892301639487286 -119.95990321885238 -59.482326088737466 37.550429527168404 0.13772171828409954 -1.0889086245011232
0.928768 -0.31308225251420285 0.7382443496367952 -48.24000655315913 -127.10987017129099 -43.220054931695266 122.79474050519049 -0.09459638979162713 0.2687085532218437
0.936766 0.022513537677143116 -0.8756853112663177 -38.766400612908 -100.71488930851152 -46.67538632789025 24.60349631106797 -0.09764973409259456 0.17942948064921074
0.944764 0.4196854353189994 0.5613812680381565 -54.55129758814507 -133.76412656892464 -41.919633246654456 -84.71992825870517 -0.08623595855558537 -0.1415994959956985
0.952762 0.2837758847652896 0.2150754479143033 -43.64369780810414 97.1560764611288 -46.206104209471974 -68.90815266907029 -0.1780162689587435 -1.9927947430281812
