!Created with skrf (http://scikit-rf.org).
# GHz S DB R 50.0 
!freq dBS11 angS11
0.001 -0.0434799619059717 0.37343665530626496
0.008998 -0.12198445694754874 0.025089585702696465
0.016996 -0.013162576224419697 0.036167144000843754
0.024994 -0.10608303427432894 -0.4069457635937876
0.032992 -0.06955960390446878 -0.08023946970196819
0.04099 0.03268772581120149 0.861179003155419
0.048988 0.0309296051861821 0.04589807958721596
0.056986 0.17759758726017486 -0.11073726510966499
0.064984 -0.1573325472068912 -1.1965697497909695
0.072982 -0.06941238842733623 -0.3745602337221534
0.08098 0.028966376192514496 -0.24034549210781683
0.088978 -0.15487118013752374 -0.04234958331077733
0.096976 -0.009291956038534062 0.026382415257547937
0.104974 -0.047174822907271194 -0.29964245710557114
0.112972 0.08600658135129466 -0.29370895434652716
0.12097 -0.03666030633375007 -0.592158736741927
0.128968 -0.08196565165518839 1.1108818055015872
0.136966 0.05356749439373206 0.015626405818745737
0.144964 0.046094620970964444 0.31218943702059043
0.152962 -0.019988312038957786 0.18694095088594345
0.16096 0.03345926348922072 0.08263273394011665
0.168958 -0.022134168416176624 -0.40095484789104174
0.176956 0.09220961460754741 -0.13224244905237847
0.184954 -0.04054682398575946 -0.8133127273735794
0.192952 -0.08048843870349216 -0.3149096698755958
0.20095 0.0703965678706812 0.5992331231006038
0.208948 -0.1312720253282061 -0.5822110822681464
0.216946 -0.07157615835171452 -0.2677173445552975
0.224944 0.030669940511917466 -0.060450134271596755
0.232942 -0.01126945316639899 -0.0853236853356205
0.24094 0.004841083917409634 -0.11070931778185429
0.248938 0.10295746725865373 1.0408698824285483
0.256936 -0.021603853870089243 0.08647094886909695
0.264934 -0.09977086162577031 -0.023860734290162465
0.272932 0.03908178517888304 -0.34174244186045777
0.28093 -0.08067383777992423 0.9748762339719754
0.288928 0.004946773533880141 -0.7757268276892091
0.296926 -0.087725318535379 -1.0067663318429219
0.304924 -0.008688045353329604 0.375110182275388
0.312922 0.026827096795893294 -0.49388433085528444
0.32092 -0.10215911551769019 -0.4294028069497029
0.328918 0.01705255206687833 0.40840074482658945
0.336916 -0.02978219704732607 0.13871895246601562
0.344914 -0.03590017405679504 -0.31902034153732106
0.352912 0.02375087555944962 0.22882742582329127
0.36091 -0.08393707791512882 -0.7864805820677987
0.368908 -0.032973757805812916 -0.22748626434906355
0.376906 0.04310080941264666 -0.33661604310282933
0.384904 -0.022075345264555808 -0.3270030911347032
0.392902 0.02167106446191886 -0.24966024391890196
0.4009 0.07805699660008865 0.1438736680001243
0.408898 0.0427606654934735 -0.3058514795341149
0.416896 0.003215069409143385 -0.16815043108850095
0.424894 -0.01876309378641561 0.07083791826100297
0.432892 0.04927125974001645 -0.31344942774416207
0.44089 0.029031557330196682 -0.010787517326834816
0.448888 -0.01744715582765692 0.01598523217201845
0.456886 0.012125262368083898 -0.1648384537091016
0.464884 -0.015909519617804478 -0.22225368390853198
0.472882 0.04035575847596734 0.05425569814659275
0.48088 0.0220582756212358 0.0632666411399766
0.488878 -0.07143913316712511 -0.366932815100738
0.496876 0.026595279778763053 -0.0004132589521704683
0.504874 0.03268074281407916 -0.5072116760334802
0.512872 0.007498130978263733 -0.18203810065733853
0.52087 -0.015959186537758043 -0.13890699310602064
0.528868 0.06717439353885694 -0.21301325697201337
0.536866 0.05489455025659514 -0.19175334004322916
0.544864 -0.0020227898130699305 0.15454426084868536
0.552862 0.08223178655463412 -0.233953799305131
0.56086 -0.04876887969515299 0.059915518142613484
0.568858 0.029443396967305 0.3362330968791975
0.576856 0.025459038554052814 -0.43780007789615927
0.584854 0.061684840144431215 0.04643063487048982
0.592852 0.024529683161471208 -0.006381737347914402
0.60085 0.041884884931910574 -0.07852160095803197
0.608848 -0.025136999088177552 -0.08603058946400563
0.616846 0.019764854943892067 -0.5776900942538361
0.624844 0.12902827706425748 -0.3483392337781814
0.632842 -0.039955554247762405 -0.31794922680269627
0.64084 0.020719500704217908 -0.18752356084333408
0.648838 0.015841634619268994 -0.13754621763695793
0.656836 0.020097249441898363 0.4575454652359258
0.664834 -0.06644339116693361 -0.21438608024936062
0.672832 7.844291986084944e-05 0.20453404810679357
0.68083 -0.052121847784784354 -0.2488452509190244
0.688828 -0.04383612252058682 0.14323606513936354
0.696826 0.05011401292267077 0.8368214829941097
0.704824 -0.1288786570860551 -0.25109827403254764
0.712822 -0.045665967692068085 0.10000681171550509
0.72082 0.027279605135913567 0.8041178575413216
0.728818 -0.0013691903624099824 -1.0580299552603827
0.736816 0.012500366594773216 0.8088294420194679
0.744814 0.06304534127919742 -0.10768371583852519
0.752812 0.10152852667076813 0.33272561665629863
0.76081 -0.09729224714471349 -0.4498386560208278
0.768808 0.06041671714151736 -0.2742829848655242
0.776806 -0.08124228289394689 -0.1211116624106493
0.784804 -0.06671106097343686 0.1586205833379182
0.792802 0.03645978692892197 -0.5643078355450336
0.8008 -0.045350400502219154 0.6946586388522646
0.808798 -0.031031101504538954 -0.5589077345386159
0.816796 -0.19235875108737435 1.328111673246957
0.824794 0.04474506237080219 -0.5372106591427285
0.832792 -0.21439974947480248 0.984937206916238
0.84079 -0.037062917772145286 -0.3419887531516934
0.848788 0.029846924349030243 1.4111470113304012
0.856786 -0.0325203518556592 -0.050955812162092516
0.864784 0.07757865727158762 0.8016571877921073
0.872782 -0.061131275373370625 0.8257436924410754
0.88078 -0.1159243507488266 -1.1348400415891309
0.888778 -0.07861011486363523 -0.3910270377400293
0.896776 -0.18973320315876596 -0.7881664295248542
0.904774 0.051490966963630765 0.22216120222301225
0.912772 0.04653763561241181 -1.2237946781237847
0.92077 -0.1389809922958491 1.7161841593839677
0.928768 -0.00204865508054661 0.07229633826258434
0.936766 -0.08894903951286545 -0.3286889370158228
0.944764 0.025622661890094225 -0.4845495301256357
0.952762 -0.024980977358784226 -0.39649872358100186
0.96076 -0.13223825351315313 -1.7598484192766815
0.968758 0.06928042961308488 -1.0589581471794185
0.976756 0.06250917591296273 0.26449560657919524
0.984754 0.030532438509219516 -0.08330185380055323
0.992752 0.034842397519196724 1.6561270035252351
1.00075 -0.1723607866888192 -0.1735654401406902
1.008748 -0.1345867970654864 1.4496055172891875
1.016746 -0.17384217538656538 -0.6913580800969679
1.024744 -0.14109525467335052 -1.2836610933114736
1.032742 -0.053900669881397086 -0.8264826121495187
1.04074 0.010450261757204002 0.031088435817897605
1.048738 -0.14349447546057886 -0.030822966162052896
1.056736 -0.20806462846841525 -0.7208907774348605
1.064734 -0.06322783577614037 -0.7693483835929078
1.072732 -0.12907277749059623 -0.7447711867453526
1.08073 -0.05607373211292634 0.5083512443864235
1.088728 0.027308299258472286 -0.8776323246007495
1.096726 -0.014466246164735472 -0.26916117708465065
1.104724 0.1388585647126077 -0.09919087310038491
1.112722 -0.08417097610984922 0.12146777350105054
1.12072 -0.18270602753706372 -0.2327771529440341
1.128718 0.022762407845267407 0.5224054964075681
1.136716 -0.036474866880505 0.43949742436819483
1.144714 0.22698645927963523 0.6041899385417757
1.152712 -0.05604838470741786 -0.6814210620378414
1.16071 0.07191760153892054 0.18086923836423677
1.168708 0.06846860743318343 -0.027398923260715875
1.176706 -0.022028771573807216 0.8111987271930952
1.184704 0.13386783709414973 0.4788700925750364
1.192702 0.05698403850269037 -0.7387387762964689
1.2007 -0.0401281497072689 0.1534588078239606
1.208698 -0.1658664698103607 0.6521938314360651
1.216696 0.1451235477224826 -0.33535944095016185
1.224694 -0.09247124345591287 0.010012400682215686
1.232692 0.10749266601698584 -1.0310264771538775
1.24069 -0.1381498068504921 0.09572608502667818
1.248688 0.1558273357645615 0.12621267419731352
1.256686 0.004178157199599326 -0.18027259128503006
1.264684 0.00032883357214877644 -0.11410190671131133
1.272682 -0.0020577250065556864 0.8469923400856929
1.28068 -0.02469256717834046 -0.18633790414112342
1.288678 -0.13438798436359903 -0.2123385029734196
1.296676 0.1318330046805233 0.1490766677198065
1.304674 0.0028342898505573704 -2.197172667455999
1.312672 -0.15162992967476302 -1.73237737646833
1.32067 0.009826061739658321 -0.8723685836426319
1.328668 0.039193898791531144 0.009247701152931713
1.336666 -0.11530933481065123 -0.07739907264972155
1.344664 -0.0776381415175987 -0.46417990659231956
1.352662 0.09036894854698997 -0.9489208956343397
1.36066 0.034421621611623765 -0.11467224814990902
1.368658 -0.09321409840202405 -0.24925686169994613
1.376656 0.07150424843925267 -0.5683484487445061
1.384654 -0.00028935095611792 0.05002108181264732
1.392652 0.08708953594165106 -0.6685775061595199
1.40065 0.08750014730476535 0.3396033826688429
1.408648 0.06592364646220686 -1.0201434849880968
1.416646 0.059293199298094984 0.37614185035017367
1.424644 0.0694809420120651 0.3142420618784066
1.432642 -0.13323661207463572 -0.6331641146332034
1.44064 -0.20208367110753037 -0.25359064965508227
1.448638 0.09171734485814484 -0.665706750952066
1.456636 -0.06661561929292371 1.2850290073484842
1.464634 -0.014774341274487476 -1.3210226656335182
1.472632 0.17239415893601334 -0.16900089283436803
1.48063 0.2113702468689123 0.33906307101815447
1.488628 0.11511624017916973 -0.9284669363828896
1.496626 -0.13019977878376407 0.18200587485300945
1.504624 -0.0007803819546814291 1.4751609951857396
1.512622 -0.08889851573563487 0.21705235288633487
1.52062 0.09030135185786387 0.27900539712635425
1.528618 -0.02997228830645137 -0.8414180877790884
1.536616 -0.000528451662377702 -0.7535535062033633
1.544614 -0.01917943293723044 0.7647941915933348
1.552612 -0.06991418661173412 -0.42194792149436006
1.56061 0.1959037024350667 1.22722144570745
1.568608 0.15952621814363488 -0.4978477603914842
1.576606 -0.13598559452748818 0.672513822580994
1.584604 0.07306624295189351 1.8424320930227167
1.592602 0.13135297842357538 0.7000282540639254
1.6006 -0.11858426277067853 0.7984652648879771
1.608598 -5.132006314176464e-06 0.6521237909165375
1.616596 0.023900578297301273 -0.36810893914536363
1.624594 0.06811481048978799 -1.1480598093607404
1.632592 -0.030877236091136503 0.1960727007968466
1.64059 -0.00939403902175258 -0.3956944077726385
1.648588 0.16088445025209203 0.07526516744582529
1.656586 -0.007826773873542279 0.5599482911548136
1.664584 -0.11207831796496076 -1.3385302083357742
1.672582 0.09996980470424506 1.6176361547013893
1.68058 0.00467556241336839 -0.5288847677572014
1.688578 0.169282001506686 -0.3696064899660624
1.696576 -0.12706951720859852 -0.5172974505213052
1.704574 -0.05484329602160992 -0.058895718266911805
1.712572 -0.13968813753578638 -1.8845201641025295
1.72057 0.2263917415586213 -0.03766964535514371
1.728568 0.08481421024558958 0.06595352980479195
1.736566 0.07274093275902616 -0.8078281015210041
1.744564 0.15563456901194408 0.46762804276718883
1.752562 -0.15347132010150513 0.14394397118099167
1.76056 -0.00976059576642654 0.869107522985786
1.768558 -0.16024230684944302 -0.07214588289024615
1.776556 -0.2595179468120594 -0.1482924430515843
1.784554 -0.06821017065301165 0.6677650439804862
1.792552 -0.06101193230719702 -1.1812214387264512
1.80055 0.08226801578072176 -0.24101837884309454
1.808548 0.0807033003871945 1.2449657449911236
1.816546 -0.05130965150330424 0.5095263224273714
1.824544 0.017612930658146682 -0.6709935231894951
1.832542 -0.248432490366488 0.28849328810428937
1.84054 0.20521227669737793 0.5848007840781562
1.848538 0.06685318022397439 1.466227912308604
1.856536 0.029503741608498075 -0.9390349241187183
1.864534 0.09164045565394582 -0.671392772545545
1.872532 0.10161012634176936 -0.9352189661474648
1.88053 -0.08302049516549162 -0.7685559512705487
1.888528 0.08627200017587959 0.23074472553064543
1.896526 -0.03557057725837091 -0.7954315063318284
1.904524 0.06749514620974452 -0.5552771340003416
1.912522 0.31965750089663536 0.9576468545238529
1.92052 -0.020334878776227045 -1.0041071349653907
1.928518 -0.15322395339870956 -2.1588650942758947
1.936516 0.1263210857458152 -0.8680352605370399
1.944514 -0.06383214241244564 0.6469623499079291
1.952512 0.25555041907394227 -0.6333714965719405
1.96051 0.1019401134612134 0.6154791146684953
1.968508 -0.1619870521174406 0.09934988540112992
1.976506 0.027726468133345096 0.15920579921565145
1.984504 0.14371241411190805 -3.0834782263855574
1.992502 -0.19531092135555356 0.006337276766509883
2.0005 0.03631787057216543 -0.27808849275737724
2.008498 0.39575259996968815 3.267102625120462
2.016496 -0.005205924058394331 0.89108757731888
2.024494 -0.24168857969010565 -0.23516549910938836
2.032492 -0.09611576473370244 -0.8622272618870909
2.04049 0.1041447537370098 1.6252455615927024
2.048488 -0.15322731438525392 -3.066985281748387
2.056486 0.20148878591638716 -2.061631818542778
2.064484 0.20013561338195987 -1.0358428879526906
2.072482 -0.5568503020736041 0.3520564116881407
2.08048 0.08564508838786694 -0.1120037156010392
2.088478 0.3638380590914528 -0.4857831839306082
2.096476 -0.2294577075338643 -1.4196807063272134
2.104474 0.08165833687733005 0.6183334968388426
2.112472 -0.34233271665029347 1.6977590463209078
2.12047 -0.026832588455881407 -0.3324490441957647
2.128468 0.8607131491626775 4.5352700237259205
2.136466 -0.4768400544587436 -1.93025713442281
2.144464 0.0009395657900191757 -2.2659235897502144
2.152462 0.00819633485736975 2.9305129325620527
2.16046 -0.34202357500655556 2.812965442161345
2.168458 -0.3654115040646976 -0.617034586147802
2.176456 -0.87841281331475 -0.5044298239496624
2.184454 0.23840100908622025 -0.025562103574861862
2.192452 -0.010366652230671802 -3.2890072432977218
2.20045 0.42148517144220277 -2.650578730531312
2.208448 -0.2606969805170447 0.9739192912479463
2.216446 -0.17570923300396266 2.5625356320386947
2.224444 0.3768355018830069 0.317398938583666
2.232442 -0.2964772838541983 -0.4331624554412002
2.24044 -0.2067122142426459 1.3103055965285462
2.248438 0.03801318966082842 -1.930239248580665
2.256436 -0.5447997206465809 -3.6314667833827103
2.264434 0.5020944699124503 2.9022861869526193
2.272432 0.32503758808458316 -3.7018288182140573
2.28043 -0.11459669306526371 -4.4265876999745455
2.288428 0.4867117671782083 1.5162404562615532
2.296426 -0.39829054107850675 -0.9264956421268383
2.304424 -0.2945993837290103 -2.694419810227123
2.312422 0.23141121543454532 -3.219785345620906
2.32042 -0.5317587120861357 1.9488256120454963
2.328418 0.21175536627151154 -0.7709898806214797
2.336416 -0.11932133579691225 -1.587984958860471
2.344414 1.110808506503179 -0.7484115128809243
2.352412 -0.48474948712894267 -1.2611708103284403
2.36041 0.0664232325831063 6.927251607713694
2.368408 -0.12255959400514968 -0.318082312209229
2.376406 -0.7169646189185558 0.5135622659760257
2.384404 -0.10685484514047452 1.7659515469668812
2.392402 0.1384074902239352 -1.7003533053553421
2.4004 0.564711894224451 -1.4636155712499592
2.408398 0.13812363245336876 1.1758848126710482
2.416396 0.20217650149386704 -1.2527340495145667
2.424394 -0.14560074412232785 1.4989528072732214
2.432392 0.1120449940146159 -0.0544906343228769
2.44039 0.15998611775081353 0.5614562722978294
2.448388 -0.40341214912312995 0.4330899765093497
2.456386 0.11343477442527489 0.96393742247114
2.464384 0.8321391566042908 4.637414833824266
2.472382 0.3563625253541589 1.019678639180883
2.48038 0.12608614343007274 -0.8084805959645593
2.488378 0.007268234287036335 -2.8387113371216763
2.496376 -0.07645717551714425 -1.0531345205231386
2.504374 -0.17449197142239845 -0.4660681560799235
2.512372 0.2477004676783825 -0.29493926517395586
2.52037 0.3686067524531397 -1.1468895643913948
2.528368 -0.20397492153867786 -2.8292206978110035
2.536366 0.03497688213592851 -0.4182123629843448
2.544364 -0.21279613790085655 0.47010077970259434
2.552362 0.0006736445270948985 0.67727517716172
2.56036 0.0666022113470098 0.5862092047783335
2.568358 -0.04777864713810938 0.17698157050613747
2.576356 0.3160075771307571 0.7945396215090378
2.584354 0.39044937762809595 0.3886901704461433
2.592352 0.22124323833487475 1.4689366968363764
2.60035 -0.28126792850963034 1.7417207227063103
2.608348 0.15025508185192027 0.6745690770611992
2.616346 -0.19415064455654252 1.9823947819118923
2.624344 -1.0050307335062283 -1.211871121948912
2.632342 -0.41746763610075177 0.5640744600256075
2.64034 -0.3199813835228987 4.284659217511681
2.648338 -0.43260854479652644 0.22280996608745707
2.656336 0.41520500743043315 -0.016447582056952893
2.664334 0.15192211763523183 0.06549144744759591
2.672332 -0.3822299051597372 0.20327395588612696
2.68033 0.018907644617427367 -2.429781730767186
2.688328 0.21408929072092744 -0.9528036730514212
2.696326 2.08727004828498 -18.756227336656227
2.704324 0.13738728323029512 -3.3066442858052305
2.712322 0.26348005398531804 -0.5281025445489305
2.72032 -0.1561945362596198 1.173226619302881
2.728318 0.29733063026106277 2.9261831342282543
2.736316 -0.4841010926042868 -2.7964242108138717
2.744314 0.2562140015426091 2.172522771727251
2.752312 0.3585646081527572 -0.921002935447607
2.76031 0.14694076284026442 -2.7952725018799267
2.768308 0.08643834714395701 -1.3415903574605925
2.776306 -0.15795017038955161 -2.368383580129147
2.784304 -0.16098384053565548 1.2873059711527217
2.792302 0.0011819367630320032 -0.7242393186231806
2.8003 -0.048586400156997014 -0.8268741001138126
2.808298 0.3085321123661517 1.3828051270748254
2.816296 -0.2053921081787893 3.823670469046312
2.824294 0.16164073142067636 0.39090313358269657
2.832292 -0.00889361736265259 1.996283248972803
2.84029 -0.25885176704917784 -0.5431225397624265
2.848288 -0.2546681223747007 -0.45968548087204764
2.856286 -0.03937185206721977 -1.2053208779589644
2.864284 0.19047488978894717 2.159272044217509
2.872282 -0.1355388859154793 -1.257863422929529
2.88028 0.337540312298232 -0.5304497949688398
2.888278 -0.08791567696932069 -2.194164524695467
2.896276 0.0632326186664128 3.338556149470132
2.904274 0.2716872670657439 -0.6327211888659668
2.912272 -0.11261974955411966 0.6159251699299032
2.92027 0.09870557129575863 -2.305597018253797
2.928268 0.06170240636849528 1.8517152537656383
2.936266 -0.32359034643926454 1.068907962532295
2.944264 0.29510162396683626 2.0402071412400367
2.952262 -0.013999700901784458 0.8434879743792815
2.96026 -0.2982176712212111 0.7636856672390355
2.968258 -0.19254152828625612 -0.957010216198848
2.976256 0.24099058466387507 -1.3115472249947155
2.984254 0.09956779546367305 2.454608072069799
2.992252 0.1296368187140382 -2.225518486591852
3.00025 0.23674546412977843 0.43844097281138045
3.008248 0.16484235626903365 -0.4027670477491201
3.016246 0.02959682931129274 -1.1460719599416271
3.024244 0.018631911154635312 1.3356961052612404
3.032242 0.0033932282793530948 -0.9571610443304935
3.04024 -0.17467439516998762 1.4292791697701859
3.048238 -0.06451855941444479 -1.093380535291251
3.056236 0.2666293404589464 -0.4248913787407908
3.064234 0.18917223936543004 3.003492938578508
3.072232 -0.20166907427622116 -0.1417856358232479
3.08023 -0.030694991860366127 -0.038667988271269264
3.088228 -0.5089735829077774 -1.8687959604492845
3.096226 -0.48111924047090715 -1.339137095662867
3.104224 0.27206247614913837 0.631710634266399
3.112222 -0.10061349700178092 0.2502082781123418
3.12022 0.26414309108017664 0.7807039657000238
3.128218 -0.03525084233543652 -1.6971120045840422
3.136216 0.1268478420586587 0.5571724372304226
3.144214 0.18664237546630674 -0.5682818191848454
3.152212 0.2418189795064567 -0.18811001957229745
3.16021 0.06611597624506026 1.030182517480442
3.168208 -0.45425949098145707 1.3226708481919183
3.176206 -0.2339916195677563 0.22536857278396508
3.184204 -0.24392374438460057 1.1730714182485644
3.192202 0.04503204268804833 0.7046679471743049
3.2002 -0.06801374114022771 -0.724392508172296
3.208198 -0.28580454148975504 0.24518798733515448
3.216196 -0.26576604876770277 0.6135649023199744
3.224194 -0.21422312168615468 -2.275387626724979
3.232192 0.4111437323445565 2.928415382449392
3.24019 -0.38644456652329345 1.9654549082955732
