!Created with skrf (http://scikit-rf.org).
# GHz S DB R 50.0 
!freq dBS11 angS11 dBS21 angS21 dBS12 angS12 dBS22 angS22
0.001 -71.10089799864356 -121.00948298199953 -inf 0.0 -86.00073813941475 -81.25189484902529 -inf 0.0
0.138896551 -63.71389901983093 -129.7051558076982 -inf 0.0 -97.6676895405022 119.03241486330727 -inf 0.0
0.276793103 -49.10191445204844 28.867149902250024 -inf 0.0 -92.25248179232288 141.33472693792297 -inf 0.0
0.414689655 -55.935376047148715 38.9301193850717 -inf 0.0 -96.95362855525858 -63.44839222471969 -inf 0.0
0.552586206 -60.98832843732015 -149.74962270476772 -inf 0.0 -107.93190320183882 108.40130479888923 -inf 0.0
0.690482758 -48.258223589204036 141.19025701444204 -inf 0.0 -91.9906687372303 -135.0120041438665 -inf 0.0
0.82837931 -64.05699782459226 48.03860377713013 -inf 0.0 -95.07022918990083 -30.258179153115943 -inf 0.0
0.966275862 -53.74446830809504 -124.95726667883716 -inf 0.0 -102.23900336911316 -9.489566989383052 -inf 0.0
1.104172413 -55.23401238073312 -124.14484881220713 -inf 0.0 -108.90354601232559 -135.08413471120582 -inf 0.0
1.242068965 -63.69549861638003 71.17791783981886 -inf 0.0 -94.03077682305268 -153.44455093101263 -inf 0.0
1.379965517 -53.73071615660735 75.38084506948653 -inf 0.0 -90.52835308636878 129.80924472285122 -inf 0.0
1.517862068 -64.38748054270934 -9.204364254070754 -inf 0.0 -96.58632090827734 -59.03624346792648 -inf 0.0
1.65575862 -56.378306056199214 -173.07716950482754 -inf 0.0 -87.81633520151887 51.33035415330151 -inf 0.0
1.793655172 -59.313396017240116 -131.62236934279815 -inf 0.0 -97.28152272511932 -21.813003128345155 -inf 0.0
1.931551724 -66.19973092262387 -52.26826734762244 -inf 0.0 -99.85991025214064 0.0 -inf 0.0
2.069448275 -71.64123715134997 55.075577528062965 -inf 0.0 -86.74063424953499 -152.0202696279455 -inf 0.0
2.207344827 -58.5554800060048 31.94652825219592 -inf 0.0 -89.56551079755286 46.54374214179416 -inf 0.0
2.345241379 -63.829921652531624 2.828777096473148 -inf 0.0 -114.88597549406694 45.0 -inf 0.0
2.483137931 -58.221073212694286 -166.59656159363254 -inf 0.0 -85.50593090288993 -132.0912810435989 -inf 0.0
2.621034482 -55.44555132292872 68.43053449805062 -inf 0.0 -93.5790181207298 104.04118702093518 -inf 0.0
2.758931034 -56.82936803196832 84.4856091694449 -inf 0.0 -86.00272727633546 -59.53013517437837 -inf 0.0
2.896827586 -46.89460921695957 -42.563794537373695 -inf 0.0 -83.66675480636752 111.59707620182978 -inf 0.0
3.034724137 -45.533428132848 -81.1167538653428 -inf 0.0 -86.92591603288149 -40.42554442404133 -inf 0.0
3.172620689 -44.15021694036696 164.14489494768273 -inf 0.0 -88.24776743323523 66.79706329964141 -inf 0.0
3.310517241 -42.97230067244847 60.730458263707526 -inf 0.0 -81.09339598651536 -78.3634370755923 -inf 0.0
3.448413793 -42.33035836181537 -52.59909615076296 -inf 0.0 -79.01103809605456 107.81694602610328 -inf 0.0
3.586310344 -41.28570638530121 -168.24819309551035 -inf 0.0 -83.09916616731343 -11.513277810593973 -inf 0.0
3.724206896 -41.32252270477401 104.4740003045002 -inf 0.0 -75.58442980268 -137.1665224025812 -inf 0.0
3.862103448 -43.35969634989324 -6.172189807729429 -inf 0.0 -77.18734087033327 110.43135344641492 -inf 0.0
4.0 -44.360441759406754 -89.9398433077361 -inf 0.0 -76.62737492309364 -17.030356287572786 -inf 0.0
