!Created with skrf (http://scikit-rf.org).
# GHz S DB R 50.0 
!freq dBS11 angS11 dBS21 angS21 dBS12 angS12 dBS22 angS22
0.001 -71.03758986818542 -117.49235501329075 -inf 0.0 -92.64609118194677 -119.34977557375271 -inf 0.0
0.138896551 -46.58589003112348 -155.0675538273827 -inf 0.0 -92.02332718961509 120.46986482562163 -inf 0.0
0.276793103 -60.189929083540896 105.58770910838929 -inf 0.0 -91.32416425688368 100.77032400499888 -inf 0.0
0.414689655 -54.19667050772165 -60.59763615642448 -inf 0.0 -95.9644982462909 28.616882239586236 -inf 0.0
0.552586206 -52.33604947448478 -67.66730225761815 -inf 0.0 -102.60542054155812 120.92422857731461 -inf 0.0
0.690482758 -60.880593175954786 84.35329221097986 -inf 0.0 -101.39128247714669 -116.54264375564973 -inf 0.0
0.82837931 -51.22745565203945 -5.441562928812045 -inf 0.0 -99.59662086491716 104.03624346792648 -inf 0.0
0.966275862 -62.02618217096365 -34.48006690812446 -inf 0.0 -97.27713009971033 68.19859051364818 -inf 0.0
1.104172413 -52.231784958873064 157.33656647370555 -inf 0.0 -108.38777965585558 -90.0 -inf 0.0
1.242068965 -56.256337114714384 -147.16254736347815 -inf 0.0 -93.94332859861876 18.44839222471968 -inf 0.0
1.379965517 -66.49525781068013 -5.541640139508056 -inf 0.0 -104.9114100353397 153.434948822922 -inf 0.0
1.517862068 -54.16501480829006 -51.24150242571469 -inf 0.0 -89.79531983603732 168.6797243941284 -inf 0.0
1.65575862 -65.37890729475524 -28.923284379956602 -inf 0.0 -91.39884940619172 70.70246981059428 -inf 0.0
1.793655172 -63.73853783594487 135.6332101306064 -inf 0.0 -93.25451179944183 173.28901608366004 -inf 0.0
1.931551724 -62.177381665756656 -177.09990460255534 -inf 0.0 -104.9114100353397 -153.434948822922 -inf 0.0
2.069448275 -58.54772829421733 -153.65509496871107 -inf 0.0 -94.47905509917526 -132.28129295820742 -inf 0.0
2.207344827 -65.49942066847437 12.573111213082774 -inf 0.0 -91.03751177195241 84.8055710922652 -inf 0.0
2.345241379 -59.32342216215284 -38.51265738006624 -inf 0.0 -110.95751918762417 63.43494882292201 -inf 0.0
2.483137931 -59.748280622376704 -133.80029906483168 -inf 0.0 -92.44634427986824 -154.811255366027 -inf 0.0
2.621034482 -57.48063646732965 45.92401257164329 -inf 0.0 -90.46576485015719 126.39702520271341 -inf 0.0
2.758931034 -54.87307309415789 80.92882241605447 -inf 0.0 -88.55346319044781 -54.6868436719473 -inf 0.0
2.896827586 -49.05735165454455 -46.19713180695876 -inf 0.0 -90.05619377552107 75.96046120916274 -inf 0.0
3.034724137 -44.00972229446281 -93.52371554041501 -inf 0.0 -80.7439020130159 -14.419743627753432 -inf 0.0
3.172620689 -43.79872689692057 169.3000681124663 -inf 0.0 -86.93359837637146 106.38311776041377 -inf 0.0
3.310517241 -43.97473276895091 48.506837319974686 -inf 0.0 -84.10306164544463 -86.49242394397515 -inf 0.0
3.448413793 -41.70411552379208 -52.50321244223432 -inf 0.0 -79.19329900383042 127.00216632067172 -inf 0.0
3.586310344 -42.5861031450694 -168.07499494442231 -inf 0.0 -93.43709428785476 -17.36957561263521 -inf 0.0
3.724206896 -41.120756396235194 93.4462315055888 -inf 0.0 -73.84023808641925 -149.58813111871703 -inf 0.0
3.862103448 -42.66633424633578 -5.369076857869784 -inf 0.0 -75.3274309038876 96.38726492481923 -inf 0.0
4.0 -45.643044835192406 -100.56657194246216 -inf 0.0 -76.6784807904171 -8.971566790366834 -inf 0.0
