!Created with skrf (http://scikit-rf.org).
# GHz S DB R 50.0 
!freq dBS11 angS11 dBS21 angS21 dBS12 angS12 dBS22 angS22
0.001 -70.36831743510223 -119.35706305471992 -93.2706732950358 -20.562952486519634 -93.82227950234623 -86.41320518019532 -72.23152345530335 -103.81908195108441
0.041393939 -50.04625903821005 8.568606920910465 -100.76167655563152 123.69006752597979 -99.78983359849997 -60.26545530397632 -54.01479990629896 1.1691699379746363
0.081787878 -49.84003873455613 -116.63581872069605 -98.0130888285032 -45.0 -93.94455170487767 -55.3075355277359 -52.67322633864447 -84.89071411938734
0.122181818 -61.415539417011864 -165.2781493604214 -96.07529491578171 14.023064450444567 -108.37079843903324 -90.0 -52.08988422734628 -140.80520567654327
0.162575757 -56.47574877741435 -122.80245955998937 -93.75676891976262 68.19472726913155 -94.24957202829927 58.38672778604521 -52.82393732212837 169.55827386928655
0.202969696 -49.053319423529445 -166.24895957352132 -92.35868498430663 161.565051177078 -89.59931827896297 147.53276241507518 -53.25925128199971 121.73911668114131
0.243363636 -45.88683488589798 98.50105049578823 -106.78815568524583 123.71593469330274 -90.76304804425035 142.1366505345059 -53.238264195241214 68.80659612612341
0.283757575 -50.509128492890454 19.89347644080277 -92.15755324493784 145.4843466807757 -99.59662086491716 104.03624346792648 -54.30392326903063 26.97042622549211
0.324151515 -60.291812657805295 -20.52964163642345 -94.23085754207646 -168.67714075034448 -88.09255450070367 159.22704646962018 -56.09497548330228 -2.6466925396323773
0.364545454 -69.9644512514275 66.92250993562182 -98.38268163789496 -108.42374292055892 -96.30820538329925 175.2502639265511 -57.81050225500587 -27.576854551013525
0.404939393 -57.404403465032566 52.039737520857514 -92.80561979267713 123.67972439412843 -88.38166258594887 -126.86765672831103 -58.85946116698719 -57.00030098378556
0.445333333 -53.125070401325715 2.3750719630392534 -117.89627545070675 -90.0 -95.9644982462909 -28.616882239586236 -59.30340890178067 -85.96695926579321
0.485727272 -52.59277602786633 -68.26765162272355 -94.86794373885877 140.72722857618007 -92.60692082155697 40.60129464500447 -58.793110207458774 -116.16846356476412
0.526121212 -56.03963686838956 -127.08214054589318 -95.6199181922426 -147.53276241507518 -102.24864648505141 99.44413884477918 -58.19715762819997 -145.1291213589081
0.566515151 -63.87388529789898 -144.03954630178862 -108.89081012206007 -135.0 -87.7153878062644 171.11261242020956 -57.50354856232089 173.59961568401343
0.60690909 -59.862350409080925 -118.19913274506054 -88.20716886884429 -141.63861349838672 -94.10312508344944 -165.06579355236082 -56.92002704449798 131.2436157457673
0.64730303 -53.089216829051836 -147.0476893070978 -90.20055844597047 -80.5354066733965 -90.24421184280202 -141.71098391633998 -55.72736903847513 86.30420260938698
0.687696969 -48.54491828859749 147.7945794281174 -90.99256910476113 -35.84378718709948 -88.97479820293071 -92.05183106250824 -54.9671816927879 36.34820688694529
0.728090909 -47.51929134760936 55.278589598837016 -89.59856892690142 -85.60030605381606 -94.658351382692 -105.94539590092286 -56.07698146501495 -8.274294003213429
0.768484848 -56.20409645067242 -25.40872688273822 -92.76297155486273 -83.6598082540901 -97.39250341339599 -138.825972415911 -57.52902506456171 -69.46940498370017
0.808878787 -75.10321947127848 -4.145501605397446 -103.94536610446112 36.8430045337551 -98.42924074251485 -121.99027754549833 -58.71602182435008 -116.05965569087786
0.849272727 -58.96530800031846 29.889038286845434 -93.18125695493134 79.99991544165505 -101.9113032885592 -18.40130479888922 -59.907686722059516 -151.14781160408035
0.889666666 -54.31751494190942 -12.623259072074987 -96.30961100914305 48.357188751622544 -100.93710580657603 135.0 -61.41048272994959 -175.20082853016467
0.930060606 -52.60351913512669 -70.85800062903901 -102.23900336911316 170.51043301061696 -97.39250341339599 -48.82597241591099 -61.88491031776179 154.28431212122996
0.970454545 -54.292602219999466 -128.42405164700176 -97.28152272511932 21.813003128345155 -99.2335243147547 -35.53313447428403 -61.55557322788521 119.48603566084412
1.010848484 -61.47245007482858 -153.93616553842674 -93.62541820757252 37.574839115408466 -95.25150731062016 -53.96535949637455 -60.22618334448323 88.95451824912122
1.051242424 -62.85013078840798 -113.26489531584983 -92.05742078044047 75.26253236656689 -95.543163233808 98.74810515097471 -58.92636262472935 64.32629007602162
1.091636363 -56.76949122526325 -115.1289913575923 -90.88985549008623 69.14287988824437 -98.8396904662906 -90.0 -58.12717321928885 43.548025678994804
1.132030303 -53.06511014149821 -88.5916325922434 -90.46402693716874 126.38857543293238 -100.92793487639096 81.84974436510178 -57.52027212434987 69.31585540658428
1.172424242 -49.82716012997223 -143.66246239080098 -89.61781758800333 92.19664029836935 -88.65371563512946 49.189290972049406 -56.666029748710464 35.06516098001357
1.212818181 -54.009520923343175 133.03756115141854 -95.61901872153601 4.412545392567255 -96.07429602104443 75.95057903011795 -56.8619352749288 -0.20285924053534937
1.253212121 -71.46191338010627 36.106646598990984 -95.88433168512677 18.443353660695536 -94.38220345675617 -3.8259724159109876 -57.49816685638343 -35.309385245460255
1.29360606 -60.70183511733414 -143.79286375683645 -90.25950079858231 -65.55028974200232 -104.9114100353397 -153.434948822922 -57.36985057144408 -75.10325892646794
1.334 -56.59991028055433 156.25224901051487 -93.08013144875565 -76.75727614668591 -88.73699432146067 -69.67483616354134 -56.833787543604785 -111.74508738738582
1.374393939 -54.03585961824458 86.15198490686122 -87.6048182942929 142.42516088459152 -90.1928382787325 -109.16823888835557 -56.4325481723134 -147.38089999712244
1.414787878 -54.65985996573255 17.588662396635453 -87.4897240018643 136.21552935409096 -93.0649949591419 30.976935549555435 -56.24486289295849 173.7537652189354
1.455181818 -62.70812644510033 -63.30118094755836 -93.62541820757252 52.42516088459154 -92.15903966395464 -55.49860856420778 -55.83439109114761 118.76150847228907
1.495575757 -69.74176330638909 -3.5770700345226674 -93.82227950234623 -176.41320518019535 -95.25150731062016 -143.96535949637456 -54.63456103568078 79.10539720018046
1.535969696 -61.7325814534703 -23.385259839766714 -92.40721001225076 147.9946167919165 -95.9644982462909 151.38311776041377 -53.92944537599442 53.368807390607884
1.576363636 -58.34563586379389 -63.43526442476902 -92.80405204871667 123.69523815853618 -95.6199181922426 147.53276241507518 -53.70147405986347 32.05771020752976
1.616757575 -55.83668445994068 -111.0149464080619 -94.40090363705207 53.13906462211246 -92.44518969361927 115.20493206579005 -53.562118611921406 8.036860070698065
1.657151515 -56.622015815900895 -175.45747058074227 -91.3147238289941 52.596111098680865 -93.08013144875565 76.75727614668591 -53.95492066633668 -16.518434873741125
1.697545454 -61.65889318250494 71.53743623541956 -97.75627635180771 11.316398536458973 -100.68231609668373 164.04826115882707 -54.82626808528777 -39.26098053324882
1.737939393 -62.64552798492629 -46.046716418278585 -94.9114100353397 -81.86989764584403 -93.2706732950358 110.56295248651963 -55.18858140153383 -60.29142029025992
1.778333333 -59.99398500896254 -111.90953941344216 -92.24148282976529 -117.8936373564527 -96.19446420614588 -34.996533276373206 -55.08978645213574 -78.72246137346598
1.818727272 -59.49408623197181 -162.28182556392312 -94.23085754207646 -101.32285924965554 -92.69703807499646 -9.471404282267383 -54.48430470102971 -95.48421375146806
1.859121212 -61.45363686822308 131.34771660347917 -88.97629130835334 -55.175082597860296 -93.82545159486432 -3.588106673889239 -53.92626562607603 -112.76175524862346
1.899515151 -63.845251582198074 43.63792940066922 -92.33603159100475 -93.0044314248464 -96.33808507102701 -90.0 -53.37812770367948 -132.3103712987403
1.93990909 -66.26667460056994 -74.07583758127842 -92.95419828965109 -106.38311776041377 -97.67201614004392 -150.95173884117295 -53.237605749620094 -156.67861473398028
1.98030303 -64.00806947025008 -151.214483922974 -91.46910102853832 -154.65762618550556 -93.29913532439116 -86.62310864680502 -53.57585190633812 176.76797623205758
2.020696969 -65.36712888452355 145.0750603642157 -97.38934761314609 138.80218157457264 -95.77637803050496 -141.32379341220968 -54.02039965513512 146.10710987568646
2.061090909 -69.4793977045536 75.5425328447988 -89.88115542141072 146.30623930788423 -90.25237219964237 172.88015490589143 -54.29631905626236 113.4412797221096
2.101484848 -70.94900849569902 -105.59294585714879 -101.38788623533995 -63.412550161235416 -89.14907760078111 169.51342612031172 -54.867410448534756 82.96993554614502
2.141878787 -60.54954005163292 157.73800469267803 -96.31242259503873 -175.24795195126717 -99.2335243147547 125.53313447428404 -55.73192208883058 53.30816242830277
2.182272727 -57.773463218044874 72.43760692390373 -97.39250341339599 41.17402758408901 -103.77785572860601 101.28406530669726 -56.38280576791811 22.39829352744448
2.222666666 -59.99951295141037 11.352710689480805 -94.03077682305268 -26.55544906898738 -90.65553712982816 -4.97037128750623 -56.909248731098344 -9.009832963695523
2.263060606 -65.26098325988734 -35.90952644436476 -92.70025130657882 99.4562652516009 -106.77639946255769 -33.664235345803554 -56.822385985170556 -42.64369990074213
2.303454545 -73.48374558799419 -10.366516080234566 -99.23008026714436 -35.56492689241509 -92.15958030612016 11.890441038569755 -56.28166405568596 -76.15931233867788
2.343848484 -64.05977285926608 4.301313407806434 -96.59006728065467 -120.97858847052375 -102.60542054155812 120.92422857731461 -56.1263723957163 -108.98011588287959
2.384242424 -59.64853248849312 -37.66679971419247 -89.54044204843282 -72.25337724931977 -97.38934761314609 -41.19781842542737 -57.589641006604765 -141.56406578163399
2.424636363 -57.760961020362636 -93.48836519807847 -96.21909283802994 -99.46232220802563 -92.05742078044047 -75.26253236656689 -60.66898405503257 -175.75200789591779
2.465030303 -57.4699325612361 -142.86914821931242 -99.35263032984365 -135.02801749386126 -88.01163277760546 -116.56024931826315 -62.83549812607427 154.5627801295881
2.505424242 -59.58284072833667 167.98267920524958 -96.95566606110093 -153.4080557108331 -91.63895949295109 -157.16318262500548 -63.539121566059514 127.78871768893359
2.545818181 -60.013039316706255 132.78352917913696 -91.84999042293042 116.56505117707799 -88.55346319044781 107.81694602610328 -62.89568031214931 93.65828248567125
2.586212121 -58.04619863773838 102.11904251473302 -94.658351382692 164.05460409907712 -98.78667798714477 173.67620658779035 -61.94314942093939 61.644098504714144
2.62660606 -55.39921453317956 62.76432088888804 -94.23151091119153 -101.30131397536184 -89.1098384468355 136.4648255521932 -60.79811055889567 37.47611766399551
2.667 -56.41920581930782 25.078027204375154 -96.55654971177582 -109.98801345286157 -94.10714285062879 75.08114034201053 -60.79156968988617 18.41010602370714
2.707393939 -60.06721537821177 86.69808476915107 -83.72731750911477 -20.560649570819532 -86.85088395638795 26.569252363425726 -61.40295052001179 75.29995188973875
2.747787878 -57.8653807009329 87.83665430559478 -87.00921891804691 -94.9042669695843 -85.81450880026966 -46.008188440789006 -58.92459924595049 59.521451084530696
2.788181818 -53.871006693697645 56.588925636151075 -85.2627817489627 -167.89977811500094 -92.87021020878045 -63.43494882292201 -57.10203489914549 29.783529742659876
2.828575757 -49.77322085640626 19.306928049558305 -86.27915844290249 132.88488865071432 -85.06782635953843 -138.68668391550506 -54.34791919433671 5.245982576931819
2.868969696 -47.315169624393995 -18.99581390742723 -87.83322405113088 110.13498662444447 -83.3781706322116 167.0025507562684 -51.82146512790154 -19.92485869824743
2.909363636 -47.03913664326123 -55.66084195165156 -84.47351892599151 92.43710388408273 -84.1487807731022 100.62557439265218 -49.88350951946175 -47.24816361277495
2.949757575 -47.18939942867701 -35.65760378998866 -90.76383211078644 74.74100288501333 -88.78531117308432 77.90278356000219 -48.50541036571114 -28.983071261372693
2.990151515 -46.98209278590876 -56.32791930412208 -92.53286327716819 -53.748105150974716 -88.55346319044781 17.816946026103277 -47.614287799709246 -56.261428212310236
3.030545454 -45.803786634846205 -80.67533016791582 -98.78108621310014 -6.3197070204641435 -86.95464778655172 -45.00672248964568 -46.83896878295588 -84.44217879179301
3.070939393 -44.695976716931156 -106.743497536518 -91.63859981141502 39.08753275403559 -84.51534988521657 -109.98801345286157 -46.41445235939595 -110.71824203146336
3.111333333 -43.893810748545675 -149.2277524304927 -85.30965356485339 -73.68504269340495 -82.42766750826826 172.27627785203097 -45.7721009768762 -145.8862627226751
3.151727272 -43.695297300591314 173.98693197044645 -85.6447422223073 -85.81826606769914 -82.96807340480021 114.26993095789767 -44.32664747548771 -178.5269100534444
3.192121212 -44.80728561787061 155.18421459330762 -82.95290411539267 -164.47556797352442 -91.79561112972414 -32.9027835600022 -44.4659945859846 155.72120780939497
3.232515151 -44.578242689681254 121.14561712664599 -83.97629931637479 169.59255955496192 -83.56911994778363 16.698010886392066 -44.601679351329516 115.69713187825975
3.27290909 -42.911361869439745 90.5901372872048 -90.01964274529335 139.89473490465983 -82.55494828619261 -60.37449361971953 -43.7074653449093 85.18820980326457
3.31330303 -43.03285022523548 55.766197031320374 -93.06649373216088 30.960461209162734 -83.10296477022001 -93.11958256999404 -44.40521181376405 53.77539619858946
3.353696969 -42.51326762256583 10.694282279795384 -91.43931200540642 5.441087294240193 -79.69622709993048 -146.50314708108186 -43.466803028724584 14.246724006539393
3.394090909 -42.15873085147167 -20.235044600650404 -86.91668034575052 -9.72997755960506 -78.82518503261606 -176.82141090810978 -42.090070938857444 -17.322557207517022
3.434484848 -42.34225727228555 -44.696775264910094 -90.19215105341667 -19.181275033258494 -78.71570467893916 114.601807425889 -41.949441958229215 -47.64789515670224
3.474878787 -42.22322126432552 -73.5807577174577 -93.9443478299119 -71.57177366672367 -78.34391717321603 69.095463189967 -42.38741360898666 -80.89046450987234
3.515272727 -41.42706463537355 -105.52362623787484 -88.95825818466925 -94.08646986544618 -79.41532466661064 29.911703103115382 -42.33480872643678 -112.66600453716782
3.555666666 -40.894692458691495 -141.57956799834207 -84.80494178046301 -120.52839438604254 -82.66399504111439 -21.252007362428127 -42.17894014700397 -143.5153686006089
3.596060606 -41.575076349540225 -177.80109165726915 -86.22205358051689 -152.1022746985194 -81.03125513780107 -16.624194356788767 -42.03546827567415 -175.43269705112158
3.636454545 -42.26346531424398 156.0499641338082 -86.26481175608164 -160.14593273926198 -79.41532466661064 -47.407913405064804 -41.91698344006713 154.20193664298682
3.676848484 -41.90169260517322 133.17429221350972 -81.93692081098433 180.0 -76.85866406534754 -91.5195596974402 -41.84990596992672 126.03069765248878
3.717242424 -41.456833504039835 107.3190897542455 -85.2385656857077 158.20003942573348 -74.03514893174781 -132.1507176527201 -42.15290275488323 97.81890503425939
3.757636363 -41.2558541728653 75.17856222309067 -81.6000798738523 82.98193089543349 -75.31329746678824 -178.3024384176456 -42.74696596726383 66.67817895469345
3.798030303 -41.476770786064456 33.45562990563212 -87.66530040993169 17.88028035843908 -75.55380104889363 149.33506536887083 -43.182460237557656 31.9575764664956
3.838424242 -42.83705737266543 3.51274145025808 -96.78188403793682 -127.85430485401245 -74.47930878002872 123.47749496397098 -43.85437185622067 1.1001761593960737
3.878818181 -43.50207870203975 -16.009738899631955 -86.18252806929073 100.43477394116731 -75.13418245078701 78.28222933040291 -44.672819676724195 -21.660251651992073
3.919212121 -43.376417001979945 -37.49467304450218 -84.08362454811511 37.569425034257826 -76.42703181484914 44.319797128486506 -45.420134757778655 -40.934252246300744
3.95960606 -43.64114740486574 -62.08376504105484 -82.5519252173421 -13.802900331020277 -75.56196121704822 7.882007511241555 -45.966311109721545 -61.66886846808088
4.0 -44.48188851032814 -91.98756029299386 -81.65791474839104 -44.9963466314203 -78.26290656028951 -16.927222311180877 -46.54947324274105 -84.79577062139712
