!Created with skrf (http://scikit-rf.org).
# GHz S DB R 50.0 
!freq dBS11 angS11
0.001 -59.90748058150221 140.8119593080344
0.008998 -56.10026526563786 51.746069300207296
0.016996 -55.68244676257018 28.20784037863342
0.024994 -55.6082328026035 13.46167440432829
0.032992 -55.59402775119865 0.30665966308723885
0.04099 -55.51916002094342 -11.89749118018873
0.048988 -55.67684969448023 -23.18107574669106
0.056986 -55.87086229752052 -34.19173889857249
0.064984 -55.94528476217669 -43.645330133434335
0.072982 -55.981368761014224 -54.86162256365954
0.08098 -56.224588392988124 -63.54038907687816
0.088978 -56.08763827186647 -72.72329919915514
0.096976 -56.27118237077007 -81.30063523123155
0.104974 -56.27559165143812 -88.72067568924886
0.112972 -56.33364204421479 -97.84672575593665
0.12097 -56.354489150182644 -104.15219663980453
0.128968 -56.305318940478045 -111.66904514944902
0.136966 -56.37967818282196 -118.70983081810127
0.144964 -56.37518660719182 -125.19230569891552
0.152962 -56.438006196839254 -133.56624678576625
0.16096 -56.5223641774675 -140.73116180599672
0.168958 -56.66836875738338 -148.26241495151936
0.176956 -56.6149790421401 -155.3522120733412
0.184954 -56.58087506604265 -161.9373318118402
0.192952 -56.62400425718438 -166.15517086201666
0.20095 -56.78217734301563 -170.15785187061232
0.208948 -56.878280246589775 -176.39202684140886
0.216946 -56.887418470859494 176.5409566338627
0.224944 -56.83745233810094 168.80908332978956
0.232942 -56.76520931236258 160.5822537438353
0.24094 -57.02265625637523 154.1967895726569
0.248938 -56.77263704926865 147.95195705691566
0.256936 -56.753130634599344 141.59810262441903
0.264934 -56.88678765899877 134.85614599232758
0.272932 -56.8274475562902 127.44537879061906
0.28093 -56.83623650023374 120.18372774355062
0.288928 -56.79299462599678 114.47311497370856
0.296926 -56.75651840010846 108.97346468988944
0.304924 -56.65848034993577 104.36062461203153
0.312922 -56.603631275869446 99.93970518258016
0.32092 -56.511673704083314 95.21649195834684
0.328918 -56.411156380033376 91.78084281201423
0.336916 -56.412711290703115 87.25547116640122
0.344914 -56.40803012288521 83.78195224052708
0.352912 -56.36805996432358 80.47475730422671
0.36091 -56.20099707738773 76.29402529264493
0.368908 -56.20799557714478 71.83252806177227
0.376906 -56.22363336635411 66.65908210563879
0.384904 -56.052126326865164 60.97676791565621
0.392902 -56.11764474629282 55.755182857754086
0.4009 -56.027635012828895 49.62859731742008
0.408898 -56.00082066150413 44.1885478745382
0.416896 -56.114769324233784 38.804902203736106
0.424894 -55.953366772568046 33.626835214164196
0.432892 -56.00368714254784 26.975742388689053
0.44089 -55.92768323580765 19.975256062505153
0.448888 -56.02090549391754 13.27733006032214
0.456886 -55.910279805606635 6.555890199219208
0.464884 -55.97151985133038 -1.418448969314018
0.472882 -55.889677502019886 -9.194133109744453
0.48088 -55.92725435250515 -15.670189603322225
0.488878 -55.97100045156316 -22.634030827431786
0.496876 -55.724748944232516 -29.628912641192514
0.504874 -55.846099178841435 -36.90593848087815
0.512872 -55.846812434422446 -43.341628786575974
0.52087 -55.70077223605664 -51.06314412869797
0.528868 -55.70349092866009 -58.389718060069036
0.536866 -55.73162771959302 -65.98323273306043
0.544864 -55.73952059445432 -73.60798148374367
0.552862 -55.60343677951296 -81.72731572335107
0.56086 -55.54100088005907 -89.65177389673643
0.568858 -55.377946296255075 -97.9729129244787
0.576856 -55.30548775101573 -106.27707307303179
0.584854 -55.206820973897536 -111.8947667908262
0.592852 -55.17949776562589 -117.8538131509069
0.60085 -55.17153684564576 -123.2038437960181
0.608848 -55.14746586049025 -129.075607568587
0.616846 -55.22545316033144 -135.05940525527592
0.624844 -55.17137385792975 -141.3856943782103
0.632842 -55.192927316676176 -146.4027186945284
0.64084 -55.17423345964004 -152.25893502454164
0.648838 -55.1699445480843 -158.7409133678081
0.656836 -55.24686588831646 -166.01479189827847
0.664834 -55.25730816891052 -174.3020782655069
0.672832 -55.25155749817898 178.27317981092173
0.68083 -55.33822959778326 170.85928880135123
0.688828 -55.27654916365569 164.13003897049248
0.696826 -55.27292180812411 157.83803846596044
0.704824 -55.24059891623297 151.2149290599442
0.712822 -55.227376142304145 143.37361847316177
0.72082 -55.23697152009338 133.78109507965513
0.728818 -55.353798207976354 122.98090159916947
0.736816 -55.36875344008692 112.744732453135
0.744814 -55.48163706512048 103.39656478719364
0.752812 -55.427452041989646 93.3966386702521
0.76081 -55.30903227745309 85.24689369742504
0.768808 -55.3786773415449 77.2904068081651
0.776806 -55.380347469004434 69.29372035093797
0.784804 -55.267147151828524 61.98206234435635
0.792802 -55.32042962971056 53.70742359771669
0.8008 -55.27267726908598 46.343239649640545
0.808798 -55.179721510249074 39.73606742109241
0.816796 -55.37712482827438 32.979272579921904
0.824794 -55.28685318185608 27.03763948297149
0.832792 -55.396296152847164 20.425885108611272
0.84079 -55.31051336892395 14.221551622392683
0.848788 -55.32983155967875 9.217678754118317
0.856786 -55.401503440898274 3.3864947146179394
0.864784 -55.41632697733871 -2.2752397911319093
0.872782 -55.512476388472564 -7.178900243932855
0.88078 -55.603610637703476 -11.791392342786123
0.888778 -55.61942979873855 -17.031784537489134
0.896776 -55.6992505663824 -20.805020423830147
0.904774 -55.700948427552355 -26.82283185674689
0.912772 -55.87561249221415 -31.73215232579815
0.92077 -55.97273917543256 -37.08040474567981
0.928768 -55.93738076567589 -42.969702262495076
0.936766 -55.818279196771236 -48.65760090306684
0.944764 -55.950055361682054 -55.28465714476906
0.952762 -56.0350327767155 -61.24983255150794
0.96076 -55.994866601248404 -67.74710324946025
0.968758 -55.892144611455635 -73.6871439159466
0.976756 -55.9802177187521 -79.45344321766075
0.984754 -56.01576920771158 -85.39676019516224
0.992752 -55.90485334645686 -90.45397250591428
1.00075 -55.757517302283745 -95.36408062875654
1.008748 -55.88191260547157 -99.50683468329723
1.016746 -55.761647780167095 -103.98202842901966
1.024744 -55.70652914474267 -107.1158240880117
1.032742 -55.78659759967433 -111.16915799597254
1.04074 -55.73162771959302 -114.01676726693958
1.048738 -55.73098235744183 -116.92322469276046
1.056736 -55.655338143035145 -119.26892828256065
1.064734 -55.68012381981475 -122.1928942476783
1.072732 -55.82622391808417 -124.70104778252384
1.08073 -55.88931610803547 -127.5768289731173
1.088728 -56.026774658927664 -132.3295565112267
1.096726 -55.96218595569355 -135.420034216568
1.104724 -55.88875572119771 -140.45557437110514
1.112722 -55.96381298119071 -144.38271754776332
1.12072 -56.05091647993254 -149.384820569052
1.128718 -56.013793624430896 -92.62124325808931
1.136716 -56.04050474680889 -97.44529130653925
1.144714 -55.997360345814535 -102.30006611874326
1.152712 -56.21198187455783 -107.78060079959359
1.16071 -56.13698087888352 -112.03519426570227
1.168708 -56.092479411547664 -117.85127511563827
1.176706 -56.165715261503394 -122.66490704807268
1.184704 -56.19578973696012 -126.26904792732225
1.192702 -56.125361165549485 -131.60651166802924
1.2007 -56.178884452104086 -136.1596028075969
1.208698 -56.362371707219324 -141.88573782217256
1.216696 -56.369096751814766 -145.42006090580426
1.224694 -56.431630666987374 -149.93792839473875
1.232692 -56.554387218590506 -156.01745547016276
1.24069 -56.48277543200413 -161.6878703657046
1.248688 -56.5479431825342 -167.23258494752724
1.256686 -56.58729807912066 -173.00906502013177
1.264684 -56.612354354368506 -178.67009169481997
1.272682 -56.65580643390746 175.54054219036928
1.28068 -56.71211152582427 168.51415867601244
1.288678 -56.60686236452959 161.82966096623824
1.296676 -56.74027607355809 154.1951135825885
1.304674 -56.729839512763895 147.59771959660318
1.312672 -56.74865298057338 139.7460047993504
1.32067 -56.76056485443951 131.91638843137002
1.328668 -56.76528394317217 124.23203846443302
1.336666 -56.843754642687344 115.07190841538518
1.344664 -56.785255447454645 105.669479412226
1.352662 -56.68535847804929 96.57051895690088
1.36066 -56.62391716198593 86.8418419656632
1.368658 -56.60685579807534 77.39650401215074
1.376656 -56.53997785602713 67.91729721908885
1.384654 -56.448999483296525 59.08590831031759
1.392652 -56.504780270132215 50.13233052219124
1.40065 -56.51433672466808 43.174541378846854
1.408648 -56.48481951795893 35.170933817812134
1.416646 -56.75670363259428 28.44680452197432
1.424644 -56.73046644596074 22.00531903898405
1.432642 -56.89956021623364 14.826386537720971
1.44064 -57.05008626003174 8.840773352698655
1.448638 -57.303714776394045 2.8278655228616625
1.456636 -57.46723630873185 -4.515402389802395
1.464634 -57.80064217367158 -10.678589906769764
1.472632 -57.827842718999435 -16.248875371861388
1.48063 -57.96229656286784 -23.68207687583682
1.488628 -58.09897013162906 -29.048940959762433
1.496626 -58.40046998998428 -33.673226804649886
1.504624 -58.48230588638884 -38.898285511509556
1.512622 -58.441338213397465 -43.02181451561645
1.52062 -58.69155784231944 -48.142729612200384
1.528618 -58.701641807458444 -52.954602025684345
1.536616 -58.949876755826196 -57.54340089509955
1.544614 -58.99142998767842 -63.26122842802997
1.552612 -59.00100235480551 -67.44005031036863
1.56061 -58.89501404585659 -72.6994786914357
1.568608 -59.113201054773626 -77.62103369544229
1.576606 -59.74569820129756 -77.90017583111977
1.584604 -59.38078041329442 -85.32043911598534
1.592602 -59.701871723546006 -89.01576651929899
1.6006 -59.748000092355696 -93.81870896006436
1.608598 -59.791572104448505 -98.91384515572976
1.616596 -59.79253675267312 -102.67542241955769
1.624594 -59.973615394602334 -106.62260727752519
1.632592 -59.977179731520906 -110.84462487275984
1.64059 -60.074843560593635 -116.95903553278374
1.648588 -60.17859339477092 -120.62028908519461
1.656586 -60.39984949347817 -123.94347292013329
1.664584 -60.51841926741054 -128.70842642026224
1.672582 -60.50311723470361 -133.9639320727362
1.68058 -60.71518964021888 -137.29034804337974
1.688578 -60.910794815962376 -141.75636864135197
1.696576 -60.81980948696576 -146.55377106786395
1.704574 -61.28455579738629 -150.45395500657958
1.712572 -61.39730456411087 -154.84886006099342
1.72057 -61.42621369038171 -158.7712443046984
1.728568 -61.78168913630891 -163.14679918570883
1.736566 -61.80363230950711 -168.4620384374101
1.744564 -61.98944414216592 -173.2149975616941
1.752562 -62.118147997789414 -176.4697796979516
1.76056 -62.549951131410495 178.34110277629176
1.768558 -62.361909257972215 173.30168490565794
1.776556 -62.6354116460434 167.18263773333507
1.784554 -62.863788700620695 158.7810603970698
1.792552 -62.99277371439305 155.54731926280155
1.80055 -63.47386863533862 147.84510157288653
1.808548 -63.191275775339115 142.3739799535203
1.816546 -63.38794348953633 135.91181465960958
1.824544 -63.562140200556705 127.61538537596314
1.832542 -63.598494662159425 122.285590759784
1.84054 -63.68656416454029 116.01753696195422
1.848538 -63.77178198101174 110.77950018758266
1.856536 -63.79397958301678 104.80079994738176
1.864534 -63.925484192897024 97.45133373837086
1.872532 -64.00567642985267 92.88596966891322
1.88053 -63.98417751507765 85.04494385909275
1.888528 -64.2346787176541 79.75887938076811
1.896526 -64.45799275428952 74.37181895305372
1.904524 -64.4199908325096 70.37889544879827
1.912522 -64.43987777182622 61.97034161608437
1.92052 -64.7368978608673 55.892214535544696
1.928518 -64.38899747877541 49.43776883917037
1.936516 -64.79940974448633 45.089694234280955
1.944514 -65.10228606957598 34.67008627709173
1.952512 -65.0737940633722 26.506502965113633
1.96051 -65.01478576072455 22.331080599846103
1.968508 -65.56562240109665 14.37089015199109
1.976506 -65.70512237684247 6.185262979893774
1.984504 -65.82007089384122 -0.1426634930532446
1.992502 -66.00616482510632 -6.404292223758007
2.0005 -66.31603608042168 -16.482906107431813
2.008498 -66.46349247540732 -22.797133657612626
2.016496 -66.47731372622202 -36.07222956758047
2.024494 -66.18987516556847 -43.53104149390381
2.032492 -66.61290298626949 -50.294371606417734
2.04049 -66.52214073595323 -62.26298673219254
2.048488 -66.52435476258412 -69.02959013696
2.056486 -66.32851597568481 -78.15799370372825
2.064484 -66.58600815488852 -85.80382400115928
2.072482 -66.12203389021163 -94.56830720408215
2.08048 -66.20662700670917 -105.18970953389007
2.088478 -65.61523887368696 -112.21419440069019
2.096476 -65.62182010812711 -120.29623457535249
2.104474 -65.84593435564588 -127.21247598003914
2.112472 -65.49821590389855 -137.22840080067678
2.12047 -65.47067312521503 -148.0525511035459
2.128468 -64.98564068048971 -153.78167614532558
2.136466 -65.10647610732815 -159.94998971376967
2.144464 -65.38937357276188 -170.75995570136826
2.152462 -64.84017099629284 -178.6024555280378
2.16046 -65.28629146760981 172.62595902439062
2.168458 -64.77898684032438 165.0766868789755
2.176456 -65.24757246924202 157.6055051038516
2.184454 -64.88724165052376 148.11646117562879
2.192452 -65.07987662619273 139.1577168117957
2.20045 -64.83408402947524 132.8450667266138
2.208448 -64.59418111715267 124.81978308714447
2.216446 -64.75822974401319 118.02753838344144
2.224444 -64.50340343542575 108.39640703339975
2.232442 -64.45722088807963 101.50083891217939
2.24044 -64.2146432903923 94.96959053454947
2.248438 -63.91058219328178 88.85885675901832
2.256436 -64.04451362291574 83.26290928631518
2.264434 -63.71149315329086 76.72076877714483
2.272432 -63.83962506621333 69.77504216243535
2.28043 -63.90547871059894 64.91453601575114
2.288428 -63.673029549001974 57.66523549275494
2.296426 -63.213584442827496 52.39304929220911
2.304424 -62.96143661188219 47.96682723496919
2.312422 -62.88296711887409 39.831317278287784
2.32042 -62.771562357221015 33.74545329317474
2.328418 -62.84383793073594 28.055067834918756
2.336416 -62.84150011177197 21.59558571358475
2.344414 -62.23724418021506 14.264231053640339
2.352412 -62.83857204687397 10.241476924435291
2.36041 -62.23196030008073 4.802741607073746
2.368408 -62.40531650958478 -1.0552921714926282
2.376406 -62.440375541784555 -8.607280295723417
2.384404 -62.2535297882154 -14.973832983613466
2.392402 -62.35544412617206 -21.695053524405925
2.4004 -62.496072356462726 -27.735935057877313
2.408398 -62.318525124650236 -35.82509885514045
2.416396 -62.3362667083273 -43.85557203788941
2.424394 -61.99336925276764 -50.05382090385782
2.432392 -61.90756444937097 -59.17613045119584
2.44039 -61.93498981663714 -66.03745686570647
2.448388 -61.64794502653126 -74.23558119000606
2.456386 -61.66202262206858 -82.58024735507846
2.464384 -61.43722029187195 -92.23246886006993
2.472382 -61.257843618951824 -99.54562789785722
2.48038 -61.07359919832591 -107.99226320628208
2.488378 -61.02441621088175 -114.29480574386291
2.496376 -61.0131504278919 -124.3023523215904
2.504374 -60.99408199018129 -131.01689176632863
2.512372 -60.71544936843512 -139.92129943924468
2.52037 -60.6060554424795 -148.75528669758452
2.528368 -60.81987489950183 -156.65467414403125
2.536366 -60.95736698405094 -164.88040736483043
2.544364 -61.10190221859912 -170.87716317016208
2.552362 -60.908782238567404 -178.14218173097828
2.56036 -61.260524988383985 175.36883111567502
2.568358 -61.395404786464304 168.38815707907773
2.576356 -61.787615020514366 162.66746836616917
2.584354 -61.983086042454445 155.19301679100437
2.592352 -62.36944280442468 148.64289981147414
2.60035 -63.00282601972273 142.80124142294596
2.608348 -63.10184636424748 138.38378861315576
2.616346 -63.83005657603712 130.03688379435116
2.624344 -64.47154897556426 125.74992216303657
2.632342 -64.9676587698001 120.2563282838008
2.64034 -65.26083986275427 115.78978158729863
2.648338 -65.6940522205965 113.49302482148885
2.656336 -66.12705837212695 107.50344554782225
2.664334 -67.35936149656646 100.41113013099807
2.672332 -67.29046069301492 96.58190689878498
2.68033 -68.6484396087571 89.80358054487468
2.688328 -69.41097202811554 86.3431703171261
2.696326 -70.89861164455161 79.74121595798236
2.704324 -63.53730912239548 63.72842356943009
2.712322 -61.767227095090334 56.35927045790588
2.72032 -60.27903612487383 54.12200435734453
2.728318 -59.35840189703707 53.19766436008995
2.736316 -58.82838220008921 52.074993580411274
2.744314 -58.73052543764685 49.00355893189824
2.752312 -58.87692951348073 43.23691559155692
2.76031 -58.85483514629648 36.538242546268016
2.768308 -58.61476630319487 28.867845971218102
2.776306 -58.21731143362511 19.952927040988712
2.784304 -57.534159051944926 12.082995242582378
2.792302 -57.12095090532448 6.0689487594400005
2.8003 -56.62944605809141 -0.39471564770212686
2.808298 -56.14073841415309 -6.216670562817986
2.816296 -55.798315601183745 -10.553552028110634
2.824294 -55.51911262733712 -15.879796461600321
2.832292 -55.3788737736992 -20.61122156407565
2.84029 -55.24702124518865 -24.475473733188096
2.848288 -55.01767234206348 -30.527830498941555
2.856286 -55.05222540635635 -35.882291286097676
2.864284 -54.892521464872594 -41.19741217131348
2.872282 -54.819903350034174 -47.0120170579456
2.88028 -54.76728032767261 -52.739897597601185
2.888278 -54.640037849155135 -59.587960157029705
2.896276 -54.445081785365346 -65.6324222016023
2.904274 -54.25995525185897 -71.57683258571596
2.912272 -54.08784176327589 -78.05444028166615
2.92027 -53.688584340391245 -83.69076354083921
2.928268 -53.240403334592045 -35.459991536150504
2.936266 -53.12501060956712 -40.37948982746068
2.944264 -53.09314432287635 -45.20906497995103
2.952262 -52.93300553800536 -50.342915833688195
2.96026 -52.724352376679136 -54.72941774663033
2.968258 -52.73309340750956 -59.45773566243993
2.976256 -52.538681974905856 -65.1302932284051
2.984254 -52.47370418477881 -70.41416899929852
2.992252 -52.31568018230089 -75.8618127103944
3.00025 -52.14614010609962 -81.90311417371983
3.008248 -51.965837877886855 -88.00920982780144
3.016246 -51.68731124662999 -93.97013591533084
3.024244 -51.39373700932072 -99.22263733625697
3.032242 -51.10134645154901 -104.51752250919137
3.04024 -50.77425698269056 -109.08701781809935
3.048238 -50.58588331827031 -113.81260423412174
3.056236 -50.42398776220418 -118.1208558272149
3.064234 -50.354070531802705 -122.61997261108175
3.072232 -50.27143799971427 -127.15472372436533
3.08023 -50.19174296539444 -132.85427836287042
3.088228 -50.15851156025569 -138.54742138318932
3.096226 -50.09106872834775 -144.47859258789458
3.104224 -49.95935827392018 -151.16112146349423
3.112222 -49.81015011145983 -158.16089452352884
3.12022 -49.64161350041704 -164.90367609433534
3.128218 -49.452702668915435 -171.72016866914421
3.136216 -49.25152682968314 -178.60694399969816
3.144214 -49.022532171758044 174.83360510903077
3.152212 -48.82172830133493 168.78063601098273
3.16021 -48.61549002021163 161.93097095639618
3.168208 -48.400739222602944 156.26873505901534
3.176206 -48.19323075455637 153.19252849024298
3.184204 -48.26198851612944 148.9328939512473
3.192202 -48.36837532289431 144.9721441612718
3.2002 -48.540927319129 139.4598897042869
3.208198 -48.80144518972501 133.441216275106
3.216196 -49.024930708827206 126.25720431476702
3.224194 -49.22933865977462 118.89101640541747
3.232192 -49.29140995357345 110.51393183514827
3.24019 -49.23724055065702 102.18595017045408
3.248188 -48.96922049487971 94.45819668417829
3.256186 -48.74084124407836 86.55524218071814
3.264184 -48.43544470262292 80.23135436034025
3.272182 -48.08717316509636 73.80110349838145
3.28018 -47.82799880918639 68.4646698249921
3.288178 -47.540008891976356 64.17899030750871
3.296176 -47.39528686972357 59.9570337890468
3.304174 -47.30576154017644 56.06670358481512
3.312172 -47.43103521676673 52.21950318604451
3.32017 -47.61303881878865 47.75684473253846
3.328168 -47.89642575889859 43.07177510089618
3.336166 -48.22045919588271 37.477183341712056
3.344164 -48.53553933473452 30.810432073246428
3.352162 -48.71566397378659 23.25335608199218
3.36016 -48.824382287398166 15.644644383548867
3.368158 -48.72296289812613 8.691823358800518
3.376156 -48.648756824784265 1.4177644348026084
3.384154 -48.41412196449612 -4.585383100842463
