!Created with skrf (http://scikit-rf.org).
# GHz S DB R 50.0 
!freq dBS11 angS11 dBS21 angS21 dBS12 angS12 dBS22 angS22
0.001 -70.45642174678177 -130.36410294819717 -86.7804447001565 -43.879797399339935 -89.31857581650092 -105.06246234316069 -73.42145621682742 -108.758400023316
0.008998 -63.71301537088196 122.5139159712541 -94.08587226063528 -45.0 -89.15083467417917 -146.88375391502694 -66.20413421028589 136.1562059764647
0.016996 -58.45114065175445 77.85417940267654 -93.43419344849742 -17.363591272285888 -98.42924074251485 -31.990277545498316 -60.90957258282583 90.88881232695586
0.024994 -55.00611346930323 52.22907687367936 -94.4783634098009 160.35682062722663 -94.38220345675617 -176.17402758408903 -57.092814716968974 66.4867946086143
0.032992 -53.20526339510194 29.319603732947957 -93.08013144875565 -13.242723853314098 -93.94455170487767 -34.6924644722641 -54.72507096668751 43.40176798939614
0.04099 -52.02847925514567 7.373871796892835 -90.53594979849619 19.98801345286157 -92.80420884362985 -109.44313726371102 -52.65802334591129 22.817105403692473
0.048988 -51.40749125329002 -15.335813244196922 -91.93502405558931 -17.528108117785674 -95.88560564945143 -18.418136681528612 -51.3220666541753 0.9914266434672662
0.056986 -51.17668077210746 -37.67623236243371 -94.91497680701985 -8.133464190654678 -92.70025130657882 -9.456265251600897 -50.159044419076686 -21.601246893755913
0.064984 -51.03675344514585 -58.3958658862026 -95.41894078587504 -76.99027754549832 -86.95358803006734 -28.737913224234358 -49.28713459349331 -46.54412373622393
0.072982 -51.05455828965529 -77.50787729165955 -100.67558769190731 -105.9390578722415 -101.90111007869989 18.43494882292201 -48.621364742432235 -71.478181234114
0.08098 -51.35375767168934 -94.81945352548249 -94.04781172859222 39.80557109226519 -97.39250341339599 48.82597241591099 -48.16524573382666 -95.93492638057378
0.088978 -51.91115598237218 -109.71364920872566 -97.87874808787443 -84.30604326723407 -89.9379981077425 23.506582061430024 -48.465515714482414 -118.85982283315484
0.096976 -52.82772629768958 -122.34636958004032 -90.0478116395463 -43.35848877138953 -100.92895291280591 81.89677183689062 -49.56764142675702 -139.40108757281254
0.104974 -54.000550161361964 -132.83308695126794 -99.79218399457663 -7.145695145987545 -98.6302181488824 -167.46723758492482 -51.46676148107025 -156.1897298295441
0.112972 -55.68630796877092 -140.89749625703888 -91.80715524713119 -8.52501244403584 -103.94536610446112 36.8430045337551 -54.15739934994414 -171.5388685783689
0.12097 -57.57108483308026 -142.84395052687378 -96.22322435811489 9.466865525715967 -92.25248179232288 -38.665273062077055 -57.64124321568423 -179.55619353595273
0.128968 -59.167137411496 -136.72998941025583 -101.02338878514301 0.0 -94.48159155988822 109.65078158888068 -61.29612751426703 -172.88543353271888
0.136966 -59.166508024362514 -124.99170247822023 -93.9443478299119 18.428226333276328 -96.31242259503873 -4.752048048732835 -61.47409405916153 -142.3365073604564
0.144964 -57.1969478645955 -115.90529240526757 -102.60092939056435 120.97363341174005 -96.95362855525858 26.551607775280324 -58.2043416357716 -127.99400479992758
0.152962 -54.4571898478432 -119.28253556114963 -108.89081012206007 -135.0 -93.32990776572936 -134.98599467651627 -54.40760884095582 -133.35112415871262
0.16096 -51.76233116969306 -128.3076845547966 -93.2706732950358 69.43704751348037 -92.95419828965109 106.38311776041377 -51.46234761200286 -145.78884733105272
0.168958 -49.79461227167576 -142.81099798356456 -102.24726700762784 80.5013168388909 -96.30820538329925 85.2502639265511 -49.257045720953926 -163.02163092577663
0.176956 -48.507325749530175 -159.1989409196276 -89.23118287312548 107.10636264354733 -91.44080057767559 121.43107640020155 -47.94154401802659 174.65439834789342
0.184954 -48.0257780898232 -177.3774984853015 -91.3237185446637 79.21423127502865 -92.49382055644179 74.48455530037332 -47.58317766119401 148.0352214864611
0.192952 -48.27338330573547 165.37359538739057 -88.84898349998467 39.29689422311198 -91.73322623045125 101.31316459335527 -48.00013801245107 122.45297562352222
0.20095 -48.74923693994802 150.10936685532985 -93.94455170487767 55.3075355277359 -97.0961722172751 90.0 -49.09591510707674 102.92469100712273
0.208948 -49.468214081328476 134.03574300241934 -90.24586396524286 38.29762081641544 -93.06649373216088 30.960461209162734 -50.72504056032535 86.84660852145376
0.216946 -50.1618336512389 118.68344087541189 -103.775894146846 101.34872446505501 -91.3237185446637 -79.21423127502865 -52.59907264210015 74.9926028844873
0.224944 -50.924313415871225 105.12266357945794 -97.55282141294538 -106.69307444136007 -92.34797869834631 90.0 -54.60086179411477 67.4582295132762
0.232942 -51.608984027849175 93.49160114322656 -97.55141778457669 -106.72391941744361 -96.30820538329925 -175.2502639265511 -56.4451736229618 65.63999807932244
0.24094 -52.28664354456825 83.42828320094902 -93.69261605332355 132.51679001825096 -92.70025130657882 170.54373474839912 -57.572750277069424 69.77239844677554
0.248938 -52.953254799332406 75.02289098511909 -101.39128247714669 116.54264375564973 -92.63435179456602 157.62483707253227 -57.20378390382595 76.6418848894414
0.256936 -53.609614033177344 68.32177094921414 -93.31423003584673 90.0 -93.29931105250324 176.64281124837746 -55.634587866097995 79.32894458711371
0.264934 -54.35657274823307 62.381453617334984 -102.87021020878045 135.0 -90.99577284001438 144.1596197142542 -53.44949549662498 74.51061956400223
0.272932 -54.82340670535695 56.098555632623004 -93.43419344849742 -162.63640872771413 -89.56684966841563 -173.4229622757836 -51.379519532606466 62.31293623751638
0.28093 -55.60214413519652 50.497632034584214 -87.83322405113088 159.86501337555555 -93.08196925975032 113.6282755284079 -49.74047809965751 45.09486845147618
0.288928 -55.989003173561436 46.94590718850535 -93.50031533277495 147.2623464548791 -91.63991843768608 157.17820912086657 -49.14284110440793 24.78391357267225
0.296926 -56.67084587034098 43.42149134156339 -93.689539481431 -169.39048983420795 -92.30303903737953 84.0057320324735 -49.881951202319726 4.248991821534966
0.304924 -57.10704057461054 43.41397795396907 -92.24148282976529 117.8936373564527 -95.34619077604518 138.0220718863151 -51.50777985530034 -13.876909885510159
0.312922 -57.566408746834355 41.615135603302924 -101.39128247714669 -116.54264375564973 -91.13764766881724 164.0524903316645 -53.54225308152735 -30.079584244484035
0.32092 -58.151995365865005 41.54573470041514 -101.39128247714669 153.45735624435025 -88.39161334288967 154.28780023601263 -55.86891975178834 -42.56866374329928
0.328918 -58.26219996999646 40.5302579115073 -102.87021020878045 45.0 -106.78815568524583 -146.28406530669724 -58.327801187849175 -50.355925754804645
0.336916 -58.49443021120092 40.40888432825358 -102.35868498430663 90.0 -88.62871948613018 -120.96177952025576 -61.15643167687536 -53.495571709457174
0.344914 -58.64940555998086 39.57458681796245 -96.58632090827734 -59.03624346792648 -89.90194237932758 173.16305778721056 -64.19262220572547 -46.25081789838419
0.352912 -58.548378722954 39.50590075678357 -91.64219691235694 -157.1718834805938 -91.64051810552222 -140.90218640784684 -66.09367403516066 -22.755304907698225
0.36091 -58.17608277977668 37.84921730018351 -93.2105137863141 -35.52178059246986 -93.69261605332355 -132.51679001825096 -65.13273104225937 -0.9196199670750403
0.368908 -57.877896047204665 36.220098613619236 -90.81366474030091 -131.4230117203507 -96.78501987939751 -105.2447755712064 -62.71399388109566 8.987701984732038
0.376906 -57.45732540316012 32.89188635788126 -101.79697794378458 -128.67620658779035 -88.26202748491758 -136.3442109034972 -60.29734303255998 7.704404928498617
0.384904 -56.960515686178574 27.390621191388096 -106.77639946255769 146.33576465419645 -94.40090363705207 -143.13906462211247 -58.511477444769625 1.9623039697913234
0.392902 -56.36702518096597 21.63241342332529 -93.43509991883312 162.65554299820147 -91.47853712567235 -90.0 -56.92340361334554 -6.8589057760328
0.4009 -56.181903834517264 14.889214382939546 -100.76167655563152 -33.690067525979785 -99.23008026714436 125.56492689241509 -55.731636942321146 -18.43494882292201
0.408898 -55.82961071063905 7.404193489668751 -96.21909283802994 -170.53767779197437 -91.37190350011636 48.82597241591099 -54.70834900624881 -31.845938260203294
0.416896 -55.584521688111664 -0.3938833421157287 -102.36717974257596 180.0 -89.62420262414238 0.0 -54.15885762591559 -47.101787112896886
0.424894 -55.645227648488145 -10.774028972296732 -96.84961029550082 -45.0 -97.67201614004392 119.04826115882707 -53.82006048638974 -64.28154944874763
0.432892 -55.639842190136946 -21.040776277105557 -91.3703256438657 138.81407483429035 -98.89335618250766 63.468563239430914 -53.71714218928346 -80.99618323149906
0.44089 -55.99237476979372 -33.04115115260973 -99.79924052273391 172.8905053536749 -93.29931105250324 86.64281124837746 -54.15898728366105 -97.30007356113222
0.448888 -56.55099705533111 -43.892944529730585 -106.77639946255769 146.33576465419645 -100.2918226817591 23.186996871654845 -54.75894024903514 -112.28913999753281
0.456886 -57.326564005503485 -55.99853739304355 -103.93721703519938 90.0 -98.43095716950101 122.03937766751453 -56.13819413566901 -125.08732628299107
0.464884 -58.1775298038248 -66.25921066326165 -94.87071862213978 -129.2877427871178 -97.54814578564637 163.3161719469595 -57.778605561218086 -135.15940904671558
0.472882 -59.405711420383405 -73.88643708010449 -106.78815568524583 123.71593469330274 -93.84249489971724 90.0 -60.19353821495197 -142.75767329039087
0.48088 -60.80035503951308 -77.86071517590358 -97.92170999197951 180.0 -110.92691110977438 63.36777912390129 -62.35466836393182 -134.12276107553583
0.488878 -62.253790720021776 -77.06137522631933 -97.92170999197951 143.13010235415598 -93.69261605332355 42.51679001825093 -62.787172673727596 -122.27145497391467
0.496876 -63.21233093670004 -70.89871488904186 -100.76167655563152 33.690067525979785 -94.10312508344944 -75.06579355236082 -60.42256219089184 -116.70154197716498
0.504874 -63.42831808140846 -61.889653686394816 -108.89081012206007 -135.0 -107.92679986713156 -108.50219735954529 -58.30086951762338 -124.40364395857686
0.512872 -62.17798894636346 -57.19130838672806 -102.24864648505141 9.44413884477918 -97.27713009971033 111.80140948635182 -57.15890080532099 -140.20116780729734
0.52087 -60.69996567200761 -55.82880528358524 -91.10105356264276 -133.1468001063741 -97.0961722172751 90.0 -57.48030659522202 -157.89527694941341
0.528868 -59.42023095588471 -59.19957641954368 -97.87874808787443 -84.30604326723407 -92.6345025807822 135.0 -58.90352144680633 -173.18528995581443
0.536866 -58.000020476801524 -66.64210035398705 -91.52684509929365 -163.3007557660064 -87.6048182942929 127.57483911540847 -60.73774488907971 175.47953770576837
0.544864 -56.712433328349874 -75.90334085729451 -90.30393007920692 135.0 -90.61483410738605 82.56047108192791 -63.22992451243975 170.8845826267527
0.552862 -55.63761753783682 -86.78351325184643 -95.37408063271403 153.446156917363 -97.67201614004392 -150.95173884117295 -65.40937957810957 177.55787105316742
0.56086 -54.67157407276355 -99.54007148405655 -91.09282512680963 149.93420644763918 -99.22526318430697 -35.542216790579566 -65.32811104396615 -162.67000715010343
0.568858 -54.03440639215564 -111.08736938249092 -93.75676891976262 158.19472726913156 -98.43095716950101 -147.96062233248546 -62.68080188181851 -154.0554301970924
0.576856 -53.473024890865666 -122.8713926915508 -88.62871948613018 -120.96177952025576 -100.68231609668373 15.95173884117294 -60.1721532696254 -161.49455095524465
0.584854 -53.07584116390119 -132.61100392646648 -98.89081012206007 -153.434948822922 -85.31079818987874 -163.68283249590272 -59.33643431183158 -164.50849087208428
0.592852 -52.98977409812772 -141.44159146549006 -89.46623769253664 -100.89415759788105 -95.37068256386706 -116.54264375564973 -56.807704447173364 -163.812405415416
0.60085 -53.21256649251606 -149.6930949740889 -86.28602170713393 -135.00622441925992 -95.8817830090649 -161.59025829358328 -54.47188243338674 -173.0516147151533
0.608848 -53.60470509364522 -158.33441865196903 -91.9906687372303 -135.0120041438665 -91.37370751388539 -131.18443765910234 -52.50117317472306 172.52094037766574
0.616846 -54.00986711784352 -166.21160852522686 -86.8438232361184 -125.90867445494395 -90.40361523231445 -112.24783378784794 -50.8916634846904 154.08500732335065
0.624844 -54.31199815949503 -173.90187757955462 -87.05944799481706 -113.63323458528554 -98.6302181488824 -102.53276241507518 -49.712469440050995 131.78696089612487
0.632842 -54.670270567303135 -178.77870107492768 -98.0130888285032 -135.0 -93.75676891976262 -111.80527273086845 -48.8406171966401 108.39677246117485
0.64084 -54.85542062209345 175.89128804719957 -99.59662086491716 -75.96375653207353 -86.58486938472169 -122.83595060063917 -48.41757270207212 86.54564879368597
0.648838 -54.740270432687765 171.0272643747073 -86.62670086011131 -60.64573730475334 -97.67201614004392 -150.95173884117295 -48.72374147850864 65.63010315902156
0.656836 -54.82455878528684 163.6579355898105 -94.87071862213978 -129.2877427871178 -91.10285445734348 -114.22704646962019 -49.56326841542481 46.17605893666255
0.664834 -54.6032350780667 154.9735744422596 -95.77327151150254 -141.34019174590992 -93.26788147749534 159.44395478041653 -50.89713191154176 29.624649365015596
0.672832 -54.38914920126272 146.7329864427647 -89.61774230500302 -92.20954894215495 -87.29415903464273 -118.0684162290759 -52.38804898210981 14.513984218337935
0.68083 -54.06532922032917 135.4938722231618 -86.53136229141991 -62.74247630035158 -95.6420891862026 -112.63179452683457 -54.02191230012249 0.43885216004038063
0.688828 -53.54849900905732 126.57217328491794 -86.76695172669474 -85.23094983989306 -97.92170999197951 -126.86989764584402 -55.80604426774964 -9.381216387320887
0.696826 -53.28519923971284 118.5032385962771 -87.17059842731712 -106.85981202669949 -94.08587226063528 -135.0 -57.52054944085485 -17.501073556936014
0.704824 -53.01534167246038 109.66037726485442 -91.85789634087345 -84.28940686250037 -102.60841722452818 148.99670187343594 -59.402193185191734 -21.27157207295955
0.712822 -53.04619233704804 98.06536249070793 -99.79296774269415 -172.89566431416438 -92.96927810924073 -42.701871953794516 -61.543129580359725 -26.87630809578463
0.72082 -53.10711806626459 85.61891404683854 -97.28152272511932 -111.81300312834516 -92.05676069826978 -104.75401096196896 -63.502749777177165 -27.880696168689195
0.728818 -53.48574218275531 72.65209836687416 -94.80578678559297 -65.21994077558185 -92.36123249805587 -71.55944877370159 -64.98674075699698 -21.70513591237982
0.736816 -53.9808181817267 61.221108156248974 -94.658351382692 -74.05460409907715 -87.25987198493908 -58.17832339103278 -65.05786334816173 -12.740755147790477
0.744814 -54.55099589410761 51.443258694414475 -96.27922783556534 -24.462370458211655 -91.3147238289941 -52.596111098680865 -64.22217024124296 -7.594138827891291
0.752812 -55.08610440853077 43.59716743448781 -95.2517827864051 17.106362643547318 -91.47853712567235 -90.0 -62.70380033810117 -8.775937073144409
0.76081 -55.941597015651 37.62695761769492 -94.25132144937521 -58.40548279622665 -105.618717181168 166.00329812656406 -60.930005800027864 -12.739380821685906
0.768808 -56.268644080284325 31.82466296853807 -96.7838436734923 -74.72678326692315 -105.88051016542026 -90.0 -59.30214468340613 -20.728805103977464
0.776806 -56.64378748509063 26.830465468575326 -89.96392875098618 -90.0 -96.84961029550082 -45.0 -58.25852386422446 -32.2199307015891
0.784804 -56.67863363127343 21.608015143108894 -92.3003862056832 -84.00756921812889 -100.76167655563152 56.309932474020215 -56.888564108389154 -44.172747880415024
0.792802 -56.641405201973576 15.666920981619317 -93.43419344849742 -17.363591272285888 -102.61291612957845 120.95386601266321 -56.05405841802323 -58.55297394738496
0.8008 -56.653419427018974 8.746250574746409 -92.95419828965109 -163.61688223958623 -95.543163233808 81.25189484902529 -55.06418183680084 -72.84252587060537
0.808798 -56.83742748505402 2.630064502103309 -95.34619077604518 -48.02207188631512 -98.38098252050688 -18.457356244350258 -54.15814357227831 -88.32861350674786
0.816796 -57.079476782412975 -4.2671034313087635 -95.37238168125515 116.5762570794411 -94.32836196458985 82.40095174856809 -53.51392260066984 -103.57619172104755
0.824794 -57.37506874046793 -11.974645166114332 -102.60092939056435 -59.02636658825995 -98.42924074251485 31.990277545498316 -53.05854236187608 -118.40923188125
0.832792 -57.700767793173775 -19.353280322553562 -97.54814578564637 16.683828053040482 -87.41549734149831 -17.35701486534441 -52.83671835372963 -132.6535310116287
0.84079 -58.150281400709844 -25.407632408970986 -96.95362855525858 63.44839222471969 -96.28097325167562 -65.56295248651963 -53.06503351014703 -146.56420217327465
0.848788 -58.99201342160118 -30.741200909349708 -105.618717181168 103.99670187343594 -95.9644982462909 -28.616882239586236 -53.50355523813293 -161.129323258031
0.856786 -59.1983367492973 -34.57363708522934 -92.24120735398034 -8.965359496374552 -91.93502405558931 -107.52810811778568 -54.33718694414686 -175.25527251289367
0.864784 -59.406238519299144 -36.12243079118976 -98.78667798714477 83.67620658779035 -97.06061722020155 -174.81934742754024 -55.1547211353003 171.13359341429052
0.872782 -59.54801681132448 -36.46919188327327 -99.2335243147547 -125.53313447428404 -96.7838436734923 -74.72678326692315 -56.33588790406875 157.10847971215932
0.88078 -59.441897787865145 -38.180340375826816 -102.35868498430663 0.0 -96.21909283802994 9.462322208025617 -57.41527315759397 143.74619634795198
0.888778 -59.134342176153815 -39.72977901105245 -94.53948220599513 -118.29613004039035 -103.93925286944572 53.10322816310937 -58.50552172316303 130.7937559014727
0.896776 -58.7883589181504 -44.01538070666085 -96.7854120188329 37.87239775140627 -108.37079843903324 90.0 -60.079031721605176 118.14174257659222
0.904774 -58.38160708978088 -50.21770154301768 -96.19104388457005 -124.9807419459755 -96.95485166151748 100.30753552773591 -61.34778550328139 105.39665684485178
0.912772 -58.08255135411991 -55.7920995171963 -98.0563562718312 -23.96941963615235 -98.0130888285032 45.0 -63.44687437135584 92.38129265672282
0.92077 -57.86697722385374 -62.03474546685514 -93.77628811782351 60.26287745260588 -91.63859981141502 39.08753275403559 -65.94852032176456 79.2566565959553
0.928768 -57.59278596327549 -70.134599241036 -86.71555533690676 7.905126931156187 -102.60542054155812 30.924228577314597 -70.21741613313382 63.32971684836449
0.936766 -57.82696019312166 -78.82344426862004 -98.6314159738522 102.4971656968979 -101.39128247714669 26.542643755649745 -79.10075809538553 29.499490414349676
0.944764 -58.10683580706047 -85.43049985436775 -91.28575059854084 -27.76218578813207 -92.80405204871667 56.30476184146381 -80.15195999380838 -116.89921286500903
0.952762 -58.31860942891467 -91.9191953910686 -96.84961029550082 45.0 -101.3980796124954 153.434948822922 -70.02764656817361 -134.8362517068902
0.96076 -58.83739389965102 -94.77954969921414 -99.79296774269415 -82.89566431416439 -97.55282141294538 16.693074441360054 -65.07241022075596 -149.93173097764014
0.968758 -59.13330427550378 -97.2638421553765 -97.06061722020155 -95.18065257245976 -102.35868498430663 0.0 -62.08062893464817 -164.46105178832067
0.976756 -59.34053355795371 -99.00782223344868 -93.18125695493134 -10.000084558344959 -94.24957202829927 -121.6132722139548 -60.04968817920397 -177.29116974536151
0.984754 -59.24760524084153 -96.55370562787402 -94.53948220599513 151.70386995960965 -93.75676891976262 68.19472726913155 -58.424079020623324 167.8925354067396
0.992752 -58.74444893755023 -97.51547265815921 -98.8396904662906 180.0 -100.68231609668373 164.04826115882707 -56.97733538290861 152.37777598329185
1.00075 -57.885573262652805 -98.24307130900878 -96.21909283802994 80.53767779197439 -90.59364607770759 64.54038355423695 -56.00383553298408 135.13013994097105
