!Created with skrf (http://scikit-rf.org).
# GHz S DB R 50.0 
!freq dBS11 angS11 dBS21 angS21 dBS12 angS12 dBS22 angS22
0.001 -70.21700803155684 -116.14352050721537 -81.38680341594052 -24.656570247197287 -86.64975882102567 -55.01399565899282 -72.04608959637746 -105.02540395870115
0.008998 -65.41376138348218 134.32836052913026 -67.4982678429923 -88.61935335422979 -68.31640393894934 -87.72410202721801 -65.2977510391189 134.14727358523888
0.016996 -60.2927911578552 88.49423679802759 -61.579752388509704 -118.47838416111487 -61.823412606909855 -122.71905797053086 -60.11405665210234 89.11500976134565
0.024994 -56.49808401083571 64.89215473479763 -57.46990336830417 -142.8688938835963 -58.18635316287053 -145.96584753541674 -56.82207977642741 61.53857600695696
0.032992 -54.3037502950796 41.33864229376397 -54.81238313845822 -169.77395028110698 -55.4453545484253 -174.47785515651248 -54.46163031747826 37.993103933261935
0.04099 -52.62272148121026 20.443023673969122 -52.607094444439355 161.8009416729059 -53.257159056898686 155.89123086593386 -52.81423324771068 15.888607416448782
0.048988 -51.68460364093164 -1.7043421863105241 -50.8500336133967 130.95917374601382 -51.55710407286843 123.77405174819926 -51.93869907105345 -7.442604803837671
0.056986 -51.230132518733676 -24.145453869491927 -49.076219418142 98.61879010231848 -49.73896643234208 92.16655027686373 -51.52481981550877 -31.61283591815619
0.064984 -51.12334984115439 -45.22215681695338 -47.6315935464818 69.33741350494158 -48.254604187206816 62.66048644735728 -51.398848145335066 -53.69234963956351
0.072982 -51.26308891531325 -63.51824456271264 -46.71700641935652 43.193387183001654 -47.47451399511018 35.7376851418861 -51.346511417693264 -73.26473146694411
0.08098 -51.51694302992106 -77.45924853236815 -46.506954940039506 17.96278155654098 -47.34885869845204 9.317349906667157 -51.59403444291101 -88.86640519706269
0.088978 -51.64608818046045 -90.25029023114558 -46.62652661640241 -7.150156045524179 -47.417983529150966 -17.537581861054402 -51.780079705254316 -101.74759301404113
0.096976 -51.565283702257275 -100.41830204986172 -46.73273079547752 -33.48418899356987 -47.465847428005844 -45.36463115933858 -51.80768884957557 -111.98562565931435
0.104974 -51.41416746069942 -110.32781016847504 -46.669885879752925 -59.13850442121988 -47.28397819097892 -71.34147486739022 -51.726037178767584 -122.21079397078122
0.112972 -51.16687728234684 -120.16927962339683 -46.39737007270039 -83.84775531216297 -46.94285532229311 -95.82013139959207 -51.585077292422284 -132.96856770286786
0.12097 -51.090432590117345 -131.21539739715615 -46.07089160615814 -106.44402506137341 -46.6333723306462 -118.43718879025394 -51.457326564481384 -144.78501567119105
0.128968 -51.314395572997846 -143.3014420241174 -45.9051430232876 -127.28923048076275 -46.60146444534787 -139.81390498448047 -51.66046788960337 -155.74042786559292
0.136966 -51.72998235354859 -153.13361202077485 -46.01657227669897 -146.4107600927378 -46.81326812382597 -159.7798477228842 -52.10021581850324 -167.53474202713448
0.144964 -52.420250723310915 -162.9978564451101 -46.37054643860127 -165.32430090189678 -47.23275542462959 179.73230686201512 -52.72125868721979 -177.19738725603648
0.152962 -53.23526225669913 -172.02586102821388 -46.81064061150493 173.723128134864 -47.68281502506213 156.08403399552785 -53.45905041322492 170.2897729960539
0.16096 -54.156101684317605 179.74012783388912 -47.21255791006925 151.77730846670255 -47.91156267033151 132.4915577525579 -54.300259317977336 160.3232031402415
0.168958 -55.03543711888877 174.0726857724695 -47.37537237857035 129.95363966739683 -47.857706078734054 110.0614959161836 -54.972156919732726 152.06655350053546
0.176956 -55.48851416624005 170.3881356247408 -47.267615337567676 108.92368280599985 -47.62064116704907 89.00263471657243 -55.50066088891177 147.19977520487888
0.184954 -55.67305922027857 169.7308137989709 -46.99743367786405 90.35837221362411 -47.30057490225974 70.98372747704046 -55.652975543602736 144.02133634016553
0.192952 -55.15711896297003 170.20192720903742 -46.61224416955712 74.33495175401875 -47.08126701893127 54.90951832000619 -55.36785703401509 142.44698302794197
0.20095 -54.39263198553001 169.8350815916992 -46.34162470109645 60.31317081061094 -46.89017980209982 40.559492549930326 -54.644142066440615 140.8984289813171
0.208948 -53.418369804876356 163.78750540006288 -45.991328156808294 43.75882163859118 -46.71692612033834 22.987377511391628 -53.75519746023081 134.1726386203193
0.216946 -52.4478379840977 152.88941773772495 -45.700427388298934 24.96525293069805 -46.63870354326011 2.0788973956241863 -52.758942255562964 123.11122038469564
0.224944 -51.57231692924932 139.0008441337989 -45.59581153883816 3.369649856341607 -46.50218523126033 -21.847158918226686 -51.709099335587574 107.9122092573755
0.232942 -50.96387968986492 121.40031357024276 -45.60612282361607 -20.76555456838043 -46.29825991870361 -48.551142982191166 -50.86997860391592 92.13710113714268
0.24094 -50.63338917623925 104.10227617710676 -45.621194207330696 -46.680905979503144 -45.98312407438722 -75.73885586839998 -50.374147105892426 74.7575264492843
0.248938 -50.611318911093015 87.25849836302778 -45.55250001246855 -72.47650636492487 -45.70921652852383 -100.59116240697013 -50.33294700559775 59.42171725785526
0.256936 -51.17610056637417 73.40666984937744 -45.564110820291155 -95.07437927338036 -45.856140987406064 -122.5730530776715 -50.95929561166444 45.1997712553622
0.264934 -52.15711541104071 61.62721099497061 -45.866143891033374 -115.73378610733826 -46.3278432669822 -143.05479477556196 -51.90685366046357 32.39419451617729
0.272932 -53.41403350056567 51.81407382107468 -46.40406641945098 -134.70956837327608 -47.214305114359746 -163.26555293317776 -53.21245133154242 21.628180966959107
0.28093 -54.74807891930695 43.87568872382123 -47.00768249610032 -152.36293361222693 -48.09864614241813 177.41086728159584 -54.65360876630271 12.605668538544304
0.288928 -56.14771240342528 39.84152593107068 -47.70284660080458 -168.27783034028977 -48.87336664751175 158.58527731850324 -56.105172655398164 6.052700800017654
0.296926 -57.40577788276509 41.33332350548915 -48.452225934185684 177.20686559449703 -49.50808227325975 142.19940413643238 -57.34285606984911 5.044145837788077
0.304924 -58.20574366520216 45.041738217196475 -48.95271448471915 163.19722546628228 -49.83572930490142 126.7163447160986 -58.09706493858239 5.914185865331386
0.312922 -58.5573925038299 48.66332966435491 -49.32861223858515 149.01059283605983 -49.93955899572541 111.10966785782404 -58.547335367757924 8.278368512954305
0.32092 -58.24705210770154 51.40530080589713 -49.492578861707656 133.6492121747536 -49.87925510526456 95.52318866740539 -58.2012797808071 8.849907324283725
0.328918 -57.610494825800714 51.029345715070136 -49.4483401493497 118.25534033400828 -49.720210002840794 80.35087092503967 -57.988958504494605 9.101379138931687
0.336916 -56.75880870075236 50.00188950503336 -49.24119058478052 102.67052062100474 -49.332853051259924 66.19975513134803 -57.21016868049514 7.622571129057117
0.344914 -56.172768636724086 44.668744585092625 -48.91531574290071 88.43589869380541 -49.22591915734772 52.20815992962538 -56.56735541530538 2.3535054434389635
0.352912 -55.69505181574124 40.82723276933382 -48.657128780942415 73.81630425132782 -49.13118935393217 36.91995227250573 -56.141422681844276 -3.829590458917494
0.36091 -55.49353547901683 32.87305559041362 -48.338133925113 58.26043987529815 -49.11710703018244 20.18381012777453 -55.72895888984925 -13.474845405522327
0.368908 -55.5189075134298 24.310917373233938 -48.252584454446456 42.2711716448963 -49.17268975621707 2.0087490337014113 -55.86185848142346 -23.127614923281822
0.376906 -55.74321301049865 15.431123377300723 -48.28572752578745 25.08657076551763 -49.45375081334095 -16.97254754260048 -56.00950326580637 -35.56444665585911
0.384904 -56.30955569215545 5.814549221791989 -48.43649082474058 7.110779024035007 -49.568411371125684 -37.99976363701017 -56.523502074072994 -46.48294594067596
0.392902 -57.054062841172176 -1.2961831808192696 -48.81349019865645 -11.601173117102146 -49.73355311397373 -58.538728029676186 -56.975724545046724 -56.965418763518656
0.4009 -57.749917914345644 -7.264039363728336 -49.130824194211215 -30.62808460391134 -49.83600256660839 -77.48103453170103 -57.5149487641917 -65.65991873242163
0.408898 -58.56519241839288 -12.435191406637756 -49.431079544339845 -49.0878398034192 -49.86408953488752 -96.05999476158185 -58.36047562609386 -72.11777675546162
0.416896 -59.216066004524265 -14.036148867827889 -49.52332655724568 -67.60791690971418 -49.93010101889191 -113.60327671259493 -59.22531539689231 -77.99826445739384
0.424894 -59.67530233913522 -14.308325212736959 -49.500421492605156 -85.19313324998824 -50.03278622894307 -130.07754298844404 -59.878475033742966 -79.46397311347424
0.432892 -59.80383749531409 -15.779373819348823 -49.43434734904799 -101.61431901257407 -50.1357814064511 -146.58219266226598 -60.44722260156771 -82.23823461408114
0.44089 -59.63747812081451 -18.390797768746754 -49.33094283587231 -118.15642580738705 -50.267852645833166 -163.9373004500877 -60.30187444321905 -82.51984861680974
0.448888 -59.24596765945804 -22.74294254302764 -49.3080434436521 -134.41399879888334 -50.507832442356474 177.9745544329833 -60.211368607938965 -88.06106242359881
0.456886 -59.17794144682162 -28.726713519538688 -49.40754551361178 -151.20431500577797 -50.772149623715414 158.87580634398665 -59.73731377099647 -93.53262120748157
0.464884 -58.68968079833357 -35.75579396014136 -49.513074193985204 -168.01160897082747 -50.73792996903993 138.31446885718245 -59.30517278111818 -99.99252540920858
0.472882 -58.70681530488484 -43.847163886217885 -49.73392451953327 173.53661329172513 -50.78537739753409 117.80435581932498 -58.918061294158534 -107.82555254805688
0.48088 -58.72825425783315 -50.564627719515734 -49.88826696616126 155.17247486922727 -50.63435687421807 97.99714306766018 -58.85209511118496 -114.45472737519269
0.488878 -58.80389263384704 -56.09885479175848 -50.089284794983435 135.60836166032212 -50.412292345291505 79.54192839135091 -58.82281838458518 -121.71573923921856
0.496876 -59.17910380652481 -62.8426442959293 -49.97458482531928 117.55024331275614 -50.328871567855266 62.013193430468625 -59.140486980822615 -127.56854487782248
0.504874 -59.2537502317845 -67.37989397989028 -49.93001832392401 98.8693016024441 -50.32723391922114 45.18594865613971 -59.42684906968496 -133.41000530260652
0.512872 -59.53102189176579 -71.69589097215 -49.63657943802549 80.95858195279891 -50.457295132772764 27.671532666619544 -59.79395297152018 -137.6642813241954
0.52087 -59.178982958263255 -72.86334816788722 -49.520242504732735 64.80812283447493 -50.55710049707108 10.511165288542346 -59.84377640892218 -141.68612546096097
0.528868 -58.70793030927611 -75.61372609212562 -49.37981104903689 48.441155357995534 -50.642334788964256 -8.154728776206362 -59.67171845699625 -144.65775928684255
0.536866 -57.92532673974548 -79.80286201623697 -49.27806192918788 32.18041294930997 -50.697725241495554 -27.557660998191263 -59.20220131674745 -146.29157131601178
0.544864 -56.912407962916596 -84.893412715205 -49.2803072121967 14.734992975930469 -50.56335109144038 -47.848519910003226 -58.43971141218706 -151.6126117984751
0.552862 -55.92692412466194 -92.73284096022148 -49.212319610445604 -3.8700640626869225 -50.16641630144922 -70.18529197804322 -57.57674509285978 -159.52775678784434
0.56086 -55.011803458627696 -102.89328669461861 -49.09473014817175 -23.819304101844352 -49.53935725987168 -91.92080012612409 -56.709937514209585 -167.34149526632436
0.568858 -54.04746294579299 -114.30122263239814 -48.77629380141109 -46.22966534284465 -49.0155382507843 -113.20935230531597 -55.99640084443148 -178.53115787833295
0.576856 -53.396272796432676 -125.50229595307606 -48.334770434235416 -69.28169503060707 -48.534833277719386 -133.13023882846508 -55.418572291205805 167.9742465831811
0.584854 -52.98534281750747 -136.65238489025793 -47.73925327822951 -90.40801480911102 -48.47638999461759 -153.3486277158077 -55.20610061789979 154.39087094621235
0.592852 -52.9443421106663 -146.8921769998566 -47.26887996846136 -109.96019124984308 -48.69399034282818 -172.3346058339023 -55.13889567017537 140.417953203019
0.60085 -53.487099406451634 -157.08138020092792 -47.092394170145496 -127.95010901534796 -49.176851342041836 166.88764483755992 -55.210630237600036 126.60992913956993
0.608848 -54.08343887375174 -166.66031772030146 -47.33334534405556 -145.84985233158113 -49.63663690827754 145.16537298064955 -55.59146730175147 113.66457406199754
0.616846 -54.9865840477611 -175.5010334569713 -47.776001689798775 -164.6026650007532 -49.98855251861915 123.33305461685983 -56.01348909646137 101.71566787094726
0.624844 -56.015162797916716 178.06773700098194 -48.373283126930474 177.15572284830964 -50.1128477450216 102.33413156705961 -56.61672529357937 91.42950171928054
0.632842 -56.703172153684285 175.3151117942981 -48.92218360032621 159.4821104467051 -50.150769139660255 84.55962890088004 -57.286941724146125 84.45345417805547
0.64084 -57.00019208750008 174.47928153572096 -49.29042946767772 142.9732536390098 -50.043622516951814 68.49915475594867 -57.98634115404084 81.54336129829782
0.648838 -57.22384194052055 173.53710811347366 -49.49663232726124 124.51524806925035 -50.03916465143382 52.29331749033444 -58.30460299275377 79.1598633381105
0.656836 -56.835598912366514 171.1695156396548 -49.33890168351927 105.89855278253428 -49.93842394651074 35.63604584817762 -58.39988537063486 75.62618086308886
0.664834 -56.10047106157498 166.0199299483713 -48.913498007304305 87.521871882758 -49.934825325235224 17.539346835156156 -58.157581111684195 72.2350700784044
0.672832 -55.418229956339474 160.6553293834979 -48.42898487547741 69.5788833569701 -49.86101749992066 -1.6308288528326165 -57.25997965527867 67.33124602007085
0.68083 -54.526221190183975 151.78858471960214 -47.827114188084224 52.535240726481184 -49.7825646546942 -21.459723278050248 -56.19360522348889 60.389100043193714
0.688828 -53.668423594964764 142.39291069767688 -47.26729126637784 36.174399802912156 -49.4634875622532 -41.87784672961263 -55.201714527293944 53.38140125417884
0.696826 -52.8279377369836 132.90394355601833 -46.77725894711372 20.6750101448582 -48.98895904989281 -61.19009066189022 -54.30048066929841 45.747524687934515
0.704824 -52.157688945659956 122.44623884081882 -46.39368130099684 3.313800501561897 -48.48936974159259 -80.8332453498554 -53.49069787074586 36.333313723415586
0.712822 -51.640480442362524 107.67906732622785 -46.208367718292614 -18.66542539053054 -47.967468636393846 -103.13519788797838 -53.06705291576204 23.09115266333505
0.72082 -51.51644359067615 90.02748723504055 -46.12271022791418 -45.72894476214506 -47.68578166744596 -126.18938227763182 -52.9610423969376 6.844070140030038
0.728818 -51.74460336200164 74.21692679142662 -46.09670524145539 -73.71984098858286 -47.739267849355414 -149.42560672264563 -53.32298559219838 -12.514189314481722
0.736816 -52.41857043868734 58.384564833533155 -46.11277577199581 -99.4864946362508 -48.26178703196629 -172.57594830898216 -53.96540808839714 -30.857808679576287
0.744814 -53.40821830874778 46.01177420034782 -46.36521414652278 -122.24936866497383 -48.88394335052371 163.1011270015228 -54.907296275717215 -48.322772143221435
0.752812 -54.7318207854469 36.3541930411781 -46.83067091689522 -142.78506832618822 -49.47028901684229 138.8914727123698 -55.92054325704491 -63.496060605723294
0.76081 -55.88996713900285 29.587396951529986 -47.53863979197711 -161.78974893999649 -49.79292465850086 115.58020627038019 -57.172258452546465 -76.90711540054342
0.768808 -56.954403262931955 26.564916731070337 -48.17201688887435 178.47099051730592 -50.00382199073115 93.54767467666683 -58.24609138497812 -85.83405730157068
0.776806 -57.67571460228274 25.070551229528515 -48.7256350357411 159.68579058755074 -49.94955103134258 73.88816915001772 -59.162347699489374 -90.79275192206931
0.784804 -57.66276625879752 24.052802025369274 -49.18513938564285 139.96922501083014 -50.06388855280309 55.66684655131174 -59.98451460307503 -95.6022580955095
0.792802 -57.35781627485393 20.455494143648448 -49.28598378276331 120.25487982677832 -50.13561469876558 37.758126764283226 -60.32504210094443 -98.03383672082688
0.8008 -57.07851196722452 16.823969177786744 -49.23001312126342 100.39715738420676 -50.39528641478781 20.598375938566196 -60.090873639453555 -101.32431445411734
0.808798 -56.7285924736471 11.104392183091194 -48.96320042454899 82.11258848287585 -50.66620291613155 1.7146239858049217 -59.88277659450119 -105.77751098637464
0.816796 -56.43404331532843 3.3804939168259986 -48.74149527778124 64.69927982350211 -50.946190683103666 -16.763130995630835 -59.06074422397727 -113.58440451445831
0.824794 -56.416442710647914 -4.967402942678917 -48.61463987416346 47.84507211180081 -51.17589524070649 -36.680371288643016 -58.44023926325457 -120.48406529873152
0.832792 -56.52924444288225 -13.84669776199263 -48.727452909570474 31.076214835487356 -51.19710461206125 -56.98389455349719 -58.0888309772821 -129.87276783870286
0.84079 -56.721192611538996 -22.635443788419757 -48.99971092175488 13.9815907608911 -51.16372579897545 -77.61669121875197 -57.93903225598545 -139.14359813810697
0.848788 -57.32701471164007 -30.275682452367963 -49.3520406084983 -3.7401676996351356 -50.92201032193812 -96.20450874852585 -58.10255479312954 -149.03624346792648
0.856786 -57.92221846954183 -38.38263609428736 -49.79088580431298 -21.989203011007504 -50.80405138450778 -114.21634091817657 -58.53860035208523 -158.19852351843582
0.864784 -58.48195705022662 -44.13569613655043 -50.04567708061251 -40.51340567352867 -50.69590636510682 -130.48239773888395 -59.18946971992462 -167.8448419175036
0.872782 -59.1525397481755 -46.82049221765133 -50.262880154816685 -58.560322807801384 -50.91078261257498 -145.5586509113578 -59.800231115703475 -176.29911933940514
0.88078 -59.43436411070983 -48.6667676330858 -50.21925859513285 -75.7404976989621 -51.16669854041969 -161.71484831875406 -60.76339502767912 178.96705836565175
0.888778 -59.504619194308646 -48.98863766413582 -50.11758216668078 -93.01034948414458 -51.428994403048605 -178.10070838676003 -61.572803085285784 173.70817198473995
0.896776 -59.44130386296755 -49.97604249683006 -49.91115158213969 -107.7289470603717 -51.78618967227594 164.78458337498614 -61.89398356286884 170.8202891884425
0.904774 -59.14648043713284 -53.802763683543304 -49.77131973923191 -122.91302877227173 -52.03281425805762 146.5519872264668 -62.315792794169404 168.0379763251322
0.912772 -58.65884961896718 -57.62473232605508 -49.81617636228644 -137.53394721867332 -52.007341979278365 127.86725617032165 -62.26535535262654 165.3909911844727
0.92077 -58.55188001651116 -63.15943220086017 -49.852624361383214 -152.48373762625675 -52.03376157332298 108.34301599809362 -62.16745071322131 161.86062518342493
0.928768 -58.28785132158758 -69.29729183389449 -50.09272441277601 -168.85886059474035 -51.658815770429946 89.94428040058996 -61.8498906943044 156.37603617141855
0.936766 -58.2126707093978 -76.3660257735688 -50.32203746934619 174.4509544490928 -51.61577274744248 72.63431659473775 -61.65086781555583 149.8513273417986
0.944764 -58.14441221587958 -83.69864355182784 -50.67029193082572 156.20410980450254 -51.40787945065491 56.129767075529884 -61.36090198204901 138.73408525439532
0.952762 -58.24158783051302 -90.53483991094613 -50.92569550984446 137.15456647852193 -51.39757535529335 39.487161847397594 -61.35303784115571 130.54610527740812
0.96076 -58.49089285709503 -94.40830949230816 -50.94202652084925 118.94007620399225 -51.58919890999614 23.746455894903335 -61.42482897063944 118.90486602649992
0.968758 -58.8945581589779 -97.77698207668156 -50.87283354174808 100.516520048441 -51.88973663996806 7.025715596962518 -61.56775460584869 109.92369383651977
0.976756 -59.21292865452891 -100.35841323813004 -50.78128032245751 83.94623982923598 -52.25917245731178 -10.08061331118949 -61.770928662662065 102.0452575589625
