!Created with skrf (http://scikit-rf.org).
# GHz S DB R 50.0 
!freq dBS11 angS11 dBS21 angS21 dBS12 angS12 dBS22 angS22
0.001 -70.49586657914836 -119.83493742926805 -91.25872626591035 -68.19279515843475 -98.0563562718312 -66.03058036384765 -72.19931764504223 -106.84115175766422
0.138896551 -63.69443679831305 -130.03330015394098 -93.77628811782351 29.737122547394122 -93.75676891976262 68.19472726913155 -52.2911483868007 -161.9062208103277
0.276793103 -49.10195644903269 29.080758379568643 -96.07429602104443 -165.95057903011795 -86.2666552766002 123.27351116234512 -53.9025083107977 33.159973669681115
0.414689655 -56.074175768734094 39.260143713220586 -94.91497680701985 98.13346419065468 -96.30785404791133 94.77754674554676 -59.12578367231772 -65.28932156393634
0.552586206 -60.99322275701691 -149.1622355226524 -96.78501987939751 164.7552244287936 -90.52835308636878 -140.1907552771488 -57.61702583703836 -171.67456108791288
0.690482758 -48.247108236016615 141.2491675132913 -97.24050295081115 -123.65559872008357 -91.06665622847102 -87.40436845907436 -55.02779089787466 33.189047230846214
0.82837931 -64.29237502846603 46.771612496303874 -95.37238168125515 -26.57625707944109 -88.97375974908994 -34.827914120048746 -59.22794640652788 -135.23503137971076
0.966275862 -53.76618008655362 -125.49228287653473 -94.4783634098009 -109.64317937277339 -97.6676895405022 -29.032414863307274 -61.648893439102935 123.34851401277815
1.104172413 -55.35321725845048 -124.94298536818492 -97.06019942855079 95.2109597149833 -97.2788858437206 -21.772434178053707 -57.80655680987916 32.79649599389885
1.242068965 -63.4791923410433 72.11414368872994 -97.39611152878497 131.19485205935536 -95.0670606549096 59.75401096196896 -57.19284457306592 -27.48376361679685
1.379965517 -53.75011687311793 75.31046353690034 -95.0460563151914 158.96941963615237 -103.93925286944572 143.10322816310938 -56.32431712959295 -153.94648794395468
1.517862068 -64.23209567431584 -8.800631740434369 -92.16120224001513 145.48880201445724 -99.28952779220515 159.46237045821167 -54.03682040298839 63.58234784633231
1.65575862 -56.46579667403031 -173.44574372151422 -87.54852003450401 35.13295970931407 -96.55245934693713 70.02179809883047 -53.9480639700984 -16.542961200748476
1.793655172 -59.49890649181553 -131.9871525927878 -102.60841722452818 -58.99670187343594 -99.59662086491716 -14.036243467926479 -54.83445321590133 -86.22346289824029
1.931551724 -66.58734617216115 -52.60188266304484 -88.8396904662906 -71.56505117707799 -97.27713009971033 -68.19859051364818 -53.20426652807453 -152.19974374454281
2.069448275 -71.78197727956342 60.78055717975381 -108.89081012206007 -45.0 -92.25413880202777 -141.3483905218396 -54.41673479692962 106.32914255172518
2.207344827 -58.55841760521884 32.031524257383346 -100.9350661478213 98.15699546624491 -92.15958030612016 78.10955896143025 -56.68597159971405 2.5346772902678243
2.345241379 -63.636967299502906 -0.11095771289554399 -91.93502405558931 -107.52810811778568 -96.59231621629883 -59.046133987336795 -56.12786696259518 -110.86675539053059
2.483137931 -58.41786949116841 -165.846137412498 -90.53669364248017 -160.02548134272226 -92.02332718961509 -149.5301351743784 -63.085115528294736 140.51346621981978
2.621034482 -55.437039478198415 67.94291902546372 -110.92691110977438 26.63222087609871 -99.59662086491716 -165.96375653207352 -60.78362862121905 39.642448172000435
2.758931034 -56.87589641419473 83.99624926417256 -83.00452822174654 -111.03621157549092 -82.15147749458683 -68.02798323768918 -58.65322582853872 53.49172950693565
2.896827586 -46.9199893697367 -42.47677322159882 -85.82571852165859 75.6154951365031 -87.61739838576082 102.33626808202197 -50.23822435692837 -37.41859538107007
3.034724137 -45.54231003788078 -81.1354798882232 -93.18125695493134 79.99991544165505 -85.34678204742812 -29.580252784934544 -46.66143308070323 -84.8381749465337
3.172620689 -44.154626036133955 164.07554926199109 -84.6061724914371 -147.34018351557626 -85.51587322783718 44.02588900419558 -44.027851006240425 169.05769996970471
3.310517241 -42.986532087263036 60.583554248873774 -86.79374397271339 91.58673493677969 -82.21604068455437 -89.06333768044864 -44.29654318331136 58.690346825460715
3.448413793 -42.330139323005405 -52.456360054315375 -85.75087830746101 -51.99943317943891 -81.01044607276242 104.03740655061709 -42.05469338222157 -56.977288720070575
3.586310344 -41.295605870078916 -168.35545217540147 -86.91668034575052 -170.27002244039494 -83.5741576510085 -12.176644129180922 -42.03948828417826 -166.03967388225942
3.724206896 -41.301476005239756 104.3683745870538 -80.27591691846298 145.6841613565071 -76.00334291527892 -131.0987286193942 -42.14012199052851 94.64147064806053
3.862103448 -43.32576021790384 -5.84757583574941 -90.25211082447116 82.86636515243981 -75.24508948014551 105.77207503458341 -44.28816068858076 -11.401117873281942
4.0 -44.375039885092846 -89.96390178954283 -81.8418137025848 -22.135574729706263 -77.09058810574602 -17.446023096680417 -46.46631335512498 -82.7495869814569
