!Created with skrf (http://scikit-rf.org).
# GHz S DB R 50.0 
!freq dBS11 angS11 dBS21 angS21 dBS12 angS12 dBS22 angS22
0.001 -70.98538713399525 -120.25578410109611 -84.14794762545705 -47.48743915458651 -87.29042402671566 -24.310650062831726 -72.24788158958357 -102.01195147031602
0.138896551 -51.85312503114887 -155.4735133776385 -46.04657862545089 -150.8816178941914 -46.90204856701322 -164.89315993971144 -52.261724140835796 -169.18778871520217
0.276793103 -54.067075342229785 47.20951817751857 -46.61809818459314 -143.88775545663316 -47.576593813967804 -172.77351812653808 -53.88536406308838 15.8958587598873
0.414689655 -59.2719813126897 -13.37089369708653 -49.44137948796499 -62.817373302592785 -49.86667973756276 -109.52435692190379 -59.08228175849536 -76.51942996430344
0.552586206 -55.88702753756092 -93.40110421880453 -49.18286129671478 -3.6260622783104797 -50.18121341283475 -69.69969409435879 -57.56358326597726 -158.08619280312288
0.690482758 -53.313217204034856 138.88702945659855 -47.14189321226148 32.008945983982905 -49.377855553824006 -47.15137250774835 -55.02360190568554 51.51338054070081
0.82837931 -56.379062323030176 -10.124533165007104 -48.66656530691026 39.56302893332802 -51.16869363119803 -46.39629169123177 -58.427866536129535 -125.72824037522693
0.966275862 -58.812197724156704 -97.51081766969978 -50.95124391337404 105.25066692842637 -51.722512828073555 11.067821612692324 -61.159884258559316 112.17176760981272
1.104172413 -58.05728924807443 -166.37288451330923 -49.870381879834014 -160.27452628531051 -50.806954035234064 82.78405067417653 -57.154416328246484 20.40870943520721
1.242068965 -61.653420282932544 171.07311932322273 -50.35749671001702 -28.141586809392546 -50.22035219028868 -157.08965134395288 -56.90442253688193 -37.59326812272196
1.379965517 -60.24602397060009 82.03894862743508 -50.88820786254344 17.902985237366643 -51.50917166936404 -130.89235845145842 -57.20104760955948 -155.76985727645777
1.517862068 -58.299552478353775 -64.45198442970096 -50.01988161012793 46.468079720077434 -51.31561905724385 -118.58919934904931 -54.15262118027451 70.82544490354259
1.65575862 -63.007624735760004 -148.13593402941177 -51.065188013691596 126.3027427388064 -53.13559968298408 -46.79782873087133 -53.402730321359925 -9.854188423688537
1.793655172 -70.84911819190395 -143.28312731958212 -52.49145119534283 -140.9283598728598 -54.37945583339196 36.427980910162226 -54.12686910697691 -85.29475432635262
1.931551724 -74.81673760858071 -179.6004215372958 -53.36549371521477 -55.510764119265616 -54.56040838439699 109.30840882828157 -53.478966236826224 -153.204625414752
2.069448275 -65.2012559149307 162.23529036389073 -54.09138099092165 9.329027595520687 -54.58992073188429 157.4881636290494 -55.48494972071035 107.0392944539233
2.207344827 -62.13188620592214 36.68405196815015 -55.20705552685313 43.725471459979545 -55.95708208208889 175.3805001788267 -56.84960096241951 6.647767341261094
2.345241379 -63.40994333114768 -35.66318893071281 -55.99553681691495 100.14886390150504 -55.39934898851544 -143.57555065450399 -56.46900798418624 -109.56903050001527
2.483137931 -57.76743447120558 -148.16776572574832 -54.867815520118114 129.43413319446495 -54.83147789068572 -141.48422034768492 -64.02958972258104 123.04837168462701
2.621034482 -57.01174768928139 59.60247297228522 -56.7250854240175 138.14256306488198 -57.94081615634944 -142.90041393686116 -61.663810705967414 43.3173362779544
2.758931034 -55.51430689247934 69.73875035323637 -54.861572115277596 -59.595810963696074 -55.84601645271342 1.0376100112492654 -58.470360199132465 52.007191211794705
2.896827586 -48.23800949647883 -42.209199877290445 -49.72712501337982 -27.741937659083494 -51.279572443856374 24.262978008533935 -50.49380709699405 -41.67395630944293
3.034724137 -45.50729806757981 -90.87805031433606 -48.97635444369066 67.76562519712579 -50.22681561523123 104.54042140324871 -46.48701272502939 -89.89243574647854
3.172620689 -43.5883498393045 164.93395138653432 -50.023420748207755 112.14423245290985 -51.01928870538081 137.635808201809 -44.17613037655954 164.230831921157
3.310517241 -43.970721248551136 54.33937524418291 -48.84306144002218 150.79481138252643 -50.61810362998049 163.6439485727022 -44.28482030238004 53.747440155970395
3.448413793 -41.64989773046389 -57.30814160370069 -48.55546352774877 -177.25149438156163 -49.55281586818232 178.11996710364645 -41.91963481893505 -61.51051709264827
3.586310344 -41.72238869619022 -168.42207293263405 -49.22582581284587 -138.32105315244533 -50.88363579852721 -155.04169296175084 -42.21252179777696 -171.62427096164504
3.724206896 -41.85547760428161 95.58600605584148 -49.76966942125251 -88.58809974211313 -50.97674401854501 -122.57580040769913 -42.29414454129596 89.89576309971724
3.862103448 -42.25698756717055 -9.010918682523787 -49.93830717378639 -52.371585668181865 -52.51142111689313 -101.0688758316796 -44.67565027614981 -15.121753929204427
4.0 -44.96106947561324 -93.55784092330201 -54.25300852726909 -4.0961787548353135 -56.20369586970024 -56.54433244690715 -46.44839258776068 -85.48520921030007
