!Created with skrf (http://scikit-rf.org).
# GHz S DB R 50.0 
!freq dBS11 angS11 dBS21 angS21 dBS12 angS12 dBS22 angS22
0.001 -71.07376501134758 -99.42013221447547 -82.1276427689437 -13.13278305384478 -91.31283259326693 -37.394351052249284 -70.92517558583032 -82.81072464017826
0.008998 -64.69448606212923 136.9442516206444 -66.88107227733992 -84.8497806581981 -67.6446250163226 -87.01469481909464 -65.02914093191248 138.0320365600895
0.016996 -60.00124874840168 89.85441050713497 -61.041123383814764 -117.55576114538427 -61.304443361342834 -119.9337134364756 -59.87954299276687 89.067006005123
0.024994 -56.34780177936343 63.43482344593287 -57.255315658821374 -143.51216856456355 -57.91193372560109 -146.94496314380564 -56.39308125551422 61.822909256991466
0.032992 -53.989639908440495 42.19043074922014 -54.35436858406678 -170.2628193741642 -55.10407245739101 -175.10565887987727 -53.95507234821249 38.23458512788749
0.04099 -52.296849542279055 20.303396730862296 -52.06511118255278 160.78023102404453 -52.82029209364804 155.5006749579812 -52.467747022058646 15.193472863490957
0.048988 -51.335865546555794 -1.9601546011568658 -50.349858545979885 130.35165967822243 -51.0867424503887 123.89988683982955 -51.54225966647567 -7.970568386734789
0.056986 -50.86519666178022 -24.267089317630912 -48.619218192096284 98.2161687886951 -49.29410262182866 91.40089844167012 -51.08744168030232 -31.576761056627326
0.064984 -50.857702340289244 -45.44905626545083 -47.11602343163011 69.14630912445597 -47.812338030573045 62.530629403086984 -51.00125233277961 -54.02388160738113
0.072982 -50.94485175414229 -63.73326173312004 -46.22461976726095 42.65969338548339 -47.01084827780436 35.29686562676814 -51.06123877971926 -73.21863080554114
0.08098 -51.120694166813145 -78.13012031364617 -46.02707800269065 17.38439758068189 -46.85492693521803 9.011749249772523 -51.23801312138137 -88.85852976582828
0.088978 -51.361340086890515 -90.0538436133265 -46.0831580484423 -8.136341182200466 -46.90466133691794 -18.450193421660604 -51.469711407562 -100.99982655350752
0.096976 -51.21816183696581 -100.52043745179758 -46.18129319159766 -34.31528713936848 -46.95005144804841 -46.09995693177991 -51.42488711778757 -111.61007209116356
0.104974 -51.059931075754086 -110.09648182777796 -46.10579656511608 -59.61867590517315 -46.70371373617115 -71.80411748815429 -51.3853686249938 -121.98245675407868
0.112972 -50.85539554164843 -120.47595267171687 -45.83520661159547 -83.67394745688752 -46.41729874145649 -96.18368981005978 -51.25597286765355 -132.38463554528738
0.12097 -50.799298058563174 -131.05293083309715 -45.5369345733297 -106.43146624620609 -46.14149391603376 -118.61869561927637 -51.22873224314503 -143.7718612013446
0.128968 -50.942216470278325 -143.06332780427093 -45.400097950721246 -127.66697903789523 -46.096574001976656 -140.37682384137264 -51.3291847146635 -155.46282528985063
0.136966 -51.263938152563014 -153.5063820715214 -45.48724349775157 -147.13403003940368 -46.338632478835386 -160.29948870938395 -51.735469707262915 -166.14787279705203
0.144964 -52.084001080532914 -162.64768489133073 -45.88391775347664 -166.22440449770625 -46.74937715699394 178.76490735367506 -52.28918433207145 -176.58254010470415
0.152962 -52.87606177782446 -171.5390499223883 -46.30979870619435 173.21097742731706 -47.14611869235473 156.14857637510275 -53.08962893250712 172.22287704412867
0.16096 -53.81056706221037 179.28615040514453 -46.63537686524009 151.9183437471578 -47.379549818128794 133.08559584691295 -53.849706451515374 161.80310894006723
0.168958 -54.573141383323645 174.7314958550465 -46.77461363884682 129.681502265654 -47.30363104861831 110.5540413060649 -54.48269391609013 154.7804579701996
0.176956 -55.20251849155993 171.37814564602928 -46.724080968654384 108.73942420299464 -47.08144058391589 89.57235190441261 -55.075281671935755 148.64671109315046
0.184954 -55.19543429136725 169.8151203038242 -46.38916948583982 89.65063330270445 -46.829577531872275 70.59979350470024 -55.090237630610915 144.87595318149457
0.192952 -54.66665881924064 170.14265389834318 -46.078812593599466 72.87680288654727 -46.57685347119882 54.01490800134604 -54.94871404889907 143.1706716443781
0.20095 -53.96317696845902 168.77542733823483 -45.768501465128764 58.51478405320874 -46.39275582159162 38.787973845935596 -54.25683822940135 141.60433690454138
0.208948 -52.96318036804922 163.99234736453582 -45.477765302549344 43.27837450550501 -46.25320560785555 22.88435965542502 -53.28164804982734 136.187423475425
0.216946 -51.98417464644612 153.78422943908498 -45.17353155954601 24.438442753223157 -46.08669183759676 2.5093359767145604 -52.22941628385816 125.01880941627955
0.224944 -51.09993781375952 140.12411959825857 -45.09063117471729 3.533906186004954 -45.981784911017044 -20.740951055236884 -51.2055416934559 111.04501599380454
0.232942 -50.5199298954544 123.85280440782843 -45.04953505436582 -19.71948304727759 -45.72702310652652 -46.87132404993523 -50.38029624357388 95.10517546073514
0.24094 -50.1466664776678 106.30231499595783 -45.04800854560859 -45.45102549885276 -45.45883683666183 -73.66285411220107 -49.99894286792512 78.2251756498763
0.248938 -50.18944534923315 88.98821258314408 -45.00682876186843 -71.32744828422314 -45.17341851067493 -99.03028417110086 -49.97116064207982 61.80343781441767
0.256936 -50.69251610833255 74.24630442904018 -45.052008917548434 -94.3797866561115 -45.301200722720914 -121.40731650755862 -50.52783780600141 47.647290541506344
0.264934 -51.72648933223055 62.631144367125 -45.32214811496271 -115.36341689464639 -45.78781826347183 -141.6898530181785 -51.51723835828893 35.34012838021087
0.272932 -52.971018629685716 52.83833915009687 -45.83358023927409 -133.99249084870155 -46.59641343775321 -161.8061156074851 -52.81183630442219 23.84627381924944
0.28093 -54.507344741903204 44.808499406564984 -46.50317456397384 -151.99625025959554 -47.461773405920255 178.07482137046972 -54.30062059398714 14.310958045849528
0.288928 -55.89066668310942 40.47340519704904 -47.243047318209115 -168.73274081312758 -48.286560635498084 158.8688291220971 -55.7937515239794 8.326729436407488
0.296926 -57.162216242742616 39.83269467774399 -47.871831796374224 175.6537981043758 -48.84506509752263 140.95304166860893 -57.04347222503663 5.602397697201815
0.304924 -57.79401219307908 44.88011395335032 -48.416372482438206 161.04943623718205 -49.259122093130905 124.72194959015141 -57.95667519604766 7.210724069512788
0.312922 -58.12900813364174 49.73605517662955 -48.793660562897315 146.94347225503412 -49.32781667559941 109.50615833758027 -58.35666855563248 10.541849375598288
0.32092 -57.92768409630036 51.13416468364551 -48.94144886043159 131.52523506014157 -49.30544456439128 93.9130935133472 -58.102743334562035 11.963957332936891
0.328918 -57.20435614473979 52.10659045091807 -48.87963445100028 116.55603010001046 -49.06312307794156 79.48437672292043 -57.7070315206858 11.595082272178589
0.336916 -56.442712978684966 50.44207065025977 -48.63360735687014 101.46420597768011 -48.919540213855235 64.87147097968253 -56.950834980422755 10.61655399711876
0.344914 -55.78132738607295 47.09076878468335 -48.370019469545596 86.73546481276358 -48.6352682976639 50.922336086905034 -56.091881949936884 5.345551564993341
0.352912 -55.26366255192038 42.194172896990956 -48.06154463026754 72.47347771629063 -48.5104111087601 36.34239290884392 -55.82351566773511 -0.7200196181993497
0.36091 -55.07976440617246 36.14292055104974 -47.791101018608224 58.33519330440782 -48.46004457706908 20.483793813038808 -55.46783786173477 -8.716577177240111
0.368908 -55.091116856273075 27.19397147545118 -47.62728422561899 42.6708124246151 -48.49439836502887 3.389216730073623 -55.474385172056756 -18.61261406014617
0.376906 -55.32610185734568 18.95908669955117 -47.68697995093186 25.626317430974883 -48.6893903979598 -16.024311330637484 -55.66004391064461 -29.509299800918317
0.384904 -55.89893029993667 9.440087976399598 -47.87684318333668 8.176046746639141 -48.842149728154986 -35.68518360549461 -56.12981712024501 -41.60263796539556
0.392902 -56.69106410445946 2.4874119315762035 -48.18342828890511 -9.833831577611415 -49.07385141170216 -55.38606296643295 -56.79403246965102 -51.41891634318086
0.4009 -57.44661927682367 -5.051902960234902 -48.525331280256374 -28.18106099734584 -49.18210044793484 -74.86618361110087 -57.58857352120779 -59.58505648873529
0.408898 -58.289342623594635 -7.614427638068066 -48.86902350788204 -47.429950232578136 -49.28532399366726 -93.67014550335995 -58.55717392695803 -66.00006671979486
0.416896 -58.95325269238931 -9.398554842187401 -49.0222567698995 -65.45901307445546 -49.32762787397258 -110.86764555992333 -59.48172683134027 -71.00115157122123
0.424894 -59.35556696294647 -10.328740861646633 -49.10433046797375 -83.19428471730829 -49.46480169030812 -127.29403962910932 -60.00294901263685 -70.78179880206785
0.432892 -59.43423669356542 -9.73112650225201 -49.04555609523626 -99.50978378464463 -49.557622407031445 -144.0401038131581 -60.42644643401871 -73.08830185623063
0.44089 -59.28761730239494 -12.230638160611154 -48.953976204257174 -116.80231172554925 -49.82727136188476 -162.01454682281175 -60.33651757717408 -75.78003991789232
0.448888 -58.82121413329359 -16.36448960280481 -48.965694991981465 -133.07784737567525 -49.94078776269234 179.47414522240064 -60.31565001797971 -79.37090842274566
0.456886 -58.54575994625853 -23.093715479521624 -49.06042763854022 -150.0884370009997 -50.10163474808985 160.0845971196963 -59.94153450177217 -85.5126421345006
0.464884 -58.50936797448998 -29.911993736312063 -49.16387773890097 -167.43932948555636 -50.22592884211108 139.93429424940405 -59.29937942816685 -93.09050834854659
0.472882 -58.46926994179177 -36.77240237291278 -49.28830978107978 173.83785233181263 -50.11603141533275 119.43529636207543 -59.20267208354272 -99.87688379078766
0.48088 -58.42121414688129 -45.386340404170085 -49.43228607029 155.450680776311 -49.964068362886145 100.18588961144106 -59.14029868931145 -108.72693607183932
0.488878 -58.65875589618659 -52.11940177351441 -49.519406417797924 137.03327507919235 -49.85087965806686 81.59788344259981 -58.92236178624964 -115.24216643170242
0.496876 -58.847428072410835 -57.494401172052086 -49.56008359547287 118.36594112168082 -49.684836839918844 64.1099630584539 -59.174793125447465 -121.24723519533936
0.504874 -58.89693419637183 -61.313024742054466 -49.38341069703125 99.82534556703875 -49.729317189128075 47.130438540483496 -59.700792772632084 -127.77019133255283
0.512872 -59.18541754283006 -63.99830706590485 -49.27420601337186 82.20530601556442 -49.82581873864141 29.876402789142812 -59.858068103329 -132.06175625879186
0.52087 -59.08790807356123 -67.89455746704219 -49.125327936228075 65.6043423706516 -49.96428617487 12.078860372875782 -59.67937467657323 -134.9505444016338
0.528868 -58.46166843645511 -69.82930548603476 -48.967084112773094 49.38326085196756 -50.10137432033059 -6.371110958222014 -59.89351150856935 -138.30682321552803
0.536866 -57.631975981186415 -75.0899798734204 -48.93222368819147 33.170672121818335 -50.13259137483246 -25.258276589284637 -59.05256703377678 -140.3615009572905
0.544864 -56.77554003736106 -80.71914125622875 -48.87051248213818 15.698336226736798 -50.02883088411846 -45.88190489939043 -58.20685092885264 -145.14379393992422
0.552862 -55.58196107391347 -90.04389418159656 -48.81802743830292 -2.5925418954045334 -49.625392124223715 -67.27324765416523 -57.23666282221335 -152.53492551812218
0.56086 -54.82429132168531 -99.18529457150608 -48.69401867464029 -22.691501800527664 -49.15296803990202 -89.70770899251985 -56.31965404006108 -162.37868349576613
0.568858 -53.8953437501154 -110.5897920432597 -48.49070485020274 -44.5895433987739 -48.53178766311636 -110.76537785051389 -55.5786285253933 -173.86289218609463
0.576856 -53.205066874988134 -122.15718318872204 -48.07796530154435 -67.5887622776911 -48.103389669898576 -131.30778902096344 -55.01987917047099 172.9665137623825
0.584854 -52.77877307758161 -134.1035243446588 -47.508010650101305 -89.41261319035357 -47.895626659739115 -150.9699698800814 -54.74530222229775 159.49044761965615
0.592852 -52.70338040233872 -144.53166618016635 -46.97732143242359 -108.90267470731156 -48.01897669460077 -170.7425084420298 -54.787889463752876 144.93606837631876
0.60085 -53.209283223632525 -154.29893075208844 -46.80484799521493 -126.94005602089638 -48.42084655486157 169.46170922121843 -54.92640875622392 132.90437000947102
0.608848 -54.02449522565096 -163.6827323828022 -46.96730280585217 -144.6076428211824 -48.86975746399091 148.22167489468475 -55.44384207692784 119.10883468032016
0.616846 -54.78696129014642 -172.75109781104052 -47.41013472999696 -162.8130919829811 -49.22250746631519 126.25935217340856 -56.00698633209707 107.31554316771647
0.624844 -55.81408541136245 -178.42637793917788 -48.02881170945447 178.42216828856908 -49.481620111151926 105.74583525876918 -56.76763465823803 96.33453799324853
0.632842 -56.511703019550325 179.17175038736508 -48.47851253304758 161.78504364632803 -49.565520315256336 87.3716137928687 -57.629957069092015 89.44595919137159
0.64084 -56.99645765891867 178.71208399900232 -48.885580558710814 146.10769571330303 -49.57554959696434 72.59101951243181 -58.36811836054079 87.64678060671187
0.648838 -57.069195870344956 -179.79224194570634 -49.141864302165 129.23953464126265 -49.48266927129502 56.73701824363427 -58.96749779904432 86.70202761350883
0.656836 -56.57048987631825 178.9699342208584 -49.10379283259167 111.13444029734282 -49.514171202796874 40.88691675385543 -58.88972422843568 84.28948162232426
0.664834 -55.98676193351853 174.67275029746884 -48.8635132999495 93.0510832461585 -49.50194367204861 23.190020808121492 -58.64677131310635 81.62342026576052
0.672832 -55.18121129524381 167.82931699040225 -48.315803171105614 75.02095609127343 -49.40040761387185 4.429906945728297 -57.76431163128458 77.7519671327685
0.68083 -54.30345849229369 158.08627245189197 -47.73442594060619 57.37242125836918 -49.258728912323164 -15.753819595743176 -56.54167970860394 69.10633947156919
0.688828 -53.48263568605293 148.41735117643617 -47.208906588168695 40.1903583260135 -48.9831759977475 -36.82076080537249 -55.39749593741096 60.175418076399424
0.696826 -52.619790717457036 137.5316648350673 -46.69536804383973 23.396945549525324 -48.52142494775495 -57.397866176269204 -54.27378903300329 51.08128938266131
0.704824 -51.979207165049495 126.3611342399267 -46.19316173793187 5.712144321014045 -47.930511485365166 -77.34525540479206 -53.43726258717079 41.0316730322472
0.712822 -51.49437399943244 112.29396146666815 -45.92768532179414 -15.34986497375059 -47.47610721075047 -98.70948202677558 -52.96616474585811 28.20207217664665
0.72082 -51.41154966366572 95.20675118970749 -45.795664246163064 -40.742850174073226 -47.105601327299695 -121.32867849690959 -52.880578029114915 11.919955417646857
0.728818 -51.812084078928635 77.56647324281799 -45.82034631506567 -68.30161796240459 -47.12684383020096 -145.0486631432131 -53.17774301418042 -7.153936466750452
0.736816 -52.432683576603495 62.0726318367559 -45.83064564567315 -95.20601465057804 -47.53817615863042 -169.18645127561723 -54.01988552850287 -27.726201091403453
0.744814 -53.6234920555594 48.53484727066863 -46.07718703156771 -119.17410509047127 -48.252259210849616 165.6578705878825 -55.050007766767244 -45.64040431107016
0.752812 -54.973918908699346 37.621052418274886 -46.512275857729186 -140.41140050540304 -48.77209419004871 141.31511644740897 -56.19141753705159 -62.15381820053672
0.76081 -56.27886056599952 32.04550856746383 -47.217853694772586 -160.49227853015154 -49.28557320245021 117.5511820450884 -57.35134321580736 -75.13081426178002
0.768808 -57.473250179114494 29.096760281324205 -47.95447080072189 -179.7635152087575 -49.50020699852068 95.35385430287361 -58.82080556673459 -85.67449922677058
0.776806 -57.960200343921045 28.23843676870726 -48.516948703458034 160.20266127702948 -49.536567742222026 74.58220347984972 -59.72916359639353 -90.56482071313873
0.784804 -58.101506779785765 26.303456454370835 -48.9076705668312 140.56350748447156 -49.496584299866235 56.285871266819875 -60.670388616511836 -93.85619097200241
0.792802 -57.6636433910522 24.674187398225875 -49.06723127063713 120.77584219536591 -49.74264340486328 38.41199372914708 -61.04885011764989 -94.9341263635529
0.8008 -57.258979245016036 19.54309154515436 -49.022577835156994 100.82179331647033 -49.94936680373799 20.50518285330493 -60.71470458179489 -98.4879996717212
0.808798 -56.955944036524826 13.190848572068417 -48.87910083380443 82.39069468386863 -50.228974038293295 1.8911168036262265 -60.255982841846475 -103.54541050866442
0.816796 -56.47999378049111 5.4933489546511165 -48.59015572676887 64.70413378069178 -50.520185651327864 -17.244626625217073 -59.525172103685975 -110.63679541639263
0.824794 -56.52308843186641 -2.976717751672166 -48.53274592626466 47.475195350938726 -50.66498940925848 -37.66997661924451 -58.99009364380554 -119.17390292372458
0.832792 -56.67278199493441 -12.302845815200278 -48.63353955176458 30.579308119172417 -50.722339812023314 -58.16966516488996 -58.7411651633432 -128.70929243900565
0.84079 -56.87522511271649 -21.971294652383897 -48.841580282915835 12.755986445095518 -50.62109254113217 -78.77731165787712 -58.50473819881903 -139.59785382477187
0.848788 -57.49627402104647 -29.93443613895435 -49.17004667193075 -5.7209213404095705 -50.481474433027394 -98.49821175450245 -58.60707099892443 -151.49334948785204
0.856786 -58.11389149451172 -37.10414005761372 -49.498542447036506 -24.319866851257583 -50.393822510952106 -116.38191766354946 -59.12748565717315 -162.0646577701969
0.864784 -58.77747080014843 -43.61375235185447 -49.79569739571574 -43.7440134173648 -50.38568552828495 -133.46835806785603 -59.59555869481525 -170.7891473883855
0.872782 -59.289636205414794 -44.71517290049567 -49.93867078123336 -61.502638066795114 -50.499222287010795 -149.12397887819333 -60.53582641372717 179.53550134461688
0.88078 -59.71013348234635 -47.29093676231512 -49.97587467926161 -78.98272350101401 -50.881135179006264 -165.26546381297698 -61.63997953459865 173.1260605367916
0.888778 -59.83098632665165 -47.42379168828043 -49.89778924411495 -94.98852186922934 -51.20293691662574 178.12268143344727 -62.47264373100122 169.3918832408853
0.896776 -59.4772792776068 -48.49187126586953 -49.76731217253021 -110.4196823669075 -51.33746535871601 160.22340060950194 -62.971811933778206 165.81462996873753
0.904774 -59.112684537700424 -51.05294355492207 -49.782287895747274 -125.22188885639672 -51.63403930958863 142.8633765930957 -63.61132791738808 163.90290771142463
0.912772 -59.01510419302096 -54.41704256020854 -49.77675663600509 -139.8124696656859 -51.65065482572973 124.16869204007645 -63.189633749863674 163.59254796421877
0.92077 -58.458076202032885 -59.50674426794547 -49.849745795215846 -155.25656066788312 -51.528168758567865 105.5607723142384 -62.88248053396839 162.2708982062661
0.928768 -58.16844709844757 -66.01943277185606 -50.077682358090414 -171.06837959282788 -51.407417129761825 88.48402453370969 -62.66716853564595 155.29376324674328
0.936766 -58.101540824564594 -73.69324679353618 -50.29221471006001 172.1189116730972 -51.19812010852357 70.18618209952633 -62.17095472853957 147.32089018720245
0.944764 -58.41909007549259 -79.68955176585341 -50.513449380695846 154.0138173553115 -51.16429723756016 53.95140475888158 -61.67456177683079 138.74760350476743
0.952762 -58.60760455868453 -85.40644575542613 -50.79000533275363 135.32084640425728 -51.18790804902758 38.11570797052424 -61.94969662677629 127.63495297459708
0.96076 -58.8733660848026 -90.95918389856901 -50.803203492662504 116.99409332740017 -51.274333885031744 21.048959002558973 -61.74916642061685 116.68436953897961
0.968758 -59.245541916095675 -94.40885105664728 -50.73802142864829 99.18625879116696 -51.68037254387806 3.6896722221931335 -62.05348452231952 108.28908873337187
0.976756 -59.47924403084996 -97.28618857246323 -50.59017371222158 82.19043496096445 -51.94086138546493 -14.755264275579691 -62.19434429803179 97.61316513517818
