!Created with skrf (http://scikit-rf.org).
# GHz S DB R 50.0 
!freq dBS11 angS11 dBS21 angS21 dBS12 angS12 dBS22 angS22
0.001 -70.84584843713745 -115.43103796455226 -86.43406448834264 -41.76292363944249 -87.71563071316618 -81.12286536336997 -72.72624730842705 -104.64660334364301
0.041393939 -49.95986960386125 7.673342397657784 -96.31207091833511 -85.22012786753275 -99.23008026714436 -125.56492689241509 -54.091470925706034 1.5113035345169656
0.081787878 -49.80027038985243 -116.7058808345892 -97.75137659899171 11.309932474020213 -98.78046534906639 -6.356578354790473 -52.6487593269423 -84.84242726996223
0.122181818 -61.65717721145701 -164.85303779345583 -97.06061722020155 -95.18065257245976 -105.618717181168 -13.996701873435942 -52.198984218878586 -141.13179411165896
0.162575757 -56.51253798001571 -122.78482235304055 -100.92793487639096 8.150255634898212 -99.79531983603732 119.75522442879361 -52.830536023259185 168.93391065389002
0.202969696 -49.08322728326371 -166.62673552038936 -97.87824369549858 84.27277142381995 -89.1098384468355 133.5351744478068 -53.416255237583 121.86439354287137
0.243363636 -45.869196858181766 98.20892517621354 -90.01964274529335 130.1052650953402 -91.09483385598654 149.9265348275268 -53.125732415035 69.37450804700653
0.283757575 -50.46620918505914 19.456208155521267 -94.32502378563392 172.40388890131914 -103.94536610446112 -143.15699546624492 -54.19096081672559 27.51549818748291
0.324151515 -60.39657726786657 -20.62732660806502 -96.84961029550082 -135.0 -91.84999042293042 -153.434948822922 -56.101988639952516 -2.648831917508465
0.364545454 -70.30196455437283 68.0215808227267 -94.80578678559297 -65.21994077558185 -105.36898079109228 -134.94399241323202 -57.77503548621097 -28.731842143423226
0.404939393 -57.68875995985333 50.6085755512267 -93.0792961144715 -156.37943717410076 -95.2517827864051 -107.10636264354733 -59.00122491929545 -57.623131464469964
0.445333333 -53.1672549691544 2.0216940561603147 -96.7838436734923 164.72678326692315 -93.06899185972733 30.970349073698216 -59.36035774567684 -86.55044782955655
0.485727272 -52.467060822441944 -69.02187090366375 -102.24726700762784 80.5013168388909 -99.35263032984365 -134.97198250613877 -58.7708322327969 -114.55895786593321
0.526121212 -55.91469217144124 -127.03371419074216 -100.07049938519059 129.78904028501668 -101.90111007869989 -71.56505117707799 -58.2211960578657 -145.88246147584746
0.566515151 -63.77937640581541 -147.33884522244875 -90.61483410738605 172.56047108192791 -97.23789212675806 146.31854708521874 -57.33066361438868 173.6185523600544
0.60690909 -59.912329427776896 -117.88584667554105 -91.09282512680963 -120.06579355236082 -94.7410766423519 -123.69006752597979 -56.93305111963155 131.45534592502528
0.64730303 -53.09317181460432 -147.14831902830923 -94.10312508344944 -75.06579355236082 -91.79548682895316 -20.219940775581833 -55.71602064540362 85.86379052338461
0.687696969 -48.59151863101397 147.6233416618096 -96.33808507102701 -90.0 -92.80420884362985 -70.55686273628899 -54.92537241097129 36.44810595022552
0.728090909 -47.51462683858466 55.173632492603026 -96.21909283802994 -99.46232220802563 -95.88051016542026 161.565051177078 -56.22047650413891 -8.889581526435574
0.768484848 -56.34696910394666 -26.073614467398173 -92.63329643761483 -67.60793329900152 -100.76167655563152 56.309932474020215 -57.407120716409146 -68.43919323894009
0.808878787 -76.2604934445915 -2.3653770976973996 -102.87021020878045 45.0 -99.28743421840133 -110.5744564591532 -58.58526086039631 -116.95226113285811
0.849272727 -58.91564347412314 29.55364308418608 -90.85698459430378 77.19969629843537 -103.93925286944572 36.89677183689063 -59.92350200400594 -150.59506288789922
0.889666666 -54.328269018090154 -11.941480835814268 -98.78605632325772 -6.360688196174277 -96.77914203282069 -52.122432315190785 -61.282358422846286 -176.45496258001097
0.930060606 -52.55222798958205 -71.59420140467986 -91.3703256438657 41.18592516570965 -90.93200994861932 -10.304846468766033 -61.76305296054238 155.74764689442304
0.970454545 -54.33596094146094 -129.3345801752843 -89.94389833301128 61.38311776041376 -110.93709982377138 -153.50219735954528 -61.479507529359495 121.20056338698036
1.010848484 -61.143560455199655 -152.0983493532535 -100.07049938519059 39.7890402850167 -106.78815568524583 146.28406530669724 -60.49049490086092 88.92221149635355
1.051242424 -62.66084891311287 -111.03068295204969 -97.75627635180771 78.68360146354102 -95.2517827864051 107.10636264354733 -58.96208108276877 63.92589682506572
1.091636363 -56.76435240214034 -115.66820058470738 -94.26990477205179 23.20728442580337 -104.9114100353397 -153.434948822922 -57.970603354526915 43.370779970076825
1.132030303 -52.8754975123774 -89.29509620487327 -99.23008026714436 54.43507310758491 -91.06518544729951 50.5226895099887 -57.556168657228326 69.16765049095886
1.172424242 -49.84630915858817 -143.68172834577672 -90.06983149211584 58.242723853314104 -92.60961823560278 12.532762415075178 -56.58061530128602 34.49348427023167
1.212818181 -54.14117945404964 133.3484919062717 -98.6302181488824 102.53276241507518 -94.98079805960816 -175.9246225323924 -56.993488604608295 0.3089334381688292
1.253212121 -71.09665765437136 39.63888465926289 -99.79531983603732 60.244775571206404 -96.19206899601971 -54.98090879966974 -57.462707092417375 -35.543976930607016
1.29360606 -60.726024733561 -145.52008830497923 -94.32502378563392 172.40388890131914 -101.39128247714669 -26.542643755649745 -57.221824223281565 -75.79697742087176
1.334 -56.52229593331869 156.79506202222845 -93.2706732950358 -110.56295248651963 -99.59662086491716 104.03624346792648 -57.03474737111065 -111.1675215289251
1.374393939 -54.03871868680337 85.89349843781757 -87.78378951846545 174.63701558814986 -92.44518969361927 -154.79506793420995 -56.37944826543546 -147.54710793972723
1.414787878 -54.453024247977304 17.000942947845306 -95.2517827864051 107.10636264354733 -95.25150731062016 36.034640503625454 -56.33626849250432 173.59135454769634
1.455181818 -62.52140359191813 -63.69551927476038 -95.61901872153601 4.412545392567255 -96.28097325167562 -24.43704751348037 -55.77231388469096 118.9459637621127
1.495575757 -70.0059245999823 -6.9251251716171005 -99.79531983603732 -150.2447755712064 -103.30212263839894 111.81300312834516 -54.77540392277088 79.33144324302754
1.535969696 -61.74590015119286 -21.784836343470406 -93.31405370304365 151.92286120554903 -91.46910102853832 -154.65762618550556 -53.976560321920786 53.54477630581978
1.576363636 -58.439670443632316 -63.86996016438342 -95.0460563151914 68.96941963615235 -90.93425174823786 -169.6924644722641 -53.63824305104042 31.797810495416066
1.616757575 -55.83536292933252 -110.52965952613803 -89.72065882936312 76.5027413807609 -91.40191329952948 19.28780023601262 -53.50721785448898 8.368815519709766
1.657151515 -56.551584081887995 -175.19965301561254 -91.46910102853832 64.65762618550556 -96.55654971177582 70.01198654713843 -53.960753495034226 -16.643632927917526
1.697545454 -61.94929304604956 70.49971293423131 -93.25451179944183 -6.710983916339968 -91.67979658665674 -136.96934597004042 -54.70645486180702 -39.28395297374427
1.737939393 -62.69151236987662 -47.52580253838488 -92.44518969361927 -64.79506793420995 -103.30212263839894 158.18699687165483 -55.172000358749784 -60.01707176606569
1.778333333 -60.0099081877698 -112.4235354955308 -95.0460563151914 -111.03058036384765 -95.77637803050496 51.32379341220967 -55.02081819603097 -78.1431056989192
1.818727272 -59.624006645088926 -161.565051177078 -98.6302181488824 -102.53276241507518 -90.29041691904114 -48.367619839999875 -54.414736882976946 -95.44033203100551
1.859121212 -61.285207385567546 131.95608786450165 -98.78605632325772 -83.63931180382573 -94.87071862213978 50.7122572128822 -53.88198574787998 -113.26485452351609
1.899515151 -63.89567700065379 44.274392788308866 -97.92170999197951 -126.86989764584402 -100.9350661478213 -98.15699546624491 -53.259226825769744 -132.96303037188713
1.93990909 -66.00552488817418 -76.21098419333734 -89.23090739734053 -126.03464050362547 -94.5348084780008 -61.694620996731565 -53.32030142414189 -155.9997652140667
1.98030303 -63.85088065109595 -152.67501562424954 -95.6199181922426 -57.53276241507518 -91.67979658665674 -133.03065402995955 -53.53410699870154 175.74446894263176
2.020696969 -65.39149099857967 145.78484947929695 -90.0566932372408 -104.0263569306647 -89.59931827896297 -122.46723758492483 -53.98797807886359 145.85530766816362
2.061090909 -69.54561086422025 73.84571920276235 -95.25150731062016 -143.96535949637456 -88.67125158704789 -178.0302559326901 -54.3527497618247 112.8593778369397
2.101484848 -70.85634390731025 -102.80545468672442 -88.6302181488824 174.09781359215316 -95.2517827864051 72.89363735645269 -54.67695286786401 82.56695666983589
2.141878787 -60.45212353895599 157.99934376549206 -92.6345025807822 135.0 -93.54494785748484 154.9696144840734 -55.578746013795296 52.41274355706785
2.182272727 -57.66968877278806 71.24824306784711 -110.93709982377138 26.497802640454726 -92.30010737771346 -173.99007322898785 -56.36141915948842 22.237057107975755
2.222666666 -60.0102801099553 10.995359920811925 -89.9362159895213 -4.574455575958674 -88.3134185880239 55.785768724971355 -56.846650835597465 -8.688596734453993
2.263060606 -65.53067664306012 -38.273162447132755 -99.29511354511351 20.551438338551897 -94.32502378563392 82.40388890131914 -56.660613545690374 -41.81030929111901
2.303454545 -72.56291513281235 -12.460758161262603 -91.84772574487305 63.44241699017809 -96.19446420614588 -55.003466723626794 -56.30266841974326 -75.92912340573162
2.343848484 -64.1980926284552 2.8328515623073867 -94.80454397351482 -102.08328185595323 -90.25106573649313 -60.25167171837219 -56.32310369434367 -108.07320056812239
2.384242424 -59.60268121782722 -37.25885990530221 -93.57602095163753 -75.96375653207353 -93.25451179944183 -96.71098391633997 -57.70814663641161 -142.29160773648732
2.424636363 -57.78299260790959 -94.62785498650098 -96.34233141168264 -90.0 -89.74640518254935 -69.45009284665404 -60.35676415865634 -177.57296745983408
2.465030303 -57.436831579042654 -143.5742009662731 -90.20055844597047 -80.5354066733965 -88.93087342570976 173.88915886573523 -62.9192472080191 152.9339959021663
2.505424242 -59.56290010381427 168.7172943637157 -94.8072779004244 24.758742235131677 -86.32871971747198 180.0 -63.50570345175765 127.89398681665985
2.545818181 -59.83751783418266 132.0191643994016 -96.95159080999176 -26.578491425368433 -87.49078462581403 133.77717005894505 -62.76437144049983 95.61108915952137
2.586212121 -58.114564429341144 102.51632306067788 -100.2918226817591 156.81300312834517 -100.93200845467136 44.96639544108899 -62.17235273944322 63.76910054377907
2.62660606 -55.3766123613508 63.41566528037117 -96.31242259503873 85.24795195126717 -94.87071862213978 50.7122572128822 -60.74225303095113 37.69403978077084
2.667 -56.428784935003264 24.363907281303607 -91.90263828308238 143.1435465445617 -106.78422191024163 -146.41335434637722 -60.63622314134662 18.48404420678152
2.707393939 -60.3522171259662 85.7524068004329 -83.97529333333947 -10.406221714036485 -89.54014624151236 40.35965892515032 -61.40212984340227 74.94736733547055
2.747787878 -57.89581447204806 87.20058836321232 -85.04600384475631 -92.60325526446883 -87.30560426401158 -13.630493180071976 -59.03099336051649 60.61017402739093
2.788181818 -53.87511885609389 57.55632138155074 -85.21867215837983 -166.6132722139548 -84.4683576058837 -77.73917011040571 -57.21433951035581 31.009124380420868
2.828575757 -49.721863916301416 19.66136971571007 -87.39750092979241 143.47025140552634 -88.97479820293071 -124.81806658333578 -54.215865676751534 4.828649970394303
2.868969696 -47.31628190461272 -18.712734145724465 -91.93502405558931 107.52810811778568 -83.82493622661615 165.14033918760128 -51.76668534826294 -20.33489325754375
2.909363636 -47.00985589564504 -55.17903154597116 -89.27160854844131 85.76314669898848 -81.79018563355756 87.31835365982907 -49.90272921459827 -46.850684012516716
2.949757575 -47.15804209224299 -35.34669335955897 -114.91137268679483 -44.83197766783356 -84.51432713729258 109.98555969850437 -48.5301946955652 -28.80745310248323
2.990151515 -46.94864327851718 -56.2021627423967 -94.38220345675617 -3.8259724159109876 -86.09953849019568 -1.464825552193193 -47.6087018967541 -55.73811130198239
3.030545454 -45.75983768838277 -80.14995772903231 -96.55654971177582 160.01198654713843 -87.67086238167855 -42.50981286822565 -46.843507225442536 -83.79592528493082
3.070939393 -44.69497144423499 -106.41565599910798 -95.25150731062016 53.96535949637455 -85.12232545900645 -110.09558388549746 -46.36779287157462 -110.32741739952314
3.111333333 -43.861926212216254 -149.0751859845534 -84.5275158665578 -41.530848138397374 -81.19763511697204 172.4616978300767 -45.82435812512256 -145.41015419978262
3.151727272 -43.650506845710964 174.37431362664225 -85.25081885913379 -125.53676947415849 -83.73909059800914 77.5929662016878 -44.343323513984096 -178.60814431717722
3.192121212 -44.75695074306173 155.64143955356312 -82.43820115861888 -160.34237381449447 -87.1249118522743 33.235626089415135 -44.448167456772666 156.05354720658775
3.232515151 -44.56427902919441 121.3922361263231 -83.9570316941665 147.26598724444457 -89.23173367512797 -17.094552682946624 -44.58039119758412 115.93088822285817
3.27290909 -42.912072079267034 90.9870565499543 -89.96596697454079 90.0 -81.89768841810479 -58.571693273380326 -43.715561764890374 85.43014367998965
3.31330303 -42.98462711549391 55.95700931465014 -84.81638378108336 71.96226295909926 -83.18139382252129 -81.57122632309472 -44.392791027995735 54.237914063563736
3.353696969 -42.51568678164975 11.02393649296395 -89.08839260970238 40.6039312976113 -80.696299349065 -145.65441176620183 -43.47397830470459 14.628646031205875
3.394090909 -42.175119462702554 -19.856935020822323 -84.48137884611909 0.0 -78.45081375778533 165.22571537393483 -42.104589744887384 -17.138880345025605
3.434484848 -42.34596885382388 -44.38652017481252 -85.50893298280373 -16.69616029242286 -78.56184241480518 124.03119341214938 -41.95648450032805 -47.320964906450214
3.474878787 -42.24887939201772 -73.32423280028058 -86.60650164167333 -42.79715362296193 -79.95343226961636 86.37996357721175 -42.393768424603564 -80.43682556914706
3.515272727 -41.4074634492698 -105.2836126605644 -83.77014474351668 -88.87979739933994 -79.2543248336222 21.180116610219493 -42.334494207066214 -112.2221923813303
3.555666666 -40.92439796312023 -141.21630081097985 -84.705986530539 -126.11693759039188 -81.49745321644934 5.190755277148805 -42.13528486186392 -143.2063910187645
3.596060606 -41.5512469902112 -177.38043954194433 -85.66004388810208 -136.97533319559003 -79.36379777032526 -11.576031712276801 -42.02382928765927 -175.28208672519088
3.636454545 -42.27705573025681 156.29964515543537 -85.14057326492039 170.7558352411661 -80.00995629827706 -41.395389474694596 -41.90040584816528 154.45564113710313
3.676848484 -41.872611346534185 133.39113598990969 -82.72042958649331 162.82257496385094 -77.09427292280496 -91.04184882887836 -41.83353650950931 126.330662471815
3.717242424 -41.42151155241544 107.68687952254679 -81.46910102853832 133.77732263741646 -74.90234498483053 -137.86299195957028 -42.13087113795956 98.11826658007291
3.757636363 -41.260757736289165 75.53521887736288 -80.0810676175403 89.26746752409966 -74.53807092280579 -174.56074700587857 -42.693770426696005 67.09850260157077
3.798030303 -41.481912952032104 33.80974971534145 -88.00681169308598 16.697188485025574 -74.89649182760458 157.59818849182722 -43.191015619832775 32.20360072208881
3.838424242 -42.80731660909565 3.7425339907305495 -90.25394026990031 -60.256842765871724 -74.18234943307341 128.1363648957645 -43.84037876460428 1.6421184226037493
3.878818181 -43.49315468031345 -15.698824977494441 -84.69113739734362 69.59315103761341 -75.78590750777799 80.09614551484476 -44.68713491736308 -21.523250613783816
3.919212121 -43.375040506607114 -37.31208276380713 -86.00449567215014 30.46684115518636 -75.64720158254742 39.6926532498539 -45.380847982995284 -40.54996103796752
3.95960606 -43.680237970325955 -61.883698557611865 -82.33648209078831 -15.41974721506546 -76.73752442463159 6.010233771337471 -45.98948584850537 -61.58630695890828
4.0 -44.43960699469301 -91.56520903867444 -82.43218449968494 -24.84457227189792 -77.76281090431198 -13.626509002688861 -46.51736318730859 -84.52093995570083
