!Created with skrf (http://scikit-rf.org).
# GHz S DB R 50.0 
!freq dBS11 angS11 dBS21 angS21 dBS12 angS12 dBS22 angS22
0.001 -70.51827116474333 -119.0785428692154 -inf 0.0 -inf 0.0 -71.66943434385338 -103.22478212198885
0.041393939 -50.00830404519334 7.879216609288017 -inf 0.0 -inf 0.0 -54.10540208752459 2.1048092452687364
0.081787878 -49.84148843251604 -116.81781840971418 -inf 0.0 -inf 0.0 -52.68361300948264 -85.32488776264637
0.122181818 -61.32981475445472 -164.8118169137054 -inf 0.0 -inf 0.0 -52.151256265581154 -140.93035014649098
0.162575757 -56.463322784227586 -122.11819433536908 -inf 0.0 -inf 0.0 -52.80669417590956 169.12646098050632
0.202969696 -49.01285169945275 -166.54665669958126 -inf 0.0 -inf 0.0 -53.34816792152482 121.42795668446459
0.243363636 -45.89542503476647 98.50943927494671 -inf 0.0 -inf 0.0 -53.14038797507937 69.44409086908618
0.283757575 -50.5243131942634 19.903830898840855 -inf 0.0 -inf 0.0 -54.18402144956115 27.198160343285327
0.324151515 -60.4902505383198 -20.285801069427393 -inf 0.0 -inf 0.0 -56.13496344977805 -1.8654974240139974
0.364545454 -69.50924731814982 64.60236522997751 -inf 0.0 -inf 0.0 -57.844150750440036 -27.885444969486553
0.404939393 -57.58564659307823 50.3072671452041 -inf 0.0 -inf 0.0 -58.95880506426971 -58.028774410535554
0.445333333 -53.15927206750443 1.5892474330410247 -inf 0.0 -inf 0.0 -59.55424894625803 -86.19493501332617
0.485727272 -52.513540430539294 -69.39727664370685 -inf 0.0 -inf 0.0 -59.071005973993394 -115.48305259791286
0.526121212 -56.05273162233584 -128.55150838124138 -inf 0.0 -inf 0.0 -58.09402040322691 -145.38610023364834
0.566515151 -63.842415437682774 -146.12142079461395 -inf 0.0 -inf 0.0 -57.50068990257311 173.93118767307362
0.60690909 -59.888827615383875 -117.56122700763993 -inf 0.0 -inf 0.0 -56.911226171821696 131.46404075754208
0.64730303 -53.084503810800996 -147.30221120716917 -inf 0.0 -inf 0.0 -55.62118459653404 86.4375303955824
0.687696969 -48.58082332243739 147.62175692242496 -inf 0.0 -inf 0.0 -54.970007517014864 36.869801954398156
0.728090909 -47.46346309089701 55.595042445258215 -inf 0.0 -inf 0.0 -55.98317951498327 -8.046045018255027
0.768484848 -56.343477930544424 -25.90274881007692 -inf 0.0 -inf 0.0 -57.556168657228326 -69.16765049095886
0.808878787 -75.64338843915786 -0.8789782397668784 -inf 0.0 -inf 0.0 -58.75039148707074 -116.73401699187923
0.849272727 -58.750340735287665 30.17471664842486 -inf 0.0 -inf 0.0 -59.8687430501542 -148.97487573402432
0.889666666 -54.32104387699577 -12.163632879445885 -inf 0.0 -inf 0.0 -61.23949446885058 -177.4812324570218
0.930060606 -52.66393351431802 -71.54538548965695 -inf 0.0 -inf 0.0 -61.77872851482921 156.87178327321527
0.970454545 -54.32180073070293 -129.209408330386 -inf 0.0 -inf 0.0 -61.42077043013164 119.47861019782594
1.010848484 -61.560911120125354 -153.16212689646088 -inf 0.0 -inf 0.0 -60.38630929514733 89.01094705747414
1.051242424 -62.73792960830663 -113.70924442360969 -inf 0.0 -inf 0.0 -59.056286748776955 64.9243460062505
1.091636363 -56.806053690563544 -116.13708315983973 -inf 0.0 -inf 0.0 -58.08810456603599 42.19110613219952
1.132030303 -52.97154538014649 -88.67155379967303 -inf 0.0 -inf 0.0 -57.50767348326619 69.40540444678207
1.172424242 -49.943252107199605 -144.56610809217725 -inf 0.0 -inf 0.0 -56.783002421093485 34.567940312512626
1.212818181 -54.068746204654154 133.10209491896686 -inf 0.0 -inf 0.0 -56.946948812083946 -0.051063334216116196
1.253212121 -70.7524294071118 38.77866754802426 -inf 0.0 -inf 0.0 -57.334359374055445 -35.338294890638494
1.29360606 -60.943161781021836 -144.91492681535993 -inf 0.0 -inf 0.0 -57.45363937064433 -75.29217347194998
1.334 -56.53976089939083 156.6925702847089 -inf 0.0 -inf 0.0 -57.006675854474196 -110.93006864474744
1.374393939 -54.0884331911684 86.38699344049063 -inf 0.0 -inf 0.0 -56.41354515195451 -147.63206478439318
1.414787878 -54.596336969016804 16.27272574511482 -inf 0.0 -inf 0.0 -56.22601049273139 174.3832628112063
1.455181818 -62.42788159649652 -62.27322253121188 -inf 0.0 -inf 0.0 -55.86166708980337 119.27415766600488
1.495575757 -70.379159516344 -3.126482692322567 -inf 0.0 -inf 0.0 -54.71195632564799 79.04712881258116
1.535969696 -61.67548579213154 -22.456785895631757 -inf 0.0 -inf 0.0 -53.9204784804166 53.592607442368404
1.576363636 -58.38589181637059 -62.75957846675294 -inf 0.0 -inf 0.0 -53.68389074054477 31.77793185735613
1.616757575 -55.81456096696239 -110.7665337297455 -inf 0.0 -inf 0.0 -53.48368250562375 7.998951814025558
1.657151515 -56.7212397359401 -175.55518935461566 -inf 0.0 -inf 0.0 -54.0009055501137 -16.646838891144213
1.697545454 -61.928889398232336 71.22034175707587 -inf 0.0 -inf 0.0 -54.67686693689708 -39.023155512014235
1.737939393 -62.59334344004075 -45.83209613054701 -inf 0.0 -inf 0.0 -55.13251355590644 -59.73464984508451
1.778333333 -59.933440370129254 -110.74187858055144 -inf 0.0 -inf 0.0 -54.99924271216092 -78.88250954947637
1.818727272 -59.64367026542176 -162.18361869964133 -inf 0.0 -inf 0.0 -54.49414675990297 -95.99485199676018
1.859121212 -61.21850277361289 130.67390931991477 -inf 0.0 -inf 0.0 -53.91630563949383 -113.55899257320235
1.899515151 -63.79620896639213 43.48666337845873 -inf 0.0 -inf 0.0 -53.436673059331675 -132.89685077793135
1.93990909 -66.124366215259 -74.03419040596536 -inf 0.0 -inf 0.0 -53.27988397085187 -155.89784591745365
1.98030303 -63.95209237921287 -153.22942886550715 -inf 0.0 -inf 0.0 -53.6055767243617 176.5475774829005
2.020696969 -65.74920544249828 144.82277112048303 -inf 0.0 -inf 0.0 -54.02263241329298 145.4782970508042
2.061090909 -69.71312800560418 75.36885090007154 -inf 0.0 -inf 0.0 -54.412749722206364 113.48479790802266
2.101484848 -70.76332183063823 -109.46881410272289 -inf 0.0 -inf 0.0 -54.783509972374205 82.43429087490325
2.141878787 -60.35048550418183 159.00052651676467 -inf 0.0 -inf 0.0 -55.51163645365688 51.984281473952976
2.182272727 -57.83619952139772 72.24672075881715 -inf 0.0 -inf 0.0 -56.51076883613139 22.38015058987815
2.222666666 -59.889147137989774 10.549128443156565 -inf 0.0 -inf 0.0 -56.98065255110876 -8.980715603398016
2.263060606 -65.49070094244037 -37.7187975615953 -inf 0.0 -inf 0.0 -56.696342768605525 -42.29037502314015
2.303454545 -73.82872093069767 -11.520568698282172 -inf 0.0 -inf 0.0 -56.31592663139047 -76.69150524492332
2.343848484 -64.06477968519812 3.8370630617232075 -inf 0.0 -inf 0.0 -56.1481828288061 -109.27678003309714
2.384242424 -59.58931786149779 -37.716603357518935 -inf 0.0 -inf 0.0 -57.61715782255543 -142.3336398087848
2.424636363 -57.7954848418875 -94.29501561909406 -inf 0.0 -inf 0.0 -60.541928892572365 -177.44332305298332
2.465030303 -57.5112439217267 -142.867775903258 -inf 0.0 -inf 0.0 -62.60396975418165 151.76592877268348
2.505424242 -59.47479108615735 168.97227707637484 -inf 0.0 -inf 0.0 -63.40533912219758 126.97743008977618
2.545818181 -59.817147310699276 132.3791852636052 -inf 0.0 -inf 0.0 -63.040431595901545 94.65225630368928
2.586212121 -57.89583767613048 102.60948443940731 -inf 0.0 -inf 0.0 -61.841938304795896 62.509761649887864
2.62660606 -55.34130415358517 62.76877741468703 -inf 0.0 -inf 0.0 -60.86819194675793 38.44643991342259
2.667 -56.51987540740891 24.79892766143508 -inf 0.0 -inf 0.0 -60.55969074408485 17.256978700826988
2.707393939 -60.27369435784598 87.14492081777114 -inf 0.0 -inf 0.0 -61.76506911626112 74.10346227352598
2.747787878 -57.814721015905434 88.01930067078806 -inf 0.0 -inf 0.0 -58.93738226441877 60.43919927725131
2.788181818 -53.951256395347755 56.80264740302555 -inf 0.0 -inf 0.0 -57.04436613510347 29.92467543401338
2.828575757 -49.77060142194786 19.49099772353889 -inf 0.0 -inf 0.0 -54.29646631464823 5.214912543981548
2.868969696 -47.316000635699176 -18.97988291989072 -inf 0.0 -inf 0.0 -51.80533885634523 -20.701900475934803
2.909363636 -47.03662707692726 -55.17548686535465 -inf 0.0 -inf 0.0 -49.82417359817796 -47.424395388205184
2.949757575 -47.19573072913033 -35.196872841574354 -inf 0.0 -inf 0.0 -48.519618298119525 -28.81328245902238
2.990151515 -46.98884222335859 -56.571659896996216 -inf 0.0 -inf 0.0 -47.56722408071486 -55.986750792598585
3.030545454 -45.776615066147684 -80.54695786845377 -inf 0.0 -inf 0.0 -46.82895635807522 -83.95091757989866
3.070939393 -44.691426577507805 -106.79966203007808 -inf 0.0 -inf 0.0 -46.369684834611476 -110.76885899384332
3.111333333 -43.88249806003385 -149.32509117292972 -inf 0.0 -inf 0.0 -45.83264827408179 -145.66604695238223
3.151727272 -43.67824939419172 174.0881766351202 -inf 0.0 -inf 0.0 -44.372635854720926 -178.6515462329885
3.192121212 -44.77540431122473 155.39219080362327 -inf 0.0 -inf 0.0 -44.47059997564672 155.90771489165664
3.232515151 -44.61099888498015 121.14625446084298 -inf 0.0 -inf 0.0 -44.596744152276884 115.73632544118169
3.27290909 -42.8988294453113 90.70104554394717 -inf 0.0 -inf 0.0 -43.73417962471116 85.28555425722622
3.31330303 -42.98977657940113 55.62368415645854 -inf 0.0 -inf 0.0 -44.40242080624124 54.057968451248954
3.353696969 -42.48506684954195 10.738096182955514 -inf 0.0 -inf 0.0 -43.439529705192356 14.468948868416758
3.394090909 -42.18376866292174 -20.246112679998248 -inf 0.0 -inf 0.0 -42.090570551092995 -17.342984162603653
3.434484848 -42.3564078958252 -44.53430228891766 -inf 0.0 -inf 0.0 -41.97528995583668 -47.591116469160426
3.474878787 -42.2441520914272 -73.54987371610304 -inf 0.0 -inf 0.0 -42.3854201737785 -80.572321948072
3.515272727 -41.40766110858698 -105.40822455283482 -inf 0.0 -inf 0.0 -42.36268491893207 -112.42221319381365
3.555666666 -40.91213826458801 -141.4777776244728 -inf 0.0 -inf 0.0 -42.16493747790473 -143.2814160139807
3.596060606 -41.56609592469192 -177.62889649612626 -inf 0.0 -inf 0.0 -42.06441723487032 -175.5099646244964
3.636454545 -42.310341724478285 156.23414090432075 -inf 0.0 -inf 0.0 -41.89313342436541 154.41836377407768
3.676848484 -41.88774141063647 133.10043063418888 -inf 0.0 -inf 0.0 -41.853510169636735 126.05917294429592
3.717242424 -41.438450704662706 107.5333127604054 -inf 0.0 -inf 0.0 -42.12528355674764 98.0473128980639
3.757636363 -41.26642463053908 75.37770062082606 -inf 0.0 -inf 0.0 -42.72137847560923 66.74001383826473
3.798030303 -41.45872975632949 33.63521063389292 -inf 0.0 -inf 0.0 -43.20239348801021 31.96520629610761
3.838424242 -42.85989845615214 3.532168097758781 -inf 0.0 -inf 0.0 -43.876845428732565 1.0688679239089165
3.878818181 -43.48982098010774 -15.81693511568482 -inf 0.0 -inf 0.0 -44.6503886290968 -21.628321617188202
3.919212121 -43.35091697630261 -37.379357572987594 -inf 0.0 -inf 0.0 -45.36244551766744 -40.980286543192065
3.95960606 -43.669521425453894 -62.03461940540769 -inf 0.0 -inf 0.0 -45.960196102696074 -61.83823369732415
4.0 -44.434433469374 -91.8917525806728 -inf 0.0 -inf 0.0 -46.54394817831764 -84.73698677532046
