!Created with skrf (http://scikit-rf.org).
# GHz S DB R 50.0 
!freq dBS11 angS11 dBS21 angS21 dBS12 angS12 dBS22 angS22
0.001 -70.609913013833 -116.34485824015889 -inf 0.0 -90.9956694470377 -82.2402885795864 -inf 0.0
0.041393939 -49.947335843038545 7.939302772967092 -inf 0.0 -95.6199181922426 -57.53276241507518 -inf 0.0
0.081787878 -49.81088962665033 -116.81675230384846 -inf 0.0 -91.64051810552222 -14.032288762002812 -inf 0.0
0.122181818 -61.41359819721218 -164.57191083784073 -inf 0.0 -93.06649373216088 30.960461209162734 -inf 0.0
0.162575757 -56.396581047473965 -122.81020075013036 -inf 0.0 -98.62961848104626 40.61315794378857 -inf 0.0
0.202969696 -49.04771658709236 -166.89405211323484 -inf 0.0 -100.93710580657603 -135.0 -inf 0.0
0.243363636 -45.849882045304504 98.29156538875021 -inf 0.0 -94.03223223332402 153.4157413883371 -inf 0.0
0.283757575 -50.538244064463385 19.131718636323804 -inf 0.0 -90.46530756431416 36.377110261773055 -inf 0.0
0.324151515 -60.3117575893356 -20.82068897042753 -inf 0.0 -98.78667798714477 173.67620658779035 -inf 0.0
0.364545454 -69.68627858273163 65.02306557098777 -inf 0.0 -87.75274823130476 -150.24994795384336 -inf 0.0
0.404939393 -57.596198715170665 51.17660810887566 -inf 0.0 -95.6199181922426 -57.53276241507518 -inf 0.0
0.445333333 -53.17374212251755 1.7246270200620568 -inf 0.0 -95.61901872153601 -4.412545392567255 -inf 0.0
0.485727272 -52.60719547583652 -68.7638853928755 -inf 0.0 -92.24258409959691 62.08274122488527 -inf 0.0
0.526121212 -55.93819494722496 -126.97933318602013 -inf 0.0 -114.88597549406694 135.0 -inf 0.0
0.566515151 -63.53710616907512 -145.33957383481876 -inf 0.0 -94.87071862213978 140.7122572128822 -inf 0.0
0.60690909 -59.95486819081124 -119.77200860666787 -inf 0.0 -91.68149100387735 -136.98132158922346 -inf 0.0
0.64730303 -53.0373536295064 -147.42364319096865 -inf 0.0 -95.6420891862026 -112.63179452683457 -inf 0.0
0.687696969 -48.61065198933842 147.56636762145123 -inf 0.0 -85.63681056989253 -115.94765578329526 -inf 0.0
0.728090909 -47.47925167279543 55.23080690996948 -inf 0.0 -106.77639946255769 -33.664235345803554 -inf 0.0
0.768484848 -56.36592902977537 -24.808595233295883 -inf 0.0 -95.77637803050496 -51.32379341220967 -inf 0.0
0.808878787 -74.77550210327567 -5.592811390836947 -inf 0.0 -96.78501987939751 -15.2447755712064 -inf 0.0
0.849272727 -58.93983220087694 29.792636634090936 -inf 0.0 -97.54814578564637 106.68382805304049 -inf 0.0
0.889666666 -54.35352563306932 -11.511093677073166 -inf 0.0 -96.78501987939751 74.75522442879361 -inf 0.0
0.930060606 -52.57735756335575 -71.31055350990695 -inf 0.0 -92.80405204871667 33.69523815853619 -inf 0.0
0.970454545 -54.2685226295844 -128.92413667231742 -inf 0.0 -89.49131925635135 -52.70232082893084 -inf 0.0
1.010848484 -61.414303902779395 -152.97549601581383 -inf 0.0 -95.41979975431121 77.01482518082572 -inf 0.0
1.051242424 -62.64541608574508 -113.12090848011819 -inf 0.0 -98.89081012206007 116.56505117707799 -inf 0.0
1.091636363 -56.73104783572622 -116.00671142815511 -inf 0.0 -91.07557230399547 90.0 -inf 0.0
1.132030303 -53.04159149982571 -88.98734869499474 -inf 0.0 -95.25371079808458 -53.98534729902852 -inf 0.0
1.172424242 -49.8934085379352 -143.8756663460389 -inf 0.0 -92.3016429961925 42.88442946130827 -inf 0.0
1.212818181 -54.08479905478097 133.1507052136065 -inf 0.0 -98.89590560609125 26.58186331847139 -inf 0.0
1.253212121 -71.3781795091372 34.063474722116524 -inf 0.0 -97.92170999197951 36.86989764584402 -inf 0.0
1.29360606 -61.11455430142036 -146.12646233652396 -inf 0.0 -92.91200122200436 -51.85019473369655 -inf 0.0
1.334 -56.613984999649546 156.58770806807155 -inf 0.0 -95.9644982462909 -118.61688223958623 -inf 0.0
1.374393939 -54.074743022607024 86.13447772914054 -inf 0.0 -91.39060368041226 171.86093537788756 -inf 0.0
1.414787878 -54.46458723933797 17.145176929416802 -inf 0.0 -97.0961722172751 0.0 -inf 0.0
1.455181818 -62.508187806446216 -63.73920787338567 -inf 0.0 -98.89081012206007 -63.43494882292201 -inf 0.0
1.495575757 -70.12974543641403 -2.8046527837752446 -inf 0.0 -106.78815568524583 123.71593469330274 -inf 0.0
1.535969696 -61.78854025734712 -21.801506882271614 -inf 0.0 -96.95036862161464 79.69784120266051 -inf 0.0
1.576363636 -58.50559476371267 -64.06519915912027 -inf 0.0 -94.8072779004244 -167.88884458928766 -inf 0.0
1.616757575 -55.79543336137959 -110.33558152483688 -inf 0.0 -91.3237185446637 100.78576872497136 -inf 0.0
1.657151515 -56.63512553637173 -175.30174280187535 -inf 0.0 -96.07529491578171 75.97693554955544 -inf 0.0
1.697545454 -61.8488457003238 72.81809631129047 -inf 0.0 -100.2918226817591 -66.81300312834516 -inf 0.0
1.737939393 -62.78518607676009 -45.56696989470491 -inf 0.0 -95.0460563151914 68.96941963615235 -inf 0.0
1.778333333 -59.95513333150938 -111.57318087260087 -inf 0.0 -95.2517827864051 107.10636264354733 -inf 0.0
1.818727272 -59.66052682128455 -162.07407914638017 -inf 0.0 -94.24957202829927 -31.613272213954787 -inf 0.0
1.859121212 -61.33533040430022 131.45750328904143 -inf 0.0 -94.87071862213978 -50.7122572128822 -inf 0.0
1.899515151 -63.62072482411218 42.11083714142466 -inf 0.0 -102.35868498430663 -90.0 -inf 0.0
1.93990909 -66.36504683256916 -76.55129104041899 -inf 0.0 -92.63435179456602 -67.62483707253227 -inf 0.0
1.98030303 -64.20457815723117 -153.1713231218857 -inf 0.0 -89.32040304232774 -74.93429357162621 -inf 0.0
2.020696969 -65.6915691837038 145.260654823261 -inf 0.0 -96.84961029550082 -135.0 -inf 0.0
2.061090909 -70.04753907398117 75.73956796424963 -inf 0.0 -87.24867737659719 -110.55949829801835 -inf 0.0
2.101484848 -71.4795574465087 -107.74351302215526 -inf 0.0 -97.87824369549858 -174.27277142381993 -inf 0.0
2.141878787 -60.50832070364702 158.5135216974494 -inf 0.0 -97.24181086783135 -123.69868602463816 -inf 0.0
2.182272727 -58.02598253589296 72.20681760615595 -inf 0.0 -88.37635641869375 119.9823854707917 -inf 0.0
2.222666666 -59.90967433465173 10.207998554368292 -inf 0.0 -93.29983827950633 139.764800750049 -inf 0.0
2.263060606 -65.54503416574511 -36.09844724217651 -inf 0.0 -91.79548682895316 69.78005922441817 -inf 0.0
2.303454545 -73.10533409352512 -13.95713156407219 -inf 0.0 -90.76383211078644 15.258997114986672 -inf 0.0
2.343848484 -64.06394723285666 5.351965540247686 -inf 0.0 -91.03980871237147 -95.19580650816523 -inf 0.0
2.384242424 -59.77277086438791 -37.40869894350583 -inf 0.0 -100.06632367773294 -39.82209395430253 -inf 0.0
2.424636363 -57.81859501655123 -93.73855039541108 -inf 0.0 -93.75676891976262 -68.19472726913155 -inf 0.0
2.465030303 -57.51460347603281 -142.9880504386294 -inf 0.0 -91.37190350011636 -138.825972415911 -inf 0.0
2.505424242 -59.77100557696315 168.43998029996675 -inf 0.0 -91.73322623045125 -168.68683540664475 -inf 0.0
2.545818181 -59.78139996989881 132.7414369816433 -inf 0.0 -86.92583502328425 111.49876276867448 -inf 0.0
2.586212121 -58.083764221122266 102.35141023461544 -inf 0.0 -110.92691110977438 153.3677791239013 -inf 0.0
2.62660606 -55.43130586372021 62.8004260260319 -inf 0.0 -91.13764766881724 164.0524903316645 -inf 0.0
2.667 -56.4749176477891 24.39559518099441 -inf 0.0 -93.32990776572936 134.98599467651627 -inf 0.0
2.707393939 -60.3255706223368 86.5228024990752 -inf 0.0 -97.27713009971033 21.80140948635181 -inf 0.0
2.747787878 -57.944572820986565 88.04676773413897 -inf 0.0 -86.1951411651595 -31.21772552261146 -inf 0.0
2.788181818 -53.93216116172583 58.08678601771435 -inf 0.0 -87.52499898059949 -64.97881327902817 -inf 0.0
2.828575757 -49.67240532235725 19.4511252400011 -inf 0.0 -86.44735828456172 -133.92194675090386 -inf 0.0
2.868969696 -47.33748078565274 -18.40283901502716 -inf 0.0 -84.9026118297987 150.57354945649755 -inf 0.0
2.909363636 -47.0292804286658 -55.24898483699696 -inf 0.0 -85.26385883461876 114.77295437455975 -inf 0.0
2.949757575 -47.19632449742023 -35.21997470070781 -inf 0.0 -85.92355492885213 78.41355043523816 -inf 0.0
2.990151515 -46.94116747627935 -56.390756032335226 -inf 0.0 -89.23118287312548 -17.106362643547318 -inf 0.0
3.030545454 -45.782574553423174 -80.69836082782952 -inf 0.0 -87.04195033332522 -53.12818173939694 -inf 0.0
3.070939393 -44.66392529127696 -106.6670596410172 -inf 0.0 -83.06444983487923 -96.22681726723894 -inf 0.0
3.111333333 -43.8908766763185 -149.10653966012268 -inf 0.0 -82.38306814237106 170.3844018828927 -inf 0.0
3.151727272 -43.67859487553601 174.11022647795647 -inf 0.0 -83.39918567311494 95.38705842523906 -inf 0.0
3.192121212 -44.729055455354924 155.6007063842107 -inf 0.0 -90.99391244601641 54.1684822273237 -inf 0.0
3.232515151 -44.599129256978486 121.08450551018076 -inf 0.0 -86.55517364988795 1.5528185449380019 -inf 0.0
3.27290909 -42.92925797232708 90.907419299652 -inf 0.0 -82.6882355956032 -66.54017040777101 -inf 0.0
3.31330303 -43.00119215078552 55.73398502712695 -inf 0.0 -80.46051081728564 -82.30213986272553 -inf 0.0
3.353696969 -42.49943068296172 10.706660794620165 -inf 0.0 -81.16922822018648 -144.46061895348487 -inf 0.0
3.394090909 -42.18519881892715 -19.92072382678447 -inf 0.0 -79.64471304713234 -178.6025192244505 -inf 0.0
3.434484848 -42.34524540695436 -44.609043960721216 -inf 0.0 -78.98870590269028 132.71024904182946 -inf 0.0
3.474878787 -42.20001480542993 -73.36184236975892 -inf 0.0 -78.73479127324151 70.76916556355576 -inf 0.0
3.515272727 -41.37825326547659 -105.37255134587039 -inf 0.0 -79.65980803213901 28.443379800654075 -inf 0.0
3.555666666 -40.9257549950414 -141.3439964942506 -inf 0.0 -83.16167264935187 -18.10275241998821 -inf 0.0
3.596060606 -41.58322539540987 -177.61549752989512 -inf 0.0 -79.89950774324959 -28.495956494289228 -inf 0.0
3.636454545 -42.26245010977329 156.3625155304311 -inf 0.0 -80.22879855552843 -50.291509869616455 -inf 0.0
3.676848484 -41.8731388519973 133.51875260949498 -inf 0.0 -75.9675840427351 -86.33729317156092 -inf 0.0
3.717242424 -41.43270632270843 107.73745244173067 -inf 0.0 -76.33986827752275 -126.8682170727206 -inf 0.0
3.757636363 -41.24759802398066 75.40140601585452 -inf 0.0 -75.11139746165858 -176.68151521681386 -inf 0.0
3.798030303 -41.49027631942816 33.68048148533687 -inf 0.0 -75.93523330838192 158.5361783899054 -inf 0.0
3.838424242 -42.849956051949846 3.6091189606001772 -inf 0.0 -76.04953123803715 139.24856368376484 -inf 0.0
3.878818181 -43.485511208494984 -16.11410163110812 -inf 0.0 -75.83775415825099 87.29456260914692 -inf 0.0
3.919212121 -43.35319292852621 -37.37739342289627 -inf 0.0 -76.22437266114657 36.3027242755444 -inf 0.0
3.95960606 -43.62736367509109 -62.00680951038986 -inf 0.0 -77.57886987291242 13.900700094369826 -inf 0.0
4.0 -44.41756871611011 -91.56124176179604 -inf 0.0 -77.32973685799534 -11.311163714581173 -inf 0.0
