!Created with skrf (http://scikit-rf.org).
# GHz S DB R 50.0 
!freq dBS11 angS11 dBS21 angS21 dBS12 angS12 dBS22 angS22
0.001 -2.901287289495616 170.42125013766295 9.005459823529797 -25.750369387572576 -8.851053902254137 -37.51762583916446 -4.531567042511637 -73.09308124719615
0.020995 -11.984024804568863 25.122872659975755 -3.5392664783145107 -42.99608227689529 -8.965410670816372 120.71088609528185 10.077413514762473 -21.868465905924076
0.04099 -8.012866097156444 -48.67561442630427 -0.7998665827533493 128.0731837317361 -4.472284872645176 -74.16311703464476 -0.7291215142990909 -107.84694054440129
0.060985 -3.367316204666166 -34.06578051891397 15.049845220339527 120.5675112157954 -11.828860863169698 36.18341969956526 8.868543504136166 -141.95524559937564
0.08098 -5.0715326759020884 -34.36634357439374 0.06458192340246575 -35.97528357913465 -16.78080848053404 -81.91158786224142 4.095229698402294 -106.86905718779622
0.100975 -7.8345252125605 -59.18576794626264 12.880204213339772 -69.30350158965436 -14.448502494604615 82.4942880371102 0.17155726072256403 -20.64105435042158
0.12097 -3.368068992358078 -48.18339154903637 1.888411850630227 -106.96372353264364 2.8985636821128953 -144.16313511988275 7.988093998857116 101.99388946919775
0.140965 -3.9776500270907587 -68.71198423545982 9.868927424549286 -60.26990331239935 -10.033128731740092 -10.739860641712866 10.972674471402799 -128.8300185316608
0.16096 -4.5566182756931175 -64.64799151326103 4.817469183311128 -4.977325179337999 -15.361700050106784 -5.699231121125192 -4.8087370758563495 -129.7120885339258
0.180955 -3.5957161626730954 -85.25362929472666 -inf 0.0 -11.159537330031647 -20.583199379867334 -15.396206386401934 -140.5690352742224
0.20095 -3.583027205763539 -115.27946737961491 5.690914249204334 167.31756060226476 -26.678457734639167 13.385725207794096 -39.11500135855006 -142.75087640068404
0.220945 -2.00245374841373 -128.78768013973516 0.20037373491717525 66.61944237361301 -18.80043610814917 165.81778650797492 -41.103432253937484 103.51635822815838
0.24094 -11.490066638760847 -151.11854489276783 -3.10747647134977 -4.51464986094209 -14.335832177024109 -16.369251581738983 -20.763061017744015 18.867016215562902
0.260935 -13.071868857299178 24.7310599841915 9.814873537730485 1.9669746778926267 -14.058449164135585 -21.63010234463156 -8.669510156019335 37.32572096772157
0.28093 -5.986209852004805 109.5577093918726 2.864225214023657 18.019139940930977 -13.746420552220929 55.12805703259671 -3.976367126615381 133.7688509583617
0.300925 0.7271932827034893 105.83923774202795 -1.5722255611004934 -121.34941061764488 -4.6136340824924496 -164.42272332988637 8.855568240392994 141.81247465372186
0.32092 -6.745637808961595 80.80441221642502 -4.746547683541882 -68.63001807375085 -1.847548271419564 49.98374698117603 -2.845641977922007 132.81707169961823
0.340915 -6.1983797116256145 115.20420738775547 -5.266888288075821 130.9151046294247 11.238760107617399 -92.92015024299504 7.855327972974293 115.12910644817022
0.36091 -12.23870196160295 98.46703689886607 3.3969851858257005 50.49209591241257 -15.772907005284475 -170.55352640899935 1.2437576572372058 -173.96761897977777
0.380905 -15.128616585659383 107.17081210248422 2.888692115409256 -85.07952790494478 -9.310214200844968 108.22594291102297 1.8826224784722634 158.03391309826458
0.4009 -16.400401657928604 164.98072964864136 7.499897546475723 29.290274640802306 -1.2663762626358397 -12.373295062805575 2.066314841040683 93.5120883196256
0.420895 -12.97008217043527 -151.77412270181998 19.45100703314553 51.11150607318522 -10.054083424641815 -48.91892419208562 2.1361533319716925 47.65299429187544
0.44089 -9.027737595899003 -92.27399949944287 7.848778699567898 82.24379909720979 4.458360091297801 -65.32104052942044 3.4681470066297693 55.28811401150319
0.460885 -8.603365560899285 -178.79492193511305 1.057804766183941 -58.75560980455774 -10.208736673261447 -11.154136792679795 1.4007986102934777 -113.17922051102828
0.48088 -7.914017098298798 156.77470527015683 -6.24077533699376 159.73458880139688 -3.4069959480784484 27.283312233302784 3.163900310882044 -102.64629216561855
0.500875 -11.862037698170425 146.7504452055238 -1.318494672384955 -14.309983125334643 -45.564690479360685 -146.17184155888722 2.971124619877421 -65.29555917896356
0.52087 -15.665300543733725 -68.04862847719363 -10.178959532603082 144.6874455509545 -13.110280491810695 2.7795507216433966 3.50618558591113 -103.32913543096522
0.540865 -7.0377552337894835 -102.98456694134728 -13.543566189641727 127.07586313409993 -2.4332945064532288 -127.23457886905462 0.6816208523167357 -109.46882423420415
0.56086 -6.740838095436523 -121.38008297606142 -2.600814814985286 15.240888547925243 -9.83994959916181 102.18167451816312 -7.743399939833325 -107.63304770927556
0.580855 -3.619857628475054 -119.302756230063 5.759124992443416 -7.288517186476454 -16.439727184086546 -54.79617079243441 -5.363228152472082 -101.03065694938208
0.60085 -1.6776155031573423 133.1125042436415 10.024341262268756 -85.34984013744942 -2.025460380201482 -150.98965592212537 -9.933154631777533 38.94034158438431
0.620845 -2.6075693441843417 -133.31435130339682 5.895945119013172 3.998208842842016 -15.524221213469067 -16.334818923391236 -10.33145457680411 -98.6730644658526
0.64084 6.600612617416777 -153.35642932517518 0.8929549535636907 122.71161484225833 2.695011887780118 116.30759775332999 -12.28304745668269 168.92726611237663
0.660835 -1.3931929704823944 -175.71121998705783 6.744576931738892 85.46021953955184 -13.631687213646408 -5.269458662534602 -17.05412232515065 -76.22311530618855
0.68083 -6.7232551937782965 77.81885774468624 7.994854888536219 65.36445865171719 -2.7997129202361077 -20.580118160402307 -12.154447862643085 -69.55865641121467
0.700825 2.2877252113026083 -158.21632998788104 3.6565814263625107 60.142213365205215 -24.318335462938066 -124.63109579433876 -24.364990753437546 -91.99610973819115
0.72082 3.7410173572514616 -159.06079779223052 8.909800815660542 24.998128613001704 -17.749431362952386 -147.26179437089073 -27.401617406969265 -75.50964710893662
0.740815 0.3360683608453765 -131.6594080718115 7.755366514110809 -120.89005466230407 -10.135162249690827 75.09549116972741 -27.333266895172464 -84.46398745026038
0.76081 7.437758373233113 -57.816612858962394 17.693027811469307 -23.741377028097475 -8.848052737020831 -11.956102268457968 -20.575177435737814 -109.19181443521254
0.780805 3.4915973027383016 -151.62560688714302 4.927869937618576 114.81524598047893 -8.174175428457218 133.314505731266 -23.439588247507757 43.41109713509478
0.8008 8.227220134105982 -139.91840760008225 17.532516563840204 -15.498702137755343 -12.435296412799854 -100.20812462249401 -14.487804406565363 93.62956325242708
0.820795 4.2484944514757546 -113.43109692739428 5.888901535731895 2.0176167258774096 -3.2163069390275547 -89.37935520538197 -14.902657613484514 92.09326416169327
0.84079 1.4729835382700072 -32.46394270422079 3.01638654580066 105.26687220320862 2.373891136912651 -157.20383284191843 -13.109390052445525 175.17090820211405
0.860785 -1.3633054256221766 158.50620621887848 4.008843546444114 19.163507454035976 -5.001153061712195 46.799736130852494 -5.118927860024698 12.661812104167844
0.88078 1.0215979597842773 -133.42903438954949 3.570234760572025 -73.23373915631592 -8.679833965112362 -22.105586898996027 -1.0216395848936162 51.22831033305378
0.900775 9.470725728485995 -150.72034878299252 -1.6165471011672445 -16.34564934824617 16.416176586426822 -151.1528797674057 6.370010325325661 14.69600847159221
0.92077 2.652451528305275 -139.16432724758195 13.054100201616004 102.14119911656631 -11.879365664553541 98.3569167354645 3.1896793194258417 13.535168521128137
0.940765 3.5538033714865906 -33.79544173821401 14.020066597476223 126.67282440196006 -27.685123080069005 -172.06634434130743 1.259680155997901 110.37788679218453
0.96076 4.175181740631839 -105.20126927244213 11.376614022606773 2.914311350452074 -11.22984744517881 -68.15616628940508 0.7007952336232572 55.36926426828719
0.980755 1.3670202650891847 -6.511263429404718 8.108510345015596 -117.39011655425264 -7.391370144918364 65.61391005808471 -5.285655793044035 91.54936820284259
1.00075 4.5604366666089 -126.5301073809095 7.767289301246726 57.86052425194263 -10.668185716688019 -121.62231806248946 -4.1885902525778445 52.37200963209268
1.020745 -18.907804751873176 -63.28746700136717 13.240000382731694 -82.6780488321071 -11.319350202546508 51.25745539683069 -5.785529475204106 80.33331106514056
1.04074 6.690499214548245 163.5451008639666 0.10775905331485874 -35.053321493318194 -6.08336177860121 61.95802242367738 -7.848135070338321 62.06430381339406
1.060735 20.262964502332984 -159.41965274448557 9.76964635283207 34.12577775355134 9.992625604047378 121.49912178172778 -4.200170499680916 -1.3264607401490585
1.08073 12.956747303353657 -67.68384382648682 24.459943236828043 37.15760057143201 -13.106536522082665 -101.38229230877289 -1.0092374030236297 59.36915816361908
1.100725 -2.682453233978497 -112.81799511203062 2.5916735044450427 42.87172690047355 -4.651716574831751 -118.24902784628676 -4.532178575607068 75.06273939227289
1.12072 10.973707740631726 -176.24259744842595 22.461775517566966 -66.26577758889515 -16.788508082586446 -171.66157129167672 -12.718261636944755 68.90264895299444
1.140715 -6.782715780032401 134.13192549397291 0.919406387717872 -65.1298851360147 -13.621132660027628 -0.7712610361496591 -5.403005452038718 83.1912497601508
1.16071 2.0714329189399345 87.2165385026895 2.624484634156516 -32.97145764202984 -11.040487556154284 14.410862866181311 -4.74648064469534 75.9909177102208
1.180705 -2.6476854967043324 99.36268236465074 4.343203224262164 -24.72252865798232 -16.269677393878062 1.7028460340909817 -4.181769800477141 59.025273865244245
1.2007 -15.525605419209947 -98.73266178577141 3.883684612559066 -106.85359911800666 -7.24812277498442 -32.2336360070355 -7.082868114442357 46.759557145607424
1.220695 16.125863554424235 -147.1337065836869 17.493818818363604 -153.95024018093827 0.9138455901934164 -160.41731324054223 3.6425019808467916 134.66688728363175
1.24069 5.0584634848582954 179.83170017363693 11.27724860094041 -78.00420350238264 -11.547018756077287 143.24677119898215 -1.1919103953416652 79.86499338067692
1.260685 -3.4134382033974364 160.25568899427896 9.144693124654786 -7.872158168965097 -25.575318788413348 29.924593029705797 -5.663298714735106 50.5869469383867
1.28068 -5.82615811609016 175.34435409937268 5.974539421293913 -167.22525312368305 -17.468813101648347 -89.96863089668413 -3.1327750908279244 58.42476431920339
1.300675 1.2406385826008917 172.97350293978826 10.238502774142288 0.7237859306241624 -7.369636268516588 22.831037534654527 0.4665508246499943 39.8508188881752
1.32067 -0.5084033902906862 145.90053603481834 13.533595822156688 -26.478450038557636 -7.912017762422508 3.006822068196951 -3.8637865765182995 6.28466043973329
1.340665 -4.638188398375106 165.66368741682834 12.168253510186327 -18.806063412316018 -16.620675161275805 -2.196331661775943 0.8229107614985821 -8.050439427656002
1.36066 -9.061322222542218 168.58769284276775 8.227337552976053 -81.78324800044551 -37.42136743537643 87.8099326843441 2.9066923687321475 11.669600574343319
1.380655 -11.817983296747258 146.6630539076034 -9.824514830695065 99.93716705448361 -27.210393395917958 145.03889211881338 2.319832254878616 -56.50358402493241
1.40065 -5.231100249171423 168.56436772539925 2.9158426185494446 -72.95436593016048 -15.190251956613947 65.76912635512319 0.12261633946990003 -57.49851117082019
1.420645 -9.180229600926712 -142.9313312176432 -2.917027979156143 2.629145798597356 -7.863900905420334 58.403631383657704 -4.690694744773346 -62.32092684235275
1.44064 4.804830250742238 46.899158306307235 8.830134042029457 134.01835570107366 -15.074264746341694 114.13563167386212 -4.0250253491255075 -65.83962893838242
1.460635 7.74840661307934 119.03939865725225 12.231388547066487 -67.65637590980012 -25.348990272216582 161.8789388374312 -9.415540628131675 -20.91868881069174
1.48063 21.08988366264365 28.416963885843103 23.49483297029309 123.87471532059332 1.5497315484245138 106.52690843476132 3.233596300569408 -124.89233331811194
1.500625 7.201744384872341 54.4935828026141 9.806166702506404 90.3064186404619 -5.7680888081349915 5.679136525369319 -2.561683539318275 44.94899806052168
1.52062 7.3944011548883815 -52.725092984306556 12.511061847621594 9.170751212419686 -3.8836969971823256 -3.517077477148995 1.8190614047377531 45.22800012520961
1.540615 5.873436771267992 -63.912994120264344 14.607213049538434 58.50575501265406 -11.68378048070824 -86.862356182537 -0.28225280404639447 35.46154456741957
1.56061 12.834087820325031 -160.39178330802702 9.578982194855033 79.60686807956307 -8.366277141738188 -36.40369735237274 -2.228786973115779 24.911419861926852
1.580605 9.738079928359706 -16.75840764555693 3.487560577867011 108.49332353562092 -12.585999010718156 -86.07778524076403 1.006209702314895 52.39320628330871
1.6006 1.6970387949861534 108.89923726000274 -7.095307163951482 36.172027027236304 -10.39073384856733 -92.56871818486924 0.6957338842068194 33.25333904166619
1.620595 13.78654670624153 87.41871011542173 22.918352947703134 -64.84163461815817 -6.86247313682339 75.51760945848294 4.157974011171285 -55.41176931667813
1.64059 -1.0064701663873166 -173.2591758370461 12.732080866735204 49.521005531002615 -36.4447286619229 145.5198707378588 -0.29291771307361125 7.269569120336969
1.660585 0.13691003492060894 -171.8390889579717 11.32892071090608 88.60325296554984 -28.076328126086352 113.90111357751442 -4.854066387717013 28.749547819226386
1.68058 4.291878480881514 -149.0220878883714 12.02842019708461 49.21272559072287 -16.79715633091449 163.17338413965985 -12.043776370484736 54.344350303959594
1.700575 2.899980314123855 -169.43479700882472 8.902667272836213 15.817531428859995 -17.475929632446928 153.56603932630074 -8.50064996302063 71.90327702856678
1.72057 -5.711512875137297 -164.9513427184473 -2.667932605071881 -31.95068026324087 -15.62016076227861 -3.736946559755301 -7.03937591260872 77.58195933981524
1.740565 -7.885462390320285 124.39562156138206 -6.142619613404823 -42.709002428039355 -7.446161318840293 72.58027943761077 -3.604299653608028 74.45795072799923
1.76056 1.028887133189896 -58.423652294720355 12.795290002775271 123.73573053176487 -12.778550624957521 160.55331567497765 -10.16000052656937 75.42891122475625
1.780555 -3.0555251596617277 -143.8075995671356 -0.5501852559955281 -62.14246870161863 -12.060281205216238 -41.54100264680313 -7.0788633183401695 97.0398094633365
1.80055 -10.333079411015111 148.94897896246508 6.098210941381895 16.55978705832938 -10.412558755551578 -26.279177397646066 -6.6726969673298795 90.46543016742282
1.820545 -5.418970823916418 -178.38065577748128 -7.588343780089694 61.64091678559573 -5.674027999159569 -58.76130482894268 -3.355620451644092 98.74872188196672
1.84054 2.4675296842957093 31.163876754240366 12.855849596305621 -35.43947483203079 -2.3926457540843615 -32.57926709096349 -4.4358137358900445 142.3738451739301
1.860535 -1.6905726096192861 -162.25326831832155 -5.752215965188299 -0.753533323787361 -8.483064029223808 107.64556609513053 -0.33023130889601837 97.36121446180468
1.88053 -6.697001296770567 -162.35657978066143 0.3013059987573334 -59.429517573436776 -13.203699213807322 -10.346645083967736 1.2076616152555948 91.4926940010938
1.900525 1.817477881100233 -154.78311954675502 -2.2381606869273094 77.6336936901172 -1.7726245224066814 43.11533324117801 2.4635008823857656 77.18029669365565
1.92052 8.981534846051405 173.9894721609396 10.21125432123066 40.55062858841313 3.091052812581589 39.89884205120766 -1.1813455256137464 32.583490559131256
1.940515 6.82355565703595 41.49427682182319 6.22666463691353 -62.069629311794245 6.336759900560141 -60.29298643890631 4.685530196830944 97.38271678999033
1.96051 6.451044492649258 -47.303307376116344 0.029280746136505432 -138.65100282588782 6.051639128922373 -41.95133714861377 8.23119817541656 68.13264125763047
1.980505 6.725997422932778 115.3610882876522 -6.124000143425769 -130.8191100226673 22.51423669173622 78.51669706027938 1.187108933739508 103.76871609089024
2.0005 25.499223489533982 26.79373091587897 21.19590833546059 -83.28556175800496 21.515286716282862 -109.33299591675349 18.167635156420385 119.68710846760867
2.020495 6.130660931002839 -149.49220949745643 -1.3932229998920307 16.96183195048967 -16.379859287442624 -119.13715939118536 4.2126577475452756 37.033386393776766
2.04049 5.8959685971521 -137.34355172395053 0.87896324649763 85.00388913540968 -8.749514575327556 -132.8610661003339 5.659526242105449 37.21574080144503
2.060485 6.3966616954458555 -133.45929947356186 -11.275706009555682 -44.84041258294644 7.080190948435744 -84.84429751579371 8.571730063335378 53.93263855632781
2.08048 5.327907246598233 -139.14454386361362 -2.020158248602 20.813350712040027 -3.1329244476538842 -126.8494009108725 10.621087519928075 74.33095110724263
2.100475 11.74963538316798 140.31509827148173 16.581726309325482 -71.91048217146655 8.67634543188073 -58.8495946840319 16.639584831576187 99.45074642413869
2.12047 16.686233780248006 -3.0158306512993933 6.261007960543706 -110.37204839269029 6.778800895796748 140.96897888134794 13.198564292806543 40.82873012354893
2.140465 17.15689293799929 -2.3614830942991403 21.794562012787672 -169.11964675032598 8.168097963426288 141.76444521024948 16.073143708640632 6.543561601988134
2.16046 11.337109033242147 24.813397617162916 28.40310249607342 -172.22224511212545 -9.02548437040637 39.055312913517135 0.23171699794831946 24.646632043370236
2.180455 10.173113830172637 51.713389979651026 5.108072332785114 -143.75900495201566 -1.5135429926811872 -152.27106965813928 8.601539047930618 26.43099249341452
2.20045 12.152618346260462 110.51348211810605 24.498918698543605 -89.37993338238782 -11.14728907407915 171.0241193138846 11.69541779586898 11.081781597045005
2.220445 9.197948854507072 107.40317021737704 13.406693103102434 -158.9691462011526 -2.4195098825694847 29.863523141466867 6.806827186131862 62.70899448911005
2.24044 8.238245370514631 118.00221780510819 13.411042863686085 -119.584557780646 -2.3173670524122314 36.551749845846125 2.0575045866821675 81.89039853979867
2.260435 7.098082097861105 157.89275655846276 10.693029099353442 -50.0117002855838 -7.829381886754705 43.74707648905311 -0.8308730957118016 30.50531772279857
2.28043 7.500130397338031 178.85023616701054 6.067708552037821 -73.15434081775689 -4.053357096319337 156.41517075382458 2.9842279129855247 11.236797249493558
2.300425 -7.448524775055615 -114.49374754261473 -14.31015300536581 -46.94191634746198 -10.67456482692355 173.09919773723783 8.781553473361491 117.30379380630424
2.32042 5.827132613659973 114.03708059960009 16.31402291586359 -38.74196562347713 2.0714848245682265 -7.232497897942627 6.361668674290353 -164.23986937329738
2.340415 0.49085976599491044 156.44192922620692 10.409607845628964 -64.19224933757056 -2.062580093152063 55.907412159588496 -5.928290234830601 166.07202663548472
2.36041 5.215458376699909 -147.85983329168943 11.070036034534198 -22.099552589135367 -2.981668635315638 61.566676658026914 5.063640478840627 72.83945246531057
2.380405 -5.397906507868971 165.1110781365919 6.2896929675398185 -18.23336426457941 -0.26064087430662053 5.912354371575717 3.7172194183988823 131.31761451910393
2.4004 11.404568777924506 153.42925419346452 15.948082862512933 -40.0383063824784 12.031469737097705 83.44127166749246 13.660132593922441 -69.26950924606261
2.420395 8.312185395274058 129.16234649290863 16.244187597446547 -42.48437973114775 12.972138464336144 29.992747370690342 16.285770506427106 -119.47128557234093
2.44039 -1.4368490110954066 -146.26866939090166 5.8287156448698765 18.88014842704504 7.004584068831949 33.673566614414945 10.669326342566649 105.79024291264423
2.460385 8.52562277947314 -147.59677478924453 5.317427772677659 -50.27719683705332 13.445340631141638 64.68973466657214 13.660099222035091 7.848818809625321
