!Created with skrf (http://scikit-rf.org).
# GHz S DB R 50.0 
!freq dBS11 angS11
0.001 0.023153754410188274 179.45037835337556
0.008998 0.009034432796453586 179.41489039347957
0.016996 0.03776282493825658 179.79079774769738
0.024994 0.009897894689432044 -179.93881837364498
0.032992 -0.02065481643734544 -179.92214780897788
0.04099 0.0001364021100285438 179.74597708726813
0.048988 0.009539600180456857 179.91838090876146
0.056986 -0.020556455169156572 -179.90576544835912
0.064984 0.01554656930168568 179.94396979044672
0.072982 0.0501149237233002 179.76397018760204
0.08098 -0.018695288998532844 179.71470141329604
0.088978 -0.01149818528488977 179.59266276386242
0.096976 0.023889183295744725 -179.890196359414
0.104974 0.045260298543421736 179.731050024741
0.112972 0.02302616416041563 179.8466712734856
0.12097 -0.05386231713896766 -179.97442295846437
0.128968 0.02787718560843762 -179.58000559167417
0.136966 -0.04006479624275041 -179.97558299327076
0.144964 0.08517186466383866 -179.69001278503058
0.152962 0.0010691983671046448 179.54917671451435
0.16096 0.09349804714469559 178.99228460578803
0.168958 0.1074871648467102 -179.9486093322664
0.176956 0.04264237174518873 -179.66318580575768
0.184954 -0.023838930850511014 -179.91906785597493
0.192952 0.023673769279632134 -179.91113329159876
0.20095 0.018185399929105405 -179.90427031714123
0.208948 0.0614617540783223 -179.13846182303675
0.216946 0.014251435841753451 -179.08084240565285
0.224944 0.022177931785404566 179.64938666320492
0.232942 -0.08755121939150338 179.92720370913162
0.24094 -0.035452204570406244 179.97881035195564
0.248938 -0.01982796281739073 179.52377054364797
0.256936 -0.1577415652122012 179.0140618276998
0.264934 0.07307371782794155 -179.5002453084543
0.272932 0.08861327981998599 -179.1977738287113
0.28093 0.2018184864853589 179.7727193929203
0.288928 0.1197609408056487 -179.43991438082864
0.296926 -0.08789949396350974 -179.65776955125855
0.304924 -0.042935260561697795 -179.4813237088969
0.312922 -0.11598560091750132 179.5952514855226
0.32092 -0.001066963960677358 179.005708571115
0.328918 0.019270730721426585 -179.96651009692886
0.336916 -0.04127095976477313 179.59458095066805
0.344914 0.1599935761859882 179.06539250437788
0.352912 -0.03130332675102957 179.66013229645344
0.36091 -0.08376862070718916 179.35027606802433
0.368908 -0.03769264423735022 179.5704747082177
0.376906 0.10677760559185326 -179.10045966783042
0.384904 0.13328129895750637 -179.43419346284412
0.392902 0.10477002037303756 179.54027190330564
0.4009 -0.027136293716648035 178.9363902300486
0.408898 -0.052439772354075265 -178.75933228742795
0.416896 0.051655551368392644 -179.7671205624526
0.424894 0.07325426463455245 178.3365259215149
0.432892 -0.12533452619082208 -179.72898615838187
0.44089 0.05461105669905804 178.5764694348049
0.448888 0.12925481359814026 179.75424484297196
0.456886 0.028048436019876468 -179.33179442676314
0.464884 -0.025386687608387158 178.40607627306744
0.472882 -0.05136392242883824 178.65463948736203
0.48088 -0.08297056073665919 179.0172793635936
0.488878 -0.1194814278952999 -179.45776088624564
0.496876 0.010692792977279632 -179.55170594923356
0.504874 -0.23342519843243872 179.35727763732723
0.512872 0.18523720970338234 179.07043373664385
0.52087 -0.09659467200780252 179.50808236999507
0.528868 0.025876479918124022 179.03477348558278
0.536866 -0.0383723673308342 -179.29608433592097
0.544864 -0.19246372992970248 -179.3936877539769
0.552862 -0.19775261341614558 178.8948945404045
0.56086 0.005469091597460255 179.07286908889444
0.568858 0.015342769127397729 179.02029493285278
0.576856 -0.018251779637114416 -178.7423563966691
0.584854 0.04563103630102161 -179.62938013777747
0.592852 -0.20946833449880173 179.76124680099596
0.60085 -0.2592417361686886 179.43455850151773
0.608848 0.008161518893630936 178.65043847553034
0.616846 -0.0679263829198799 179.32719422721132
0.624844 0.03156486159165248 179.85280405979483
0.632842 -0.008505223106886974 179.59607450171796
0.64084 0.09304550835086302 178.89830903368892
0.648838 -0.009847832385358652 -179.62439101001243
0.656836 -0.014509661957926273 -179.95646778150277
0.664834 -0.18299629435194972 -179.5510956198596
0.672832 0.011079109545290039 179.46921075312545
0.68083 0.15498916637806054 -179.9847946927869
0.688828 -0.035876429202190876 179.88332095380073
0.696826 -0.09975549746746565 178.87817950907387
0.704824 0.07248118158405271 -179.72302878341364
0.712822 0.016586295731152913 -179.64029455118305
0.72082 0.018430220021096712 -179.55433786395272
0.728818 -0.03712646681309838 -179.8807041934645
0.736816 -0.08112343461245204 179.9012936479615
0.744814 -0.011737502255631558 -179.9770605452464
0.752812 0.05243918028342112 179.4945439038489
0.76081 0.03098706953710482 178.9351216392641
0.768808 0.03333555902738012 179.68365805814997
0.776806 0.04673104444220201 179.61646786179054
0.784804 -0.04718494167996905 -179.81707776606362
0.792802 -0.004574930246458762 -179.99763351630952
0.8008 0.1379455829275496 179.8380617392572
0.808798 -0.026757176047057962 -179.94100013562755
0.816796 -0.0059937790544884765 179.63541385928824
0.824794 0.07685038792409002 -179.9997225605476
0.832792 0.024115367701120258 -179.96013792921784
0.84079 0.021882699296784887 179.52663767934732
0.848788 0.05204778492151291 179.68069098241494
0.856786 -0.023272335105042334 179.9069228770638
0.864784 0.009696882001150592 179.71101523118563
0.872782 -0.00953316294086972 179.72116843370134
0.88078 -0.042524049618938575 179.42037613996868
0.888778 -0.021053602762687373 179.97686762324932
0.896776 -0.016968999778538312 179.96651720848158
0.904774 -0.024073839840821572 179.8957065073942
0.912772 -0.059202795032258955 -179.81302518434734
0.92077 0.03800816255663495 -179.7806861849079
0.928768 -0.009266787672804566 179.94691416726428
0.936766 0.1199850888866466 -179.9757443297407
0.944764 0.028822423232181312 179.7171829410004
0.952762 0.06811675442761152 -179.99784556996272
0.96076 -0.09731195907693807 -179.64131132217992
0.968758 -0.032482595095927005 179.9231052182688
0.976756 -0.006452506283448487 179.9380604101357
0.984754 -0.02570536764284529 179.82303646931106
0.992752 0.047818975899365616 179.84461941699206
1.00075 0.0010253756642912403 179.68043141591906
1.008748 0.02281760633119851 179.78191306144922
1.016746 -0.033924532367457474 179.80446191429763
1.024744 -0.04083006217366146 -179.80748884153002
1.032742 0.07235690258622153 179.86127028886494
1.04074 0.00960314640977241 179.93432491359033
1.048738 0.05420066830078125 179.49167945346915
1.056736 0.068074369792141 179.82670642483524
1.064734 0.061915562333721086 -179.68148893431476
1.072732 0.07148337722854509 -179.9965231789248
1.08073 0.04753770983290384 -179.58831872279077
1.088728 -0.011560602751004123 -179.8829478863155
1.096726 0.026562604472515995 -179.68326309934926
1.104724 0.013090573043854723 179.3330580903906
1.112722 -0.048041617134864045 -179.6274258718784
1.12072 0.07764214745846743 -179.74005186912845
1.128718 0.003858549427463262 -179.39358435086396
1.136716 -0.015579712703360914 179.90525485250993
1.144714 -0.03555605273898227 179.4747396916669
1.152712 -0.002961209540092407 -179.87018450932757
1.16071 0.03277238431072123 -179.80094229858196
1.168708 -0.029835073165355115 178.99482644174003
1.176706 -0.024589400030299934 179.79480913835314
1.184704 -0.19781415168088456 179.4726062435671
1.192702 0.014358675664750555 -179.653807067387
1.2007 -0.003624373208746051 178.92179532739635
1.208698 -0.025861751998955594 179.15175202919644
1.216696 -0.04430781166621915 179.99769167077702
1.224694 -0.09664482857394768 -179.52396486490525
1.232692 0.025919837305775052 -179.26967677702146
1.24069 0.12360476216335248 179.48930077679287
1.248688 -0.015287676351777052 -179.6161750073732
1.256686 -0.045815044417501505 -179.8592930021311
1.264684 -0.11159539470499374 179.3990149426211
1.272682 -0.04841838548821337 179.97186864183917
1.28068 0.09727012030415538 -179.7566743113012
1.288678 -0.0065282228118532706 -179.8864190506737
1.296676 0.03398551936411412 179.96866272060214
1.304674 -0.14636445146931662 179.56904516126076
1.312672 0.10331637439191113 179.52040867376192
1.32067 -0.16206950310555604 -179.34955209000785
1.328668 -0.20200765255529207 -179.46649179464012
1.336666 0.00576848865728339 179.10454308315343
1.344664 -0.006839695164245107 -179.80460503207044
1.352662 0.02634305904338137 -179.97574450746757
1.36066 0.2427961286678904 179.39009194917327
1.368658 -0.1272590625905403 -179.33532637925416
1.376656 0.08038927738390791 -179.98298411836973
1.384654 0.012378403242742158 178.76608409509458
1.392652 -0.09623815042589126 -179.97384903163857
1.40065 -0.07202878715696272 -179.98749880314466
1.408648 0.3006152147731269 179.09391151932752
1.416646 0.23072233929080657 -179.74588859959212
1.424644 0.045458963538694476 179.09769657535676
1.432642 -0.011555854597817843 179.2142244438823
1.44064 0.002102381921641754 -179.34290525443967
1.448638 0.06372254430928158 -179.81415770342656
1.456636 -0.14352718291229755 -179.6368776087086
1.464634 0.1419948998732582 -179.76407099499562
1.472632 0.02958873189312922 179.49901096616742
1.48063 -0.013283770578186117 -179.01768814114305
1.488628 -0.17890695212721866 179.22985114265015
1.496626 0.10228894802487175 178.29247112593723
1.504624 -0.18646570680357116 -179.6819987041325
1.512622 -0.04364471092948164 179.7717842444061
1.52062 -0.06422493863372457 -179.08877634328329
1.528618 0.07351084346358538 179.63553022478862
1.536616 0.06444145021893391 179.01508013042735
1.544614 -0.131361956806926 179.34108032925312
1.552612 -0.0474492670946982 178.4910943797948
1.56061 0.026904092119239487 -179.44689273471545
1.568608 -0.01700687816572939 179.03743146307045
1.576606 0.07341836931978764 179.32597438311947
1.584604 0.063228086726734 179.96644415298908
1.592602 -0.035176287847094596 179.77740791109719
1.6006 -0.062397219450399076 -179.15717380296178
1.608598 -0.11101466809865972 179.89764923363182
1.616596 -0.12346956453189217 179.63119501320682
1.624594 -0.0897931080559877 -179.85583060547881
1.632592 0.04011227320971507 -179.28279346242033
1.64059 0.051354170912398134 -179.84605576040542
1.648588 -0.101447218993396 -179.86283148141982
1.656586 0.2580045512892686 -178.98971949235226
1.664584 -0.057498573523254354 -178.45852485359384
1.672582 0.11478473964237965 -179.6621066865015
1.68058 0.11930287302030135 -179.18354327611772
1.688578 -0.00439971411846047 178.70627329280563
1.696576 -0.24452431008520614 179.93220500800066
1.704574 -0.0682749726741921 179.4241918496562
1.712572 0.10310761823571905 179.56659704699715
1.72057 0.12123620151252122 -179.30897064903778
1.728568 -0.05073227356081614 -179.80461063593887
1.736566 0.11842365893918468 -179.48351846663073
1.744564 0.012084624371520912 179.849926988316
1.752562 -0.06369738464133909 178.98689923296544
1.76056 -0.05339971208077415 178.21641353352834
1.768558 0.08331156268848391 178.7378958055385
1.776556 -0.12462898364314674 179.24332892178433
1.784554 0.013468042353325922 -179.10503370349934
1.792552 -0.04775160819008177 179.14979874289077
1.80055 0.07334136810032563 -179.33048995456898
1.808548 0.030505700538777596 -178.68947077580884
1.816546 -0.13763017676554723 178.0905528110755
1.824544 0.042659930345533004 -179.25234573104572
1.832542 -0.1380735947271142 -179.29128967775904
1.84054 -0.0026074089929058884 179.4483637035184
1.848538 -0.040988024520211386 -179.8612864962708
1.856536 0.2322215572657581 179.69951229596123
1.864534 -0.22901505133430478 178.7166239633335
1.872532 0.04434945879858168 179.82552378281957
1.88053 0.13556355163989234 -179.42188498701748
1.888528 -0.04314514826555215 -179.36549899630108
1.896526 0.2779046389379717 179.64577012815693
1.904524 -0.10678347769925838 -179.50461738930792
1.912522 0.13387923483864464 -179.0420401472392
1.92052 0.0059952737393152026 178.7583403329882
1.928518 -0.034959949385387504 -179.7510854136225
1.936516 0.06010928069764423 179.4407921004339
1.944514 -0.023965043826242875 -178.70111161670027
1.952512 0.022328757320245703 178.52568852178834
1.96051 0.08862025058151782 -179.46612339015965
1.968508 -0.08490897544786308 178.3503873567911
1.976506 -0.04147575126086074 -179.11012612651515
1.984504 -0.03594195754601622 179.79987156259867
1.992502 0.16788598787709666 179.76724394809088
2.0005 0.023380461256556694 179.83466479083796
2.008498 0.1270335573167226 179.68655361876424
2.016496 0.1521202091532276 179.03333249758077
2.024494 -0.08427824327917458 -179.92993292500788
2.032492 -0.04317736965507882 -179.7929030926293
2.04049 0.08977991960421364 179.61037417617553
2.048488 0.039505234880454106 -179.70184780712677
2.056486 -0.03554373840282159 178.85001348214226
2.064484 -0.13569025771121987 -179.59792477593913
2.072482 0.091323885381022 -179.32196891666285
2.08048 -0.07039878733075677 177.64543913581815
2.088478 0.0400159211533398 -178.65554891918725
2.096476 0.007410038403029411 179.83948583952744
2.104474 -0.14336850623593905 -178.82399048122969
2.112472 0.14428380624425866 -179.61965755128645
2.12047 0.14298636994506758 -179.85812020855715
2.128468 -0.2265819932314754 179.06995437299622
2.136466 0.28229150388856283 178.58251761786454
2.144464 0.0858706545049896 -179.47628106393933
2.152462 0.11938695210521148 -179.731459475378
2.16046 -0.10631818875173085 178.5056040158896
2.168458 -0.25870235712348805 179.15738618007785
2.176456 -0.17551842271597184 179.62820127146205
2.184454 -0.11349141484942465 178.52994204480947
2.192452 -0.07703610568774344 179.57628546361477
2.20045 0.2560489206604252 -179.6656187096779
2.208448 -0.12057515279654331 179.42218240009177
2.216446 -0.05796490458366454 -179.20261717127994
2.224444 -0.2101393141071456 179.8073843499247
2.232442 -0.20175154716874752 -178.9407223683085
2.24044 0.21843749429962173 -178.1543600806577
2.248438 0.28135746777708237 -179.74773581944874
2.256436 0.3243326247488107 -179.10120724694295
2.264434 -0.28135988232100373 -179.87701559080207
2.272432 -0.05474991147790858 -179.65510652688118
2.28043 0.22891518393444096 178.51540607919645
2.288428 -0.1416797583459768 178.45126238027575
2.296426 -0.4458595471763008 -179.17503038009508
2.304424 -0.31160684444204567 -177.6265173774858
2.312422 -0.07673898588612837 179.98902330849887
2.32042 0.2506342352607791 -179.74779401428808
2.328418 0.19017851009575637 -177.93120928352755
2.336416 -0.6721419624029055 -179.5224314778252
2.344414 0.021099967955669863 179.6127899771297
2.352412 0.536145041371238 -178.4594028134888
2.36041 -0.4259525330295361 -179.92590111007019
2.368408 -0.44457217177317937 -179.20556549110916
2.376406 0.1627189646835458 -178.83961040720877
2.384404 0.2862273605190119 178.59268563170278
2.392402 0.09355309976352905 -178.18385370641133
2.4004 0.12071630821152987 178.40162443185454
2.408398 0.16067132664856318 179.47367507486578
2.416396 0.21430151920726145 -176.12818577937887
2.424394 -0.4201591116893134 -177.9299713481339
2.432392 0.39045982600192547 179.77289491104813
2.44039 -0.27347250426667224 179.09745923972227
2.448388 0.17919112306733764 -179.27225662181695
2.456386 -0.34127378136366127 -178.91971690618215
2.464384 -0.036843026355630824 178.44838664452465
2.472382 -0.4967308052252407 177.1204688609468
2.48038 -0.1316721270241525 -178.19190313794536
2.488378 -0.5566637971692773 175.9842819529792
2.496376 -0.2587728698101659 176.133513881677
2.504374 0.2875347436361556 -176.87521671659914
2.512372 0.5093838305959086 -179.03702764814827
2.52037 0.3569925194827073 -175.8633309346413
2.528368 0.05059289442265458 176.13887703513075
2.536366 -0.30467573724555946 -178.82035319175424
2.544364 0.24806616732670952 179.64609060524685
2.552362 -0.14286347726853899 174.45684278348605
2.56036 0.21224872252156401 179.1275399311787
2.568358 -0.9998355656424676 -176.82737497961617
2.576356 0.17930870246963204 173.8987909794303
2.584354 -1.2232025645144926 179.45947543797334
2.592352 0.7447528948806543 176.97486991974134
2.60035 0.6095385522571676 171.19900321573095
2.608348 -0.7463688540320658 175.8556281732292
2.616346 0.04396863708246132 -175.34315526775418
2.624344 -1.3913242352349686 178.63214216024238
2.632342 -0.2273021956433267 175.10025753678428
2.64034 -1.4356754535907785 -178.32523936880295
2.648338 -1.2688177013721544 -178.67060828086596
2.656336 -0.9032858136728923 159.00363937964886
2.664334 0.010664819147241638 172.66950808327204
2.672332 1.070576740835119 169.74921488193678
2.68033 -0.3339692603767459 167.4817803730712
2.688328 -2.165035335240496 179.84907142399007
2.696326 1.6340722355610557 176.00008347531184
2.704324 -1.1779657563033639 -179.10063155396315
2.712322 -1.3579973259387739 -176.36409339852523
2.72032 0.21938404015787868 -173.99779856162604
2.728318 -0.882876308236004 -176.94707030461652
2.736316 -0.011448641274033826 178.88914650387719
2.744314 -0.0030660832446862277 -176.29400554014512
2.752312 0.11395189753482839 177.40526132628025
2.76031 -0.1393344900173433 -178.42141356781934
2.768308 0.8004746878965274 175.11389617650755
2.776306 0.297579692699756 -179.35684393225918
2.784304 -1.1127622276382707 -178.7148550095469
2.792302 -0.25167798476931774 -176.70195933312758
2.8003 -0.04892619391749381 179.9979070940527
2.808298 0.00829361316238766 -178.13406205679945
2.816296 0.22764564969670126 179.97066861405153
2.824294 -0.29023261573460113 -176.203760717094
2.832292 -0.22971605405970458 -175.7449559036542
2.84029 -0.29336880792037995 178.4382781772672
2.848288 0.38448660776438126 176.04962069058507
2.856286 0.20396559215635948 -177.68757243669438
2.864284 -0.6522459794271187 177.14734615976482
2.872282 0.10725860361841878 178.21858131624535
2.88028 0.06114947168788436 -177.67830217832633
2.888278 -0.13746058053581967 -176.75285307119714
2.896276 -0.04479405902845474 -179.23064361936446
2.904274 0.12561428930469684 -178.29670308653132
2.912272 0.024446918164441174 -177.64158044010762
2.92027 -0.06423877256855517 179.88454232398294
2.928268 -0.30699836816343146 -179.43838692636757
2.936266 -0.3279845771409006 178.64449124581938
2.944264 0.04832882696241879 -179.93252113771726
2.952262 -0.22960707728803295 -179.84803428409444
2.96026 -0.18342837082223437 -178.93576729152787
2.968258 0.13506383324222204 -179.89351852812055
2.976256 0.09133942552615333 178.65423497938752
2.984254 -0.29976066244634314 178.84210323182324
2.992252 0.20221321345211027 -179.84321914517716
3.00025 0.33998248674286136 -179.40429101004736
3.008248 -0.28142631442841715 179.18951262452507
3.016246 0.0629920153174592 177.92835950260877
3.024244 0.4428904096532339 178.9718867436925
3.032242 -0.28166530351240565 178.11155765575597
3.04024 -0.0014385327439816547 178.68712740337662
3.048238 0.01979735991559934 179.45981254279693
3.056236 -0.0388861061607054 178.83954621585968
3.064234 -0.09002359369056334 179.18276219941148
3.072232 -0.08498195049690571 179.19672689300793
3.08023 0.0632601392907173 179.46306173225946
3.088228 0.1375723738354683 179.0995030820108
3.096226 0.07448443402753126 177.80577853335512
3.104224 0.19124385453073417 179.8073864289965
3.112222 0.08091566966762476 178.09004730602436
3.12022 -0.10734279409888711 -179.9738360519358
3.128218 -0.2815738216782061 178.73193097739704
3.136216 -0.19639084072593432 179.42465737517742
3.144214 0.003951548253115637 179.70524299031732
3.152212 0.010727326155085917 178.91541944002194
3.16021 0.17987799558076506 178.45580162584065
3.168208 -0.060796443490699285 -179.48351350346923
3.176206 -0.017983070954664598 178.19322061852745
3.184204 -0.0701832074908323 -179.65323286001933
3.192202 0.230864016692923 -179.2527478529566
3.2002 0.01306719858195947 -179.37521633778707
3.208198 -0.026194829148646386 -179.99920041842446
3.216196 0.20642920575944343 178.43056541302437
3.224194 -0.1020195137509062 -178.86013132291603
3.232192 0.14576072894190636 -179.9558897197726
3.24019 0.18049302047774593 179.64122108432886
3.248188 0.18039664306260078 -178.55829038677652
3.256186 -0.08372651258572437 178.05820154917063
3.264184 0.18917345251619044 -179.36592317742262
3.272182 -0.04769363146949302 -179.5470554194022
