!Created with skrf (http://scikit-rf.org).
# GHz S DB R 50.0 
!freq dBS11 angS11 dBS21 angS21 dBS12 angS12 dBS22 angS22
0.001 -20.062418453256935 -78.45832097518196 -9.27655597003772 -52.52974469287358 2.1481049128936984 29.301604689369487 -7.367671814080003 -173.65953933672805
0.008998 7.992476858446976 157.54413861284775 -9.449071752984015 -50.72079680815127 -5.7440977664825175 -106.39643071826136 3.462088111312745 -121.559244044167
0.016996 1.168162163152473 -172.50794082691542 -33.320134090697444 53.52638927753918 -25.56791017758666 -49.59167661405594 0.14357979618480546 158.73392233778998
0.024994 0.3795415770165656 173.82488911451838 -39.243835995660646 83.65777218566022 -29.85232574648966 -49.391857640268135 0.1600364526347286 178.72083064618602
0.032992 -0.12174546501101767 179.5899564535955 -37.59014866507589 37.87340674614598 -42.343342016162495 138.5901181696371 -0.10838609602726679 178.93022874070152
0.04099 -0.09656561217050633 179.2489740726474 -44.06949085957286 112.21793223277191 -44.52585321837685 5.549393111687055 0.19322533188852323 -179.75804362756753
0.048988 -0.02878052340142038 178.92072038973217 -51.58737081825667 -146.47966130179418 -63.947344101644546 -132.15276637052165 -0.04294438167227154 179.9082226368418
0.056986 0.10890700460094575 179.93516049313828 -48.208815112205706 -115.4241964294687 -44.09205875309575 -161.47031867230749 -0.06490510922876376 -179.33499371791612
0.064984 -0.03327385225667897 -179.73679609614538 -65.8387636390834 -99.05613295063019 -52.90646435386698 -135.4695422408168 -0.02604952351829669 179.98429557747247
0.072982 -0.04257018796556788 -179.66193527519363 -54.16222708092788 -103.63295119756907 -53.80685231720544 -168.80391698682632 -0.04855358030031483 179.3267049229142
0.08098 0.016942784996690892 -179.70727576710357 -49.674151601616614 -111.39037922296882 -50.5463413355048 -143.17767819959207 -0.05477421854875392 179.90150026828334
0.088978 -0.08405627275029436 -178.96678081607476 -49.996928740418596 44.12627631036354 -47.211554805930014 26.521481878120017 0.10061486886800014 179.09200996828633
0.096976 -0.11594376350780466 179.77712593734879 -49.90866637754165 169.2420215736784 -52.64519049424197 6.772455527809076 -0.018156389376069816 179.20725921109383
0.104974 -0.04689184212996994 -179.751223186997 -50.18990987995351 85.22212801651567 -55.30268973455574 109.29660883102184 -0.059937847112600244 179.94281757550968
0.112972 -0.04969379695793897 -179.29810718798785 -51.31005964159287 -110.25190716749749 -53.15199610291928 -126.02505718903694 0.002717587379709098 -179.83393858315418
0.12097 -0.1227979431756491 179.53464078601436 -46.74830895335645 154.743605085171 -49.15576296015626 -136.55789218408609 0.009620271867120913 179.70376412222126
0.128968 -0.02384450085940718 179.2844908163721 -48.94336702818697 -109.30573268747871 -45.08444484680149 178.00327212307548 0.054891770038083904 179.77149868560352
0.136966 -0.0200659200912349 -179.36401901950742 -61.092473270629924 128.94190755299195 -55.82668822642117 62.89905571201098 -0.03550828971153139 -179.78685520009566
0.144964 -0.06076384509835882 179.93511263609952 -44.91570081353168 -149.17060186280668 -48.590355544569654 -126.0187505575111 -0.048343038574755304 178.99248074321565
0.152962 0.10656795440107185 -179.722727430044 -42.9658306271169 -155.16999387902774 -43.822136213036174 -126.73125941737243 -0.02217723810233268 -179.69803285740915
0.16096 0.10657687876557934 -178.98250562913867 -40.882089543754994 -118.71100096874805 -44.58471628351698 172.93591650974483 -0.024305833962155354 179.58213109949708
0.168958 0.061594338494008485 179.67244030049542 -58.517082602195856 -179.3314785401742 -41.05597190093949 -82.32258962579613 0.09603885342982532 -179.85003893593574
0.176956 -0.03281613471485431 -179.7126496895172 -49.350540148646296 9.184317119146462 -51.16635309712227 -97.29007300160755 0.03018193457800508 -179.44913834893796
0.184954 0.07761567994852914 -179.44627402114654 -48.3243960665498 -11.640729022358787 -49.494986035875584 -105.01897680156495 0.019020067379490756 179.97709633862152
0.192952 -0.07527543596015829 179.82081673216322 -53.325169391784506 -4.411861259374529 -48.78887133269926 0.0950063752261237 0.03093767140128221 179.90970533105767
0.20095 0.02674496161505151 179.91174196964366 -59.76492693936004 -37.16013542871282 -51.83436843798532 17.033874310668374 0.05937334630964983 179.98927070586228
0.208948 0.05378087126444481 179.86387340827892 -53.86454921518465 62.99318110860877 -50.46040748318822 64.21571254512223 0.023982187608988757 179.434386543104
0.216946 0.00595983684701124 179.99935710093624 -59.43629051512147 140.2945536680873 -63.021217860406786 166.508265457124 0.06281377266369291 -179.7764061430062
0.224944 -0.04123011324831065 -179.96788652748037 -52.83375886851172 64.15092148719114 -53.86217234933399 134.90119349384025 -0.004412877776969369 -179.89347068009627
0.232942 -0.07929887211793726 -179.79335903063048 -53.19143257287837 138.5281040776679 -58.47882835763977 161.69961184711352 -0.014252193168920551 -179.68932893123366
0.24094 -0.016366594443735775 -179.8817038393061 -58.37942169028327 -171.77801416177203 -65.13942386603618 -112.65589177806444 0.006074953741190152 -179.62528241773882
0.248938 -0.015200771057542492 179.91468903955902 -58.89572838281669 -115.63490819518466 -50.50056315939444 -122.19767121476576 0.05060862298048545 179.70403569633538
0.256936 -0.0575166542448049 -179.96313798686992 -52.653105064912424 -101.17176699919865 -61.066172823598905 -102.53877942550834 0.023953221913386093 179.99290974855586
0.264934 0.029551933841331625 -179.9362919185713 -49.92336118405486 -81.2814203516021 -58.340125267838914 -98.00385158555255 -0.03146104006886202 -179.781314658636
0.272932 -0.04541830147872669 -179.93832989642928 -51.97148703332262 100.88513119788001 -51.57594345224446 129.82278372861714 -0.08629857992342571 -179.93074165486925
0.28093 0.06677595580938667 -179.54281729247143 -57.54630286387028 65.16776097510667 -50.63976953098539 -68.7611707154762 0.023369112753163793 179.62719838452122
0.288928 -0.07408981102964954 -179.98774843547736 -48.66738426506484 -48.172110219408786 -46.236929649528506 74.5862408365611 -0.03949762602666074 -179.79520315655682
0.296926 0.05643707188273382 179.33806485170464 -47.21951339239852 -36.06745990874605 -39.680246173135075 92.9348476546788 0.00904996057015182 -179.5892652440286
0.304924 -0.059590078325608316 -179.79848936909252 -57.75566109638131 140.6946546619324 -45.13264405288776 81.21813426443565 -0.07573708307074657 179.58096546033232
0.312922 0.05406655149792988 179.14659385341585 -48.543623285309295 -32.47550676745299 -54.007576596618925 93.31450447390046 0.06658650094069293 -178.92693754312148
0.32092 0.06758490702623221 -179.979494665533 -54.413462478095425 -178.76381481096539 -40.32016473215567 119.98658272075895 -0.009355860569217873 -179.38259669539198
0.328918 -0.024626427810354623 -179.82872673237617 -49.12995919384333 32.7071306330055 -40.30252907702856 -177.14844572017353 -0.15689071256824824 -179.07096826184963
0.336916 0.03213616369011392 -178.76898691654048 -44.96678680983406 -17.923165135510597 -39.6071922318755 126.83309324809585 0.0024533699019233775 178.85182517505606
0.344914 -0.06972265480951689 179.1467237713664 -52.09201806699077 110.17938937868222 -49.847128208472846 -155.5363052073561 0.2500506070906125 178.78634211035723
0.352912 -0.05483182123215853 -178.8522306118643 -41.51043816487811 -142.4752605596221 -35.703045391190656 -124.59422409497655 0.3141714765444593 179.06044156291006
0.36091 -0.08844586412483825 179.97451829860398 -42.138385664338074 128.67310817584791 -42.86120058100362 -116.93322249983872 -0.15459128186703958 178.52058914380456
0.368908 0.549504159870921 179.17374362429067 -50.71373455709537 77.71607704990367 -34.72518332070286 -131.68460395392307 -0.04123523824921141 179.05952362955142
0.376906 0.02747902064641802 -178.05371290141656 -41.373945400812914 176.1140069936948 -48.63195541641979 113.66025248431347 0.007473635814702206 -178.78826931590496
0.384904 0.22542633776377113 179.0897483702201 -36.6999049103991 -138.35368104534356 -48.68632608454874 -51.07839106403778 -0.06044377616089703 -178.92098152535823
0.392902 -0.2751861869912524 -177.2413699731776 -43.75232532178707 -49.90824407967452 -42.326112705764785 -48.38847054321136 -0.2348431263882597 -179.98528574761676
0.4009 0.2123656916890317 178.86207446747943 -50.344649711372696 -28.372995049853028 -35.79086753138157 -88.21390045524346 0.026960248737634977 179.5585119653276
0.408898 -0.029264160869509576 -179.34259460456187 -46.200240297709456 -151.65405353849928 -37.54120498348661 42.819358762508564 -0.12552177885853305 -178.93962866885428
0.416896 0.03047464109488997 178.3612364512918 -40.70244606592033 -142.59132398379322 -58.54291245313505 -96.50306605767372 0.26425867992861296 -178.77873700055065
0.424894 0.03158400797041505 179.22989347837537 -40.89252486681939 -138.40620574438026 -43.82358100900261 -87.39042303466849 0.006514215844510614 178.9748093778188
0.432892 -0.09322618173932903 179.8032666100109 -42.65165340689876 -133.87639711319034 -40.780358002581664 71.5510609114658 -0.2223678190305828 179.550162889808
0.44089 -0.06171358581230655 -179.47430564191933 -51.576333253471624 175.65138445540126 -53.322472059032435 34.55643641026677 -0.09010149455512512 -179.31100189429415
0.448888 0.06671279061313971 -179.0311300809876 -52.58080268375653 -68.41959532409767 -53.928726999030935 117.71855016640632 -0.046565921766410605 179.703266307816
0.456886 0.08194394156885196 178.8942907357642 -48.807768125928696 95.46611714051468 -42.30264696972117 -97.32882858062288 -0.15387735929046803 -178.6111798061072
0.464884 -0.09466600646795094 179.75935728564926 -51.30513474005437 -75.07855966608004 -39.6906129300658 -52.057248371694754 0.12967901802629558 179.6614758294146
0.472882 0.23487121633406954 179.6005515705658 -43.85484251234617 65.67495559000619 -53.804345892783545 -19.960395500262305 0.05112330546699115 178.8763950219312
0.48088 -0.045037431427338015 -179.9160125711324 -50.485506772853924 46.64534554028906 -42.121673007534895 -26.463458052862574 0.09112086159638337 179.72870879126307
0.488878 -0.04280928498515361 179.4910538579291 -49.94259036959595 10.98480254990381 -46.51169449802823 4.4570841639169005 0.1558102395039075 179.82551176424207
0.496876 -0.05058635696473286 179.76498259150367 -45.9574792603788 84.86132989094315 -47.36295300445009 118.63126280130648 -0.35136559770587006 179.02562933492877
0.504874 -0.007373455687221018 -179.5783434569431 -51.59312299092747 144.36303612842136 -42.079942034623045 93.3654860160956 -0.004787356666864751 -179.5820894309348
0.512872 -0.10686090318843827 -179.4860233421079 -51.05413215856133 109.82977007314929 -44.09023842397529 -175.4691386292888 -0.19571107916612163 179.7125966666215
0.52087 -0.22018523641090465 -177.6274553099237 -44.62985783511135 115.81647506932852 -42.33689177021759 -172.40019894003584 0.24960150984361593 -179.49342108209947
0.528868 0.06694861954842696 -179.69303842491476 -46.666038002632426 107.4215369696013 -54.50187594722246 157.9436450837652 -0.1312482645275608 -178.9326620922116
0.536866 0.1647118563093787 -179.65574775578142 -45.668458381766676 123.5226280732163 -44.35119945958238 -91.48127128247712 -0.0547328414297971 -179.59913804845155
0.544864 -0.1037389096177119 178.67631930410013 -43.494255487256424 -132.53929107309682 -48.692686929882385 -89.61528559668925 -0.0010052313460398366 179.70185488235919
0.552862 -0.12758712040135534 -179.32062334427434 -54.283517837366794 -121.74802619955675 -37.81073893491572 -44.154219513367266 -0.17448497170844474 178.10440202856606
0.56086 0.14976597968497546 179.77045576151477 -42.79570701393989 -128.04082541165047 -39.502100489591044 -120.84486914085647 0.1267233731167358 178.8831229607779
0.568858 0.16361594824984685 -177.1636259138952 -40.46952807620983 -125.79966705390329 -37.21709161030228 -24.556282589360535 0.465869166881151 -179.92207524959304
0.576856 -0.16430898618678208 178.44790609990343 -36.11573422034721 -72.66828812173408 -37.74015214950624 -63.577787418852125 -0.07683611714062942 177.16804484824644
0.584854 -0.03234647224171923 179.1704857773981 -40.993234616017375 -116.09685831353106 -44.69572475344172 16.344063243610986 0.02114371500487526 -179.28755815512582
0.592852 0.24687809238156744 -179.95268960645635 -46.87864609888471 -6.196164896341778 -40.934691998474406 39.59766118322534 -0.19016929121618895 179.44140363337814
0.60085 -0.10227671011503892 179.77811107922497 -34.544776872032394 -15.771480780441435 -38.04462285281162 91.68416500346522 0.17410079643226745 -178.9905049118019
0.608848 0.1208487869842147 -179.27537364249991 -50.72445087107313 16.414616550444965 -43.24311800436955 45.13152701128599 8.85198495966671e-05 -179.23195454931886
0.616846 -0.07858260217206113 -178.88980337796502 -39.91129696271726 -11.708405018952421 -43.73963727808715 65.18088728184587 -0.18674332171611155 178.5380333195029
0.624844 0.1242114138630471 -179.21623506040666 -34.101197932459065 37.51964627166092 -42.79795165782847 56.31539794177728 -0.0045748343782118835 179.02322137883982
0.632842 -0.12159697315719468 -179.08967993464321 -37.82039020375378 51.49292162121555 -47.95530388761886 -145.76151185771766 0.05380903468930634 -179.9648973513415
0.64084 -0.08399355421340324 -179.39741931055408 -42.02813919528261 97.24193348965008 -49.579389919535316 163.86646646693296 -0.036024079877135136 179.47022100647592
0.648838 0.07776663535286393 179.4338745016812 -35.758216739732326 105.8514646988379 -45.17731067169574 -132.06678421266668 0.05835793605981351 -179.6839341074057
0.656836 -0.08664236043098546 179.89170394872096 -42.5760498241819 71.93528382762595 -37.73482963869861 178.67764250802497 -0.05566801731947287 -179.51816060211067
0.664834 -0.15061238806904434 179.90188441021036 -41.42878202778335 124.96349768623062 -42.314190774892595 -178.3222374701753 -0.007227367335462792 179.73461032836613
0.672832 0.03191797281211782 -178.78194476529538 -53.390503073679966 -163.50484132776413 -45.729105091998875 -150.31581020926228 -0.008198572019476344 -179.99187394916058
0.68083 0.05426828025744318 179.96225017885405 -50.572099035659534 -154.75769310348014 -43.69009542991041 -166.70097593752246 -0.004471346045550929 179.71198976679995
0.688828 0.0020046522175427815 -179.73743848934674 -50.150500483993916 -176.44790081432112 -43.569852839761545 -119.56736214385506 -0.06147775152628397 179.88323669294869
0.696826 0.022309314933388294 -179.88679471011454 -50.498489062779406 -131.2663707038496 -51.21780627525861 -92.98003361635767 0.02641579274115103 -179.91778833685993
0.704824 -0.010318634292219556 -179.88909862115054 -58.82476829552046 -152.28854731186763 -51.28622038956068 32.742004816350935 0.03397955739021103 179.98906120838691
0.712822 -0.021643257515565822 -179.79046311652885 -52.355536336894104 18.490349606940793 -51.19582716990355 -81.494268803536 -0.020109527694372846 -179.2169206321307
0.72082 0.035482036425971225 -179.96916084003675 -55.55977971663509 6.144457113425646 -48.52185626487331 -22.053549384146596 0.05065714779979368 179.95233519632353
0.728818 -0.038083200378911955 179.95676296510877 -49.54958232416989 25.895414874734364 -55.6275301770129 -31.484916715995617 -0.007865940745055571 179.51138380192145
0.736816 -0.054568234643848135 -179.8180843290673 -50.23009557316363 8.958907867512282 -56.787450184324804 -1.1094501853601069 -0.0808476689152551 179.69858025433152
0.744814 0.10943335132713072 -179.6776630343695 -51.789394266780576 50.89257103922134 -48.74063746213363 -21.238277346581718 -0.01857911215379755 -179.241503887759
0.752812 -0.007959348102093729 -179.97509503494337 -47.99709522889401 67.6224980853937 -45.098222542593206 -106.67537867621078 0.023629048553139145 -179.67145815726641
0.76081 0.02531941755981095 179.67107395530843 -64.45401473060544 -72.15740076344606 -53.73668162407352 152.48872747339854 0.05076867354626091 179.8154301726961
0.768808 -0.06497301564704894 -179.9160939182679 -49.56971977650048 90.4866517966854 -47.14750321864115 -42.99286393814991 0.00799305326103707 179.95488764381406
0.776806 0.00533936278739352 178.66610772552175 -47.519684736341496 -169.3594934000238 -44.99630122827299 -67.29874321257559 0.07692169764888507 -179.88100452491307
0.784804 0.13962132531977012 179.98154820364945 -45.51129314845703 -130.4121528251169 -45.05842002862477 -23.953158364382617 0.02819286515973589 -179.81497147576147
0.792802 -0.1027168583854538 -179.4410016809412 -46.68156547245971 -137.99156991527084 -47.86587292935763 -78.34706709454795 -0.09876852024877042 -178.18595724137313
0.8008 -0.16899178549510901 179.57606391666968 -50.545870383657984 -93.05720148542176 -55.76404699320751 139.81376019650608 -0.2909778902536897 179.97372500376622
0.808798 0.215232749970644 -179.64940413887442 -40.5671774969619 25.297709630007947 -53.920602595406415 22.146100031708706 0.021712343283417125 -179.3632541267087
0.816796 -0.18201966008344087 -178.66752345134526 -46.89654125188878 -130.51923978667733 -48.57569877301895 -50.7071717944846 -0.2066127318224392 179.4584676628033
0.824794 0.24538101263264345 -179.34897985031347 -44.97965358800255 -10.69036932802381 -42.020907211546884 53.187211880061994 -0.04243400118947359 179.06113588718856
0.832792 -0.07690413324410737 -179.58115290248642 -49.237880454545184 -22.94227490238579 -39.02311276466017 -38.46881636123018 0.3071610760538026 -178.19534231849622
0.84079 0.1529458016135567 178.64976982121658 -41.131181019722035 -30.52559584357109 -46.17577541092821 57.060981123154924 0.13076702740403245 177.98230893710237
0.848788 0.12874203425461267 -179.05778694144956 -42.149675311742705 144.72338881036546 -43.96379792394378 48.47812796680581 0.07767128062873238 -178.9302737516092
0.856786 -0.034755998287238674 -179.3724734232418 -48.86761793917845 33.08150865691986 -53.933485903009775 -69.92407245172073 0.14170367031572767 -179.6182594744871
0.864784 0.12135395222316915 178.7905676776801 -42.93322772500839 87.95888438618056 -39.65155540716192 -0.46529719669432884 0.2264877236970943 -179.11507588295552
0.872782 -0.015689232463955597 -179.20851093541756 -51.48499356953118 51.533915923354456 -35.35633196602123 143.88151949299868 -0.22460899011229107 -177.55610355783017
0.88078 -0.24061967807591778 179.8974151115356 -44.16386467071617 114.53685505851759 -44.66867292436263 -122.1930977029133 0.10380217717073871 179.5445404501797
0.888778 0.0758357258803351 -179.3252539464851 -45.075581580933985 89.52639091303666 -39.64021372344046 -136.23039769390837 -0.08454359017887435 179.5718959668915
0.896776 -0.10714737618526572 179.3336175411839 -44.83559051609747 93.71808963927845 -52.65360849799602 129.04814047737335 -0.021477946307050216 -179.41587319762434
0.904774 0.1462380625306547 -178.38011088998257 -50.697176069414034 -154.21649365582206 -40.85803883425692 -137.00261656254978 -0.2610633162296641 179.88018780658973
0.912772 -0.07125072538236775 -179.25453108728632 -52.28254691772846 32.131871597168704 -45.109702763405615 156.94989909347373 0.2510376931520347 178.3077765493256
0.92077 -0.5758883675677935 -178.15237084821197 -42.32358708239857 -104.97428657915827 -42.43209186314186 90.93122180586059 -0.05310266893583396 -179.45578724565482
0.928768 0.0015889044841890672 178.76104894338863 -49.1235802121235 14.131505912818948 -inf 0.0 0.07886436345749744 178.74145635815526
0.936766 0.05611720421482156 -179.99254679841502 -51.81947845735637 26.553572975597884 -48.496156272374755 -8.340171975534028 -0.06811301388414442 -179.71652753450385
0.944764 0.07514770765454738 179.65138478233445 -46.18580348125158 -127.50382925674033 -57.32774848773354 -169.82099552795583 -0.06558133164392024 179.74120847443658
0.952762 -0.13098846894780308 -178.12346899008125 -51.852899309427244 76.74373523279296 -51.917766045099334 128.55603686199223 -0.1163030056524663 178.68868394435174
