!Created with skrf (http://scikit-rf.org).
# GHz S DB R 50.0 
!freq dBS11 angS11 dBS21 angS21 dBS12 angS12 dBS22 angS22
0.001 0.9443171627848825 -118.74048713490832 -16.373036107902614 -108.06302346714668 3.040575980731698 61.21518320880906 -10.496977332743324 126.47783215345214
0.008998 20.932251902949318 -41.93147513938939 -6.436603794544952 -2.973073615418336 6.211605607753628 22.498778316879243 1.4529438627197342 126.71538018217244
0.016996 -0.09565761855955898 178.64278487454465 -21.421439884632072 29.264176273294368 -36.56606129363971 -11.554100718724968 -1.16062471555667 172.0757142917271
0.024994 0.2449331023730506 -167.7641071843522 -30.116233242242817 30.122380000596284 -30.08621669314714 66.18160330276017 -0.11516103963495729 179.00115727815634
0.032992 0.01308913105783051 -176.57433121426584 -33.17965561122989 170.94737400885705 -47.61677290749545 135.89676070000846 -0.004900846901845333 -176.45247834426334
0.04099 0.10685986979423864 -179.30499773800048 -43.99690539717588 106.51185469165549 -46.80679350639817 51.63640858066416 0.0999844164693465 -179.71294840389555
0.048988 0.12952260381137382 -178.24038482698438 -42.605007330232354 -137.7195294000285 -60.99378466376486 -87.90276657956471 0.02211267830033456 -179.29067480817076
0.056986 0.13794251741921978 -178.14170913023116 -57.13778416211309 66.98671660851934 -inf 0.0 -0.000358710695203048 -179.15130713816916
0.064984 -0.05729336915101031 -178.95776446952385 -46.9201416768351 -16.44952702899134 -49.24876665230998 -132.5949140901917 -0.15640554945379065 -179.52000699446052
0.072982 -0.08023436228917435 -179.6919634810385 -51.421435775953256 94.58615999157662 -48.94184793159981 -123.88062271020661 -0.08463665352653332 -179.4464169003751
0.08098 -0.0775354725967756 -179.08910909599848 -50.9895866782853 -44.790161067204444 -47.68846903226443 -13.585945268379758 -0.057512767515023 -179.32210491307717
0.088978 -0.09778694435302777 -179.64000185871572 -54.559089533206034 134.0483916032642 -49.52247342548853 20.416328693734208 0.035951958656772524 -179.81928772120682
0.096976 0.024021745147815642 179.77446731550566 -50.22735192459591 53.113512475427136 -45.504329660922124 69.73555830847519 -0.028835095015368885 179.2370884081869
0.104974 -0.0400364125721683 -179.87010747020452 -52.314995332936704 -43.74946961975027 -45.979820039856804 146.33664472494618 -0.006594681936132201 -179.63003665180528
0.112972 0.022327260114603578 179.34336373413385 -54.58710528923408 100.99217962415608 -45.64055123737165 113.01586693717378 -0.13132940290133832 179.50183834548594
0.12097 0.10961058618228124 -179.74234700101263 -45.015706842378584 116.15604876989896 -54.15123918976814 170.12866574573627 0.005556986895832997 179.92904012053853
0.128968 -0.04046610739634159 179.758467150965 -47.08422237793282 177.01805072236175 -48.04614216873378 -171.28739741107452 -0.05627962602202129 179.68008485435672
0.136966 0.05477648978853236 -179.63455032202825 -40.32642912995476 -169.9918376549619 -50.68769694863546 166.77578508686528 -0.05367266332562268 -179.69221927673578
0.144964 0.04184906275961437 179.92252964056146 -43.33142117035446 -149.76380144089498 -44.87245832736341 -151.87191246001862 0.04878321909999879 179.55696979180246
0.152962 -0.005109388281892744 -179.3928926489128 -43.24035421854497 169.37316968545105 -58.969273030213756 119.26519331261035 -0.011739138872597426 179.1526733679179
0.16096 -0.08992747945231566 -179.41847827391723 -48.892439319173164 156.562557429708 -47.8822339734527 -55.94091517776827 -0.06323996933660778 179.95009211887293
0.168958 0.0650534601830747 -179.82280831877765 -49.46574386810333 -120.5223551181723 -55.38485957484009 -111.38324816990634 0.09323201490364283 179.27916610618544
0.176956 0.11118621127980172 -179.745217345028 -51.11226916306577 -98.22658979497523 -52.184526253639625 -138.47191844440277 -0.023530530307797046 179.40913490719086
0.184954 -0.1187750868180152 -179.62871451235085 -57.76407084685124 117.18289805050958 -62.63978607399166 -170.44326147995386 0.07559188651754459 -179.16940790015454
0.192952 0.05673609872728491 -179.688369409942 -55.46958870675254 -53.66866445889973 -47.75636996093034 -52.86067366368729 0.04022623728602354 -179.49482336331866
0.20095 0.024625267419093544 -179.73200691539625 -52.262127947199346 -15.893309090297166 -64.74052102825777 -33.83432166549229 0.026964094506318415 -179.72569071908495
0.208948 0.06639265116017537 -179.58240347477505 -48.63108263945775 136.0764404372652 -59.91595534266238 138.18037663597195 0.019121741829604015 -178.9185837180331
0.216946 0.03859576408683869 -179.49503398836526 -54.55673943883692 60.15118176891474 -49.84883967899727 117.07357232265556 0.033601793090121776 -179.72075201527267
0.224944 0.008503080233033243 -179.43721243387512 -52.90949829542582 120.24891693396677 -60.40338993191207 176.24097441690597 0.04538190936040353 -179.77260173877903
0.232942 -0.0014999678839759535 -179.74172129911994 -52.80197838687943 174.3889155713787 -66.30494745308853 -113.83481698185007 0.004771452666839416 -179.5540179901659
0.24094 -0.03294268942423362 -179.3376170510331 -55.625717839773145 136.1902489621061 -52.86501098550744 -162.25342690795728 -0.017817095136709284 -179.38353607393725
0.248938 0.01945932055180966 -179.72534737866394 -54.68362148489767 -91.07317939282983 -53.465773998250796 -101.59927171152026 -0.015773334287357724 -179.88720371481136
0.256936 -0.06295266535264643 -179.4802854594001 -53.42213222676618 -84.92465894157927 -50.95127668069597 -64.79819992527561 -0.03914919796627104 -179.54404037409805
0.264934 -0.03207601576708099 179.95868406103088 -63.20752136739887 -137.1529360616428 -52.80458072473665 -14.688344649286963 -0.0403501014078967 179.93050866613993
0.272932 -0.0733102969134147 -179.89730847021673 -58.32983107067582 -78.06451278511179 -53.28971406399252 8.141957153283403 -0.048099245059186196 -179.80341270191443
0.28093 -0.04131369115310134 -179.5886547088212 -57.47025667339841 51.44926242681795 -44.53549098233529 -6.00061415164715 -0.029443165311983585 -179.9519138712966
0.288928 -0.18254062750530392 -179.37076115183854 -47.98199923775308 -40.00522392496514 -44.126845664685995 38.57192365956891 -0.12860929739810031 179.4387113115821
0.296926 0.00933811294924701 179.90931272055238 -49.826525624540004 118.25939531531965 -71.42415514540684 175.82948965521055 -0.1688448719583055 -179.66925993341886
0.304924 -0.013615699515327562 -179.9678787556317 -56.681266496545135 -35.22710241040171 -41.26505442639798 122.72538778363726 0.036396315008860654 179.01016056136012
0.312922 -0.040722711527478105 -179.44121214890527 -51.21656443160799 -30.435289584993384 -46.95570800128213 120.282283978816 -0.21868707445138538 -179.7318327643407
0.32092 -0.04026274484685521 -178.74781238084822 -54.97920774846919 173.7290832287936 -39.12171009703465 154.07124870493126 -0.1442081732295551 -179.44656630922432
0.328918 -0.05495805678823265 -179.56990526046062 -47.779260508268 -91.53304955691601 -47.49192291169993 -134.98523326744066 0.10524243558500884 -179.64664498598233
0.336916 -0.027818461957654642 -179.93970008111654 -38.53723862184005 -128.7330323122971 -37.01259897541628 -158.23278561275623 -0.205928604193088 -179.88151342211404
0.344914 0.23377366675740496 -179.2584252027472 -39.09654145950084 -101.40655762216285 -38.476900719125304 -110.67823624671719 -0.1167753583758509 -178.50546517249762
0.352912 0.08028263728914856 -179.39686971263166 -53.30580591823302 111.59029829941457 -45.32632595527126 -95.74067423422692 -0.17268606873548775 -178.73494120286423
0.36091 -0.20425766359652564 179.62691339931501 -45.9305842842093 -68.05370845930621 -34.40645533838027 -44.11879240225387 -0.16553535805572467 179.92939089871882
0.368908 0.18375410112113527 -179.4369574100741 -49.539024485615414 -51.01339217951799 -35.292034584717214 -7.1410749176062245 0.2744807975072943 -178.66753832710376
0.376906 0.17212140748391624 -179.55015569446675 -36.68452046253403 -24.363235257623582 -34.509692007624295 14.664441385711806 0.07917698279113466 -179.68993267106742
0.384904 -0.15446453644073094 178.47737515344835 -37.20656436589491 32.79296749812865 -34.1940968236879 -3.069022498873773 0.14359333577572386 -179.99747267933782
0.392902 -0.11578916796966211 179.97048322347064 -38.502846763166154 1.627053536772421 -37.80137105148509 22.864321771949832 0.06317231909518264 179.73279707449157
0.4009 -0.005378923274841093 -179.0906594267491 -43.238878001957495 74.7549289853258 -33.94021402433624 79.60257201257451 0.2108469790062576 -179.89825350269425
0.408898 -0.0024107900677704493 -178.4149361788945 -38.67988285962171 90.31972324876472 -40.285871149765754 83.15306870800777 0.2102039509566285 -179.5377066204561
0.416896 -0.13254289659553703 -179.34587640571183 -38.921100690150986 98.15676990040124 -36.03096641041465 164.27420194494002 -0.07502828801079528 179.89772941585034
0.424894 -0.14487211153979637 -179.90491078578052 -41.830577701548215 121.68839822551801 -41.89107419713924 165.8079643347175 -0.04373017281488263 -179.40002345381987
0.432892 -0.13003903927822166 -178.53129743480892 -37.42051558443167 161.4901487851792 -39.95983131953 148.25293008505514 -0.13031566993628735 -178.26437158361026
0.44089 0.15750141922521557 -179.20351908760185 -38.0837060623087 142.8810062987971 -36.39111390126636 -173.66475665052258 0.01314678898474065 179.54809069059968
0.448888 -0.07116583408510732 -178.5078937080077 -44.42859205783466 -152.00888563732877 -35.40796261440457 -146.51370890054807 -0.12012439000837918 -178.81832622719608
0.456886 0.025022693440082587 -179.0342276211976 -48.319255490631534 -134.65688278581422 -41.257173781893215 -135.25536111875599 0.014940487609893437 -179.63663093375217
0.464884 0.02718742536760061 -178.94419746584754 -41.19799604188637 -159.67824561368468 -39.790482541436496 -99.06575113739241 -0.2264886323676811 179.9594748406385
0.472882 -0.09960460506709158 -179.46697543935332 -41.59598583817964 -99.39688341251978 -37.552957470970654 -55.208826485725126 -0.16949997924603738 179.65174010782798
0.48088 -0.19416282306843247 -178.84642986468137 -43.44567023790563 -54.667933904151006 -38.50815680899383 -25.374957852452532 -0.06360063274929617 179.93849871031966
0.488878 -0.09385303513678028 -179.9192578334449 -44.089349334296756 -48.709464387354984 -40.51847494735163 -40.921028773694516 0.04539902089582808 179.46100344273867
0.496876 -0.1466583962326189 -179.3769084196191 -39.934316846112395 -35.91738678302717 -40.60566871121483 16.619730527144487 -0.18372838905430666 -179.5185971194267
0.504874 -0.036367383035381756 -179.1133682973586 -45.97706099181568 -12.983620358172981 -39.08215666281915 63.25433715436398 -0.08255760501084963 -179.26676709199052
0.512872 -0.05952234675043097 -179.26842746748318 -36.00475558098989 28.009929487351666 -49.37230869739687 90.39658097925944 -0.1208309383245617 -178.8673802932199
0.52087 -0.13807819357243967 -179.06497073797595 -46.04671815469711 1.4742369828215494 -38.75374698923271 114.73936907973257 -0.37467689364296225 -179.59363510955393
0.528868 0.0993458688500349 -179.82760651277812 -41.24221429890417 26.052118193162762 -39.13166649782444 98.62720240019928 -0.2575353255970569 179.72344958104904
0.536866 -0.2839056817956048 179.86762907985198 -34.457921683427244 106.63260163954051 -40.80271836565194 147.57619150275528 0.08719012409022787 179.63895357813433
0.544864 -0.13121870059451785 179.98772673965922 -45.34796207299017 72.69638257173415 -36.24625403202258 -150.6556879121354 0.17300927067805305 179.1408366387405
0.552862 -0.2382859434693303 -179.6475167374138 -34.234510692201084 164.63734727678113 -41.77822450633077 -159.0206742225776 -0.09678891363298221 -178.55123615712898
0.56086 0.09318059430277013 178.57191107122617 -43.217680919319726 118.64558045036894 -42.63433616910619 -104.23479962224609 -0.002506112679852965 178.95323601064192
0.568858 -0.02165796517528771 178.46989190733888 -37.32525164232857 168.78097618405656 -40.343573246001725 -53.31533778166347 -0.38934859902148977 179.18869950878417
0.576856 -0.2524714827694875 179.18855376122445 -35.727119005899425 -153.5281786730941 -45.2860121707935 -81.43642435455527 -0.2467164516048625 -177.53557636871983
0.584854 -0.18872759383796361 -178.94548166509898 -34.82869648712623 -101.5741359054586 -41.91798356344057 -79.170611153384 -0.1890441201202302 -178.98284489130515
0.592852 -0.06087235879507717 -179.24030739760346 -31.393055978761346 -93.48268959746046 -37.94639150575547 21.69682598631582 -0.4142558763837131 -178.91034402725208
0.60085 0.20051641397640735 179.95567249558675 -29.383572447254345 -87.95258591111518 -38.91203550485131 -0.2714427686880496 0.27964898158776297 -178.80669540869047
0.608848 0.17442279036567812 -179.39978880411886 -33.94352644459079 -39.46447812223857 -36.97459600709868 24.907393360760782 0.1358783043859679 -178.41973894015118
0.616846 -0.055986624138718744 179.7392960204291 -34.05972240698601 -26.996187616420844 -38.95563811962168 56.12077176349143 -0.14680028072931658 -179.4014946244347
0.624844 0.5151151165327473 -178.8133001943486 -35.50738893638315 22.199421764905278 -37.449487303151614 96.63922983527569 -0.08060741976817182 179.81488354378706
0.632842 0.007272967942721741 -178.59352576554224 -37.282785236782345 2.3993582698320064 -37.637450076221896 75.12685169234979 -0.08248758806131493 -179.4161360634454
0.64084 0.05687189783163253 179.40397688966002 -32.69593031642557 50.73383911134888 -40.34313726889344 113.32654388870145 0.1829228258631374 179.66993065770933
0.648838 -0.13162823308582156 -179.84125748240598 -36.94128585814528 42.170963650457495 -44.9769883279318 60.86841983738196 -0.01904917298942399 179.91187140084577
0.656836 0.04233387621527442 -179.66881620308527 -52.51093104550981 134.76235222240896 -42.46150016340664 -162.0805997475208 0.1804280573848975 -179.72838519881398
0.664834 0.015644004251937783 -179.34887614922252 -39.59307568763632 68.48379125069125 -46.059066499838636 135.94876459647577 -0.003834117311761907 -179.32016343773878
0.672832 0.03226911659877414 -179.49858407137148 -50.05374145273326 120.15254573907762 -49.98731668726671 135.51926052979076 -0.06582999794080822 -179.6148410449241
0.68083 0.05281955190068608 -179.7899794412055 -43.59989271313147 166.76529809433282 -42.52173255245232 -167.48509258753705 -0.1652870595699899 -179.7723401685246
0.688828 0.08814831971477825 -179.84424238558046 -43.73448534091732 -175.6997976494212 -47.19230904546606 -175.44041146926477 -0.028197026864182927 -179.51634058811555
0.696826 -0.03882801212061366 -179.10452039850523 -43.91919384375491 -136.35127778881628 -50.55821449990713 -103.35204982290072 -0.0425403511538088 -179.54447232338342
0.704824 0.007826040441941098 -179.20700625644957 -61.38401863072073 -94.39350523388036 -44.933338320939875 -108.39543518483887 -0.03743629502049387 179.96610511748182
0.712822 -0.03275207817332172 179.96840101265283 -54.26324060951374 -101.86883685501519 -54.135910084806405 -61.14386922346544 -0.01501214482186708 -179.68967366641817
0.72082 -0.020351546496027145 -179.69644234958002 -50.805097646194895 -31.122913905957944 -54.88241087364682 -31.52149753559232 -0.010821715506765868 -179.22779984778353
0.728818 -0.02645042184232592 -179.84437126866612 -51.27778721694991 7.473217798549453 -50.41590113953848 -29.116208916582835 0.03549587535026636 -179.69905938445558
0.736816 0.02069839189872606 -179.79249529887053 -53.05480181116101 40.32282505081023 -57.22347548882037 -35.40244412344203 -0.1449251228969971 -179.82280652133807
0.744814 -0.09575424526272203 179.94302314788237 -44.59715812616518 30.08399922729743 -58.662312712022164 -39.81107725957398 0.08218776312542367 -179.68834439257776
0.752812 -0.09665604058368028 -179.8905791341337 -56.500562299561146 30.25084400229469 -46.95341424135107 81.60486802598838 -0.02928502194984511 -179.32622396788003
0.76081 -0.05094271766358399 -179.97676128601734 -53.416687665605295 112.12481737044607 -50.54152760808936 -143.72674373144991 -0.12880395786881288 -179.4463262609527
0.768808 0.0330720448180912 179.6066909020924 -46.65987367970958 119.82486927411506 -47.84896807646237 -118.39546498960787 -0.1362394292443323 -179.60849715461535
0.776806 0.13614754906945079 -178.97971109688882 -45.21639615619648 152.42846355419627 -51.44022748319956 -76.67847943646564 0.06307132327245396 -179.7213847895242
0.784804 -0.015781752216945267 179.65699934885262 -70.63361909163056 78.42443980888798 -56.14687208669995 -136.6426518919749 0.1463872853414106 -179.41653688068573
0.792802 0.0986418599025443 179.8192797103228 -42.139784090895276 -139.47114969292846 -44.856815840937365 -33.82582475039708 -0.3704195675778748 179.69512676261627
0.8008 -0.032615255330720495 179.5271204441829 -46.17353271836312 -107.05974547447255 -44.65381481585957 -12.23442369117031 -0.002054650584415305 179.77645629297731
0.808798 0.1402861506336579 -179.61205227875422 -46.600284588321735 -145.61740234221185 -41.812663195927435 -67.74368273352897 -0.11019613564596364 178.10739797725674
0.816796 0.13366295313326543 179.77150622800852 -45.165331681016205 -94.51654592733969 -39.859622873907874 -56.14911763265788 0.09469850578146748 -179.97371331086234
0.824794 0.0737502509382436 178.30825026154469 -45.49314889592771 -99.96070094219569 -45.200093072759856 -20.070836967908413 0.1322339855312054 179.71615619208617
0.832792 0.062586080958022 -178.14891084044274 -49.267808942158304 -94.19553574985667 -37.55173270685623 61.15197130301813 0.11057734745710639 179.98965807982944
0.84079 0.04006247423591859 -178.3595291126326 -43.82278299804596 -72.05485175329392 -37.8505519658225 89.68750149256947 -0.1783930956766489 179.69845523208255
0.848788 0.016981998781779136 -179.75073169367434 -39.01670817875446 34.36193169964433 -37.037188025569144 -69.5666326155787 0.23803462679405502 178.56666836428138
0.856786 0.08084493349951226 -178.65523226784697 -46.465751474112515 87.06191060294707 -37.77690358029552 68.36552154391548 -0.2393031741505378 -179.3354779542072
0.864784 -0.08433206007874702 -178.93868817654075 -62.53852177396802 97.17898857343812 -45.62866474878737 -38.84707757993384 -0.12056624214019417 -179.45665923870263
0.872782 0.05250046482175728 -179.57157404053336 -42.993693180305314 16.566263272676608 -44.51659902171441 -155.011940134622 0.11524459503367425 -179.41646842701834
0.88078 -0.2612160248885714 -179.36211808375432 -45.561031114488785 47.87746293496109 -41.313459816371314 141.5092446759714 0.05372778088205799 -177.73965893252097
0.888778 0.04821050749028762 -178.75189342376007 -42.26258189665961 103.20403394240817 -42.07511711915605 -64.97415668326524 0.04563521989681725 -179.81924051779305
0.896776 -0.1383786627457843 -178.40785759353935 -47.452011730766735 164.27812147447037 -53.06575545844776 27.135242348235035 0.10871240027487566 -179.62201856167712
0.904774 0.15836572984702357 179.15120224517682 -46.417141047718715 162.1159797982986 -52.22350928548422 -18.916748970857647 0.03613747970743972 179.93727546573456
0.912772 0.14988887762438474 -179.05823806956928 -52.65199111653452 -119.38805940330582 -36.79953167942927 -161.41823966119242 0.23484618392065118 178.80485506277185
0.92077 -0.05815636111782049 -179.65621673889126 -46.043218578000946 -154.7975335769106 -41.20884200163796 146.32775392227512 -0.03324412884623728 -178.35128265186785
0.928768 0.00021878824173856778 -178.81501535773026 -46.575366555728266 -142.38438982716158 -54.189895718500225 -74.90499945161562 -0.1691297009488452 178.63625173599723
0.936766 -0.07494379544530011 -179.89779917632544 -45.65934878402463 151.53461053095862 -44.60729583041298 167.81961417970953 -0.03554917642523028 178.68821975127156
0.944764 -0.07250867803446136 -179.6811172332071 -45.343517374668075 -61.625006305418346 -39.59699390237431 -120.81341786010536 -0.18954219582091525 179.56038480871683
0.952762 -0.002392042827103905 179.74997315308994 -51.34068977402723 -112.03155746432523 -43.16045150293724 -96.16252413629422 -0.177919602920731 179.9915495826883
