!Created with skrf (http://scikit-rf.org).
# GHz S DB R 50.0 
!freq dBS11 angS11 dBS21 angS21 dBS12 angS12 dBS22 angS22
0.001 -70.64346479310576 -127.26589888967075 -inf 0.0 -89.27160854844131 -85.76314669898848 -inf 0.0
0.138896551 -63.819047349253225 -128.67729704960834 -inf 0.0 -95.2517827864051 17.106362643547318 -inf 0.0
0.276793103 -48.78789542540626 30.524389906303693 -inf 0.0 -89.32699857766093 131.98628390712412 -inf 0.0
0.414689655 -56.043091914609036 40.65631552544428 -inf 0.0 -95.543163233808 -98.74810515097471 -inf 0.0
0.552586206 -60.39668920032115 -149.4805577922937 -inf 0.0 -96.30961100914305 138.35718875162254 -inf 0.0
0.690482758 -48.312593086509715 143.70231099977352 -inf 0.0 -93.20879288139012 -125.53767779197437 -inf 0.0
0.82837931 -64.79003543842052 42.76630956278215 -inf 0.0 -96.34233141168264 -90.0 -inf 0.0
0.966275862 -53.31215626346943 -123.31612916585763 -inf 0.0 -95.61931852440645 -85.61315794378858 -inf 0.0
1.104172413 -55.49241866086639 -124.06274971335317 -inf 0.0 -92.96927810924073 47.298128046205484 -inf 0.0
1.242068965 -61.23532859327113 76.10627117633182 -inf 0.0 -96.3064489905139 131.6242707995033 -inf 0.0
1.379965517 -53.858499340006524 75.08475876623052 -inf 0.0 -90.01964274529335 139.89473490465983 -inf 0.0
1.517862068 -65.86690753309605 -5.298696414233357 -inf 0.0 -100.67750621198714 105.89468046427805 -inf 0.0
1.65575862 -56.13083072599389 -171.90926326583553 -inf 0.0 -90.28953832286652 85.23519924995101 -inf 0.0
1.793655172 -59.870292116651704 -126.55447649471014 -inf 0.0 -92.76607807386515 -83.67620658779035 -inf 0.0
1.931551724 -66.10506108788127 -50.306908918524236 -inf 0.0 -90.05619377552107 -104.03953879083727 -inf 0.0
2.069448275 -70.61895522548296 76.02352677902661 -inf 0.0 -89.9651516181573 -143.1274132951861 -inf 0.0
2.207344827 -57.912128808733804 34.420266948483956 -inf 0.0 -94.53948220599513 61.70386995960964 -inf 0.0
2.345241379 -64.58120141823552 -4.814764938613441 -inf 0.0 -84.80011611279018 -67.96164459034706 -inf 0.0
2.483137931 -57.845318602874116 -168.27811258711446 -inf 0.0 -90.68231609668373 177.51679001825093 -inf 0.0
2.621034482 -55.55342699542517 66.6353173111501 -inf 0.0 -93.546249755136 25.011986547138434 -inf 0.0
2.758931034 -57.164281748990284 74.37206039862737 -inf 0.0 -86.44637907599252 -43.915726763758414 -inf 0.0
2.896827586 -47.03898165227276 -45.86782109292659 -inf 0.0 -84.65009868170058 139.39712360363595 -inf 0.0
3.034724137 -45.77196725117736 -85.0437789484793 -inf 0.0 -85.97921995304554 -73.85501684598022 -inf 0.0
3.172620689 -44.13986977730852 159.50021276635925 -inf 0.0 -87.04282381865367 36.86413522209668 -inf 0.0
3.310517241 -43.34983897828095 56.68095401667974 -inf 0.0 -83.59718008825324 -92.20309464823285 -inf 0.0
3.448413793 -42.50687238530296 -56.80555295728133 -inf 0.0 -79.35836219288026 107.1534507273197 -inf 0.0
3.586310344 -41.03938242544784 -172.50671084271877 -inf 0.0 -80.89489083876614 -35.25602559602895 -inf 0.0
3.724206896 -41.66490243538141 99.76951511637517 -inf 0.0 -75.73229707251869 -135.6297609519381 -inf 0.0
3.862103448 -43.17326917684593 -11.517662086924704 -inf 0.0 -77.71571330460777 99.5545780444619 -inf 0.0
4.0 -44.354695895899134 -92.3914863503764 -inf 0.0 -78.907685938661 -15.595846548729616 -inf 0.0
