!Created with skrf (http://scikit-rf.org).
# GHz S DB R 50.0 
!freq dBS11 angS11 dBS21 angS21 dBS12 angS12 dBS22 angS22
0.001 -71.21521247499346 -117.5115149127865 -inf 0.0 -86.33935874488625 -108.43774961382329 -inf 0.0
0.138896551 -63.49559940291616 -127.98052743096724 -inf 0.0 -100.9350661478213 98.15699546624491 -inf 0.0
0.276793103 -49.15256762299974 29.50674161948771 -inf 0.0 -90.40226247729878 165.3773414852683 -inf 0.0
0.414689655 -56.033075396386245 40.236326555341414 -inf 0.0 -100.76559419020619 -146.34872446505503 -inf 0.0
0.552586206 -60.99076754533557 -148.50483957118735 -inf 0.0 -96.18865055954906 144.99670465605928 -inf 0.0
0.690482758 -48.26358585057882 141.23426985821692 -inf 0.0 -89.31913802137059 -121.33193774815436 -inf 0.0
0.82837931 -64.63483316866113 45.78954795822096 -inf 0.0 -92.96716128771922 -42.688988919810775 -inf 0.0
0.966275862 -53.740438384300184 -125.2414429819567 -inf 0.0 -93.06649373216088 59.03953879083727 -inf 0.0
1.104172413 -55.227022684513926 -124.06301633803893 -inf 0.0 -95.34647149812712 47.986790393240675 -inf 0.0
1.242068965 -63.6319969519009 71.67025468136154 -inf 0.0 -92.80405204871667 -56.30476184146381 -inf 0.0
1.379965517 -53.68303857213811 75.57150949431373 -inf 0.0 -93.8256499639549 -93.56717793343813 -inf 0.0
1.517862068 -64.0962443162064 -6.661797618020916 -inf 0.0 -89.88115542141072 146.30623930788423 -inf 0.0
1.65575862 -56.51547176662227 -173.75140435875954 -inf 0.0 -87.88101857877959 24.147206035804214 -inf 0.0
1.793655172 -59.48889391779108 -130.92129776673087 -inf 0.0 -96.55654971177582 -160.01198654713843 -inf 0.0
1.931551724 -66.28226676062273 -51.26969783037248 -inf 0.0 -94.23151091119153 -78.69868602463818 -inf 0.0
2.069448275 -71.95165529538636 57.10961381940685 -inf 0.0 -87.33674788352589 -161.02783062660302 -inf 0.0
2.207344827 -58.76096843393995 30.801507115960476 -inf 0.0 -103.95352450207774 -126.88335683740128 -inf 0.0
2.345241379 -63.88536457886397 2.276786365698275 -inf 0.0 -96.31242259503873 -4.752048048732835 -inf 0.0
2.483137931 -58.404424913481805 -165.74352908046154 -inf 0.0 -87.84533322112549 -147.80591679331712 -inf 0.0
2.621034482 -55.44077106696088 68.11867666714498 -inf 0.0 -97.92170999197951 180.0 -inf 0.0
2.758931034 -56.912856999583624 84.38077441365874 -inf 0.0 -84.54661954507087 -59.03871481797296 -inf 0.0
2.896827586 -46.944819780637715 -42.56108788458472 -inf 0.0 -82.9257296691351 128.50107907087354 -inf 0.0
3.034724137 -45.492296896260626 -81.3391859366886 -inf 0.0 -86.9477014313452 -42.70885301749276 -inf 0.0
3.172620689 -44.15018261522425 164.2302400627933 -inf 0.0 -85.57583194170512 98.32741215112765 -inf 0.0
3.310517241 -42.984495488255604 60.68526179585564 -inf 0.0 -82.35555857080692 -91.90952547546654 -inf 0.0
3.448413793 -42.32087863072158 -52.29922895966767 -inf 0.0 -79.2430103627679 102.09339074469221 -inf 0.0
3.586310344 -41.29139595122395 -168.1800686915108 -inf 0.0 -80.91918325481844 -13.053304335377101 -inf 0.0
3.724206896 -41.2748387487644 104.30603831511029 -inf 0.0 -74.78386673307239 -134.7185237499087 -inf 0.0
3.862103448 -43.34268594120749 -5.805301131321972 -inf 0.0 -74.68582617310355 99.91718002555925 -inf 0.0
4.0 -44.367611553563 -89.6871794779089 -inf 0.0 -78.00733512697747 -16.42229029719772 -inf 0.0
