!Created with skrf (http://scikit-rf.org).
# GHz S DB R 50.0 
!freq dBS11 angS11 dBS21 angS21 dBS12 angS12 dBS22 angS22
0.001 -70.33265142236556 -119.77463114638368 -inf 0.0 -93.57602095163753 -104.03624346792648 -inf 0.0
0.138896551 -63.63112565098255 -128.97040221463917 -inf 0.0 -94.99914927841475 0.0 -inf 0.0
0.276793103 -49.118369040961696 29.355474720960657 -inf 0.0 -89.85991025214064 108.43494882292202 -inf 0.0
0.414689655 -55.8972097226588 39.31197442266907 -inf 0.0 -97.39250341339599 -131.17402758408903 -inf 0.0
0.552586206 -60.955145802292606 -149.21749965808726 -inf 0.0 -102.36717974257596 -90.0 -inf 0.0
0.690482758 -48.26447366898405 141.42255890189787 -inf 0.0 -92.33589081940536 -86.9779281136849 -inf 0.0
0.82837931 -64.17834850660476 46.66544661098027 -inf 0.0 -103.76805666771276 11.271175470114338 -inf 0.0
0.966275862 -53.681433988402524 -125.78716815965132 -inf 0.0 -104.9114100353397 -26.56505117707799 -inf 0.0
1.104172413 -55.3079543183431 -124.47801022240638 -inf 0.0 -94.87071862213978 39.2877427871178 -inf 0.0
1.242068965 -63.42288865475345 73.47648458700486 -inf 0.0 -96.19104388457005 -124.9807419459755 -inf 0.0
1.379965517 -53.69095295394657 76.0662135702895 -inf 0.0 -91.90111007869989 -90.0 -inf 0.0
1.517862068 -64.23761792264222 -7.727711743280413 -inf 0.0 -100.2918226817591 -156.81300312834517 -inf 0.0
1.65575862 -56.44804634441867 -173.7023394848422 -inf 0.0 -88.55346319044781 35.3131563280527 -inf 0.0
1.793655172 -59.602242663845985 -131.11419078044463 -inf 0.0 -87.73675465926131 -68.20438577116515 -inf 0.0
1.931551724 -66.29295296823736 -54.60201028497996 -inf 0.0 -94.23151091119153 -11.301313975361829 -inf 0.0
2.069448275 -71.66913702146643 58.94113262302098 -inf 0.0 -91.3703256438657 -131.18592516570965 -inf 0.0
2.207344827 -58.59219158570954 32.0251615760776 -inf 0.0 -92.49571831621799 74.46240515079613 -inf 0.0
2.345241379 -64.04714432483507 1.1599092554275348 -inf 0.0 -96.07429602104443 -14.049420969882055 -inf 0.0
2.483137931 -58.353403949666344 -165.89069182707505 -inf 0.0 -87.12782828377976 -133.82722256052992 -inf 0.0
2.621034482 -55.62316348939507 67.96185480480446 -inf 0.0 -105.6277108473759 -14.095617311453928 -inf 0.0
2.758931034 -56.86923960112776 83.592414171695 -inf 0.0 -87.99027032481601 -30.64964412338883 -inf 0.0
2.896827586 -46.93456837835765 -42.58685766561154 -inf 0.0 -84.22426401810822 128.2835668226761 -inf 0.0
3.034724137 -45.54585758722092 -81.56388553470481 -inf 0.0 -86.26481175608164 -33.27603509341796 -inf 0.0
3.172620689 -44.14021786838329 164.0417216011255 -inf 0.0 -88.38098318474351 90.0 -inf 0.0
3.310517241 -42.94535288625771 60.56045423724285 -inf 0.0 -81.54278228434023 -99.60481745248865 -inf 0.0
3.448413793 -42.30615520892126 -52.422185782346794 -inf 0.0 -78.25933702242287 110.69261828224819 -inf 0.0
3.586310344 -41.279443374982264 -168.25683495363447 -inf 0.0 -79.83700011922569 -22.728792154284726 -inf 0.0
3.724206896 -41.295847513352 104.4111534344718 -inf 0.0 -75.82771864097589 -134.36141489977857 -inf 0.0
3.862103448 -43.34638932470096 -6.087347570871453 -inf 0.0 -77.23437273119112 101.72459578891419 -inf 0.0
4.0 -44.35676932642805 -89.84378543999505 -inf 0.0 -76.8373908407565 -15.878171274018317 -inf 0.0
