!Created with skrf (http://scikit-rf.org).
# GHz S DB R 50.0 
!freq dBS11 angS11 dBS21 angS21 dBS12 angS12 dBS22 angS22
0.001 6.555491520194705 -53.90892465697254 -15.78601793205523 -35.601761800063784 7.623367786667856 55.4815087856626 -12.525199094684794 -142.41191588026652
0.008998 -14.71777544864381 -153.5448648044864 1.6807919942048046 8.404097131979466 2.62317646290229 9.524359086334679 -5.921218713981476 -137.01239207063205
0.016996 -12.103121764732101 -139.70953151757095 1.5604018274914555 6.105370190370683 0.9675326206159252 6.210660243304285 -19.699530749147492 -117.43801212198241
0.024994 -20.209621183886142 -132.274210308547 0.33688850500217915 2.8176047443358216 0.4626978910480747 2.7776115793499425 -36.21664386488063 -93.12507073604537
0.032992 -29.5091666648058 -171.530630591533 -0.11038795709222193 0.6290710609321942 -0.05479867884748995 0.9724520293603982 -28.49686473857044 -30.28751976373843
0.04099 -35.637549980260836 -168.8036510492009 -0.00387277238096277 0.3263297110053246 0.03787389931790091 1.0509171723271524 -33.76554846113453 -58.90610253253678
0.048988 -45.18933633702294 12.604632237772272 0.037650968477617126 0.4475160382415632 0.0896860079533264 0.602026704327414 -62.31685531186393 -20.515182122634926
0.056986 -37.63575414296459 88.02818963565005 -0.03197482250168568 0.9150795585296491 -0.0374200491296013 1.2414817673628717 -41.0470946485014 50.16834642816694
0.064984 -36.34742573643423 -52.774589648321964 0.025661578434977406 0.7556399432747283 0.03588105082814736 0.11345095253693842 -40.499624680608335 51.95320341899169
0.072982 -40.80024254110816 -21.495331180595738 0.017584095630370594 0.6435973848731361 0.032075651546793385 0.37128472142071023 -35.53084557630136 18.659995986492476
0.08098 -35.61359048453758 93.24172835308133 0.03297663613735068 0.7623955557092089 0.002223026032655409 0.5960510110325907 -31.81444753339931 54.25552330563105
0.088978 -33.15092758061763 3.780584474666924 -0.021511129779742785 0.3604422768324619 -0.040946211102186686 1.093370242350785 -36.25213515870061 5.9282200033769845
0.096976 -36.95750749107067 72.3557951003031 -0.03967055613228855 0.20042994525864175 0.012417561106819703 0.7544357445677418 -32.27828635235194 144.22204704741088
0.104974 -47.672649599440916 156.12708899532305 -0.012119964374039708 0.267986621878823 -0.0488980762302084 0.37553231647973884 -39.978695652363776 2.745675995205609
0.112972 -45.24592644611868 96.49440427607864 -0.018944969579838183 0.05739603335375258 -0.03811244893157128 0.5714485487462986 -36.34177260773267 66.63578125624352
0.12097 -38.94064150335387 -99.82816006938106 -0.001899157895271931 0.37335696416070235 -0.021629745514936453 0.37459228636707054 -42.644336038265166 23.45967407818405
0.128968 -34.9341126378301 85.91136968692784 -0.03709058201967596 0.06988407438043283 -0.05064322949277413 0.5573003326196623 -43.324236520463806 35.786540883484264
0.136966 -33.826073841769926 169.63740404679507 -0.027382463220725274 0.08176481277812425 -0.0033808914608350923 -0.06743326567935473 -43.99345244848007 12.355368156974329
0.144964 -40.79051021796467 30.882771154143263 0.0239854707006428 0.3167871262563727 0.034583150972173356 0.9139965111656769 -33.67517733771407 -149.8306505831105
0.152962 -42.147156116687285 -138.78687920508432 0.05640035681583706 0.22531414446023232 0.043526251662540205 0.5964214031230494 -36.92769541452495 -174.9187384890109
0.16096 -33.53377930086068 117.4242398797479 -0.13103146433893445 -0.38577866449574394 -0.052894747423862624 -0.20881017906823204 -36.22492432675648 133.6275886998258
0.168958 -53.99135636226808 11.728121329289484 -0.03396547801970617 -0.07129322905497926 0.05279138603033204 0.06449994789500624 -35.45554538963454 -137.26796627247
0.176956 -45.53674934923418 127.2511509185393 -0.014703487701655546 -0.014189409696076544 -0.049540540769062835 -0.11198712569082589 -43.28627081524659 151.3384232615547
0.184954 -41.07200202776525 154.88318607000483 -0.05457424732483448 -0.15927569087259275 0.031576219928548886 -0.29442966080175664 -31.799546716239266 -136.0388487629087
0.192952 -41.279630803183835 -99.47073850378659 -0.01614630518209006 0.1235144349336299 -0.026729782025679848 -0.15196650678350265 -34.255184821611095 165.52336758782806
0.20095 -35.62582106088048 -159.18447290276882 -0.06879883331230942 0.18745953876992558 -0.08026134741950239 0.31814787127964916 -35.84416847778532 129.84118448734552
0.208948 -35.84926334256784 -126.9388446897254 -0.003376024016123984 0.02195990786362758 0.022666908891057876 -0.15688425296339983 -53.15002068919124 -156.4921575592653
0.216946 -31.89091843933962 -123.11244803196534 -0.02745690922148634 -0.5530852236086763 0.012746410218620564 -0.922531901562235 -32.72024748495515 -95.18737991047684
0.224944 -42.022806253798606 -64.23749294192342 0.03832622645971341 -0.059928728319027416 0.03664903680597576 -0.4225311387316988 -38.071400672731784 -80.02332176769745
0.232942 -35.534493217541666 -125.67940085859223 -0.05291694738471546 -0.5100434757282098 -0.007642821529591841 -0.15941777952091113 -37.966079654150704 -87.41931886523834
0.24094 -41.3984434730676 -122.8661195329834 -0.04064778952887795 -0.20495394273038037 -0.01928116605165161 0.20169678787608616 -38.66506861605247 -161.49696930147957
0.248938 -39.1131238252611 -76.68704265360252 -0.007385889028248784 -0.3898093158343097 -0.038849199685949326 -0.01821941747913878 -43.22869849186538 -88.89504953763259
0.256936 -31.935374352129354 -49.82237507273108 0.025442470086768067 -0.7507213309066609 -0.00872387770272285 -0.29401825370949114 -40.54405521772135 -91.4992284227195
0.264934 -40.335608468114614 -106.59150318193406 -0.037654942345027635 0.21982984122717156 -0.054527045340849 -0.2664351178243431 -48.72553537099827 -38.56006047979123
0.272932 -49.57891859764217 122.11416894814226 0.0195483643563267 0.13592556599383535 0.020400753795893036 0.021447942842934744 -35.05899722571736 -14.615127063846494
0.28093 -36.77990002798268 -148.97599175743414 -0.07127091491027612 0.02842236952102077 -0.03987395823800963 0.20766461468725425 -38.201416027622095 -7.970169381339309
0.288928 -35.739208891808694 -45.76440369936123 -2.432825082116866e-05 -0.6065199067562873 0.017741583118819786 -0.12928764644255186 -33.049031580590515 -38.90085067747942
0.296926 -34.015821151287284 -38.3303690774702 -0.04655748095781545 -0.8290262331821525 0.03584804300548716 -0.5560706341448958 -33.78780551966347 2.5760269430500853
0.304924 -33.99030798260882 45.085887321852624 0.06324417800888547 -0.5895673155458391 0.06569432346795359 -0.2581673414057652 -34.889105037868184 -13.40466968417107
0.312922 -35.35058470852926 48.99609522421043 0.04412666309956386 0.06654123069610726 0.03042051728694879 0.80245495139028 -45.16553226526537 -34.95805566398988
0.32092 -35.270346650146216 31.802115643460986 0.04385473405589307 -0.6821790627091615 0.04037883801558374 0.24491786401543916 -37.13803313596056 45.71355971049927
0.328918 -37.746860425572436 34.341587891341895 -0.10486401667393494 -0.30912999550323134 -0.02846545409512959 -0.09681968563150185 -34.872921268266836 5.408665212824876
0.336916 -34.0416092527135 36.60361271831553 -0.0483797109379623 0.031588263924325885 0.032927076216133506 0.38213115055695596 -43.969972945261084 -47.94137007870742
0.344914 -41.56459024644847 -78.8876803884106 0.034961248421915725 0.5202098967434635 0.03339990191398748 0.6277737415077841 -32.47491868025645 142.64783082837482
0.352912 -38.99006913135093 -99.13766162104451 -0.006523333305173472 0.5985146011339956 -0.0050836667764703955 0.043289981957757816 -35.926913345116546 2.3241620730485626
0.36091 -32.5745394089393 -48.05575138995607 -0.0746062685089137 0.4034718151172576 -0.043306387115143626 0.3846393932097024 -38.06698336789449 58.920695962510486
0.368908 -37.19672917034468 12.788412917010518 -0.06656057755025319 0.015426664039966693 -0.047658267287716764 -0.06371180550885273 -40.90994500565456 42.312323543691306
0.376906 -36.09448599433672 -100.51604155060353 -0.019408718195152122 0.673645847626335 0.03653280997695025 1.2197499733620991 -38.85429740094842 -155.6047408367305
0.384904 -36.45212236484326 85.60574961419425 -0.018835816811744996 -0.42110484038781537 0.009887303413648263 0.06002691093022649 -32.37662100349416 103.91879433312057
0.392902 -32.84726879112805 10.75666267966229 -0.06912655012788858 -0.3940090630308227 0.03384873037829873 -0.14369442169802893 -32.58911743752289 131.05745718749614
0.4009 -32.592261225839835 175.23407732359505 0.02946913842038512 -0.017130868898667106 0.04106274613295187 0.18028999056752817 -49.72930037835641 157.75226123787343
0.408898 -37.96997886698277 -120.40500175969184 0.07782370706180117 0.8105741996940071 -0.03780109810191352 0.7517160127093485 -40.21213014090334 -95.90817709303646
0.416896 -39.35034847438785 -145.33698999822215 0.001017037564367746 0.5897431228230023 0.006553396574193177 0.022174181543642053 -35.45889557278599 179.97833668598332
0.424894 -35.38898405703879 -173.56514001431742 0.044783563754825444 0.4861371574232587 0.012810848227355322 0.11226408869405054 -32.5339233478368 -51.32104719804974
0.432892 -39.40451239308868 -2.268528848336448 0.024380679574725405 -0.09451805499548005 -0.047083416726719465 0.38631651266659023 -34.18579261321136 -91.9846722504992
0.44089 -36.25580799271323 143.73329438091477 -0.004253319523315748 0.5984039717773885 0.04122752846985062 0.19770056003393421 -28.423440820220804 -82.20060921124198
0.448888 -42.20423869705536 58.26751491925706 -0.0005349402128794876 -0.12469469910134898 -0.010174910477482766 0.6048338505348695 -37.80068449636413 -170.24034036523162
0.456886 -41.438603121033395 -75.32370467859072 0.016679260438443665 0.23463897988398305 -0.01740360036336304 0.3364516062621866 -35.99343649040073 -161.42619615802664
0.464884 -32.135106718492494 173.090323534528 -0.006931300579250138 -0.20156293104984083 -0.03538676619646781 0.2971838869719781 -28.737642077913282 -87.35574934197697
0.472882 -46.978940322515385 24.50573914339723 -0.05421009042295039 0.7248550954232582 -0.04157673928582578 0.5599263644924659 -32.34594860865055 166.61518593152164
0.48088 -34.29769690547242 -77.7797514036305 0.026716841811366188 0.5256394153500719 -0.07841070883544918 -0.030058785942015866 -30.001923531391185 -103.08264900169125
0.488878 -34.659498193954995 -126.71631772434154 -0.01652629435399914 0.365925425997221 -0.007695239533649667 0.039226351868421716 -40.251241325126735 144.40052323212242
0.496876 -37.01383210508895 -46.104745572926625 0.06066932233692093 0.20164354039988705 0.019159923417678845 0.3870889836323587 -37.59309678685139 135.51978637727078
0.504874 -34.26882349389292 40.06650445779954 -0.00907171240946858 0.41396604021957933 -0.02569248999142225 0.5571414130579783 -35.97503771653682 -118.60874913001074
0.512872 -36.730977967532105 -168.79760171284434 0.008911384425691248 0.6320490257968089 -0.027792150925956795 0.6044861147863948 -43.07359556535672 -46.71022080439749
0.52087 -36.53193127295444 -18.0449659764552 0.05624060634341926 -0.008185870839464416 -0.004251824028874945 -0.24541207107129692 -34.70437724457392 17.31331321871625
0.528868 -37.36926318729041 53.8651306874083 -0.037771631022185156 0.08172175961293557 -0.04734104993090103 -0.0016107375185347404 -33.067966163320676 -24.15298325383624
0.536866 -33.94050296850207 80.55317555815108 -0.009955662091724701 -0.09691057404321839 0.008946554912970455 0.21228961949131794 -35.746783071211574 -101.14531919486386
0.544864 -39.936582571777 -97.82758416884747 -0.031612763553405934 0.35030618766923677 0.09699733486989602 0.4433190729554369 -34.55524716279654 97.8681011247011
0.552862 -30.496464522084924 93.18885091723315 0.12741805796050298 0.13739935426836727 -0.022550571566636056 0.23189244388749694 -36.07281851741645 172.68253098683874
0.56086 -52.14240390875392 37.7551995513815 0.006796697721499072 -0.11862987625802172 0.05249143910008699 0.4114316083596052 -32.8945690093856 119.40039704624081
0.568858 -46.37045210066718 19.298087936263222 0.03393273584594203 0.44667874501185034 0.03404952730611238 -0.0814236344597648 -39.929594572872766 77.96433123457238
0.576856 -39.31341710315258 -81.48073877310239 0.03524755632644223 0.3527572006385153 0.059439298992215506 -0.1259245169884065 -33.535609221770464 98.09133239939821
0.584854 -37.990572796598194 155.90639197006502 0.07984911709928601 0.6023511369864771 0.06154776747923449 0.3194833467267823 -33.157427758744745 -121.99378042760118
0.592852 -32.45371144556533 -165.12373963096732 -0.0036621421498388923 -0.08547331140030191 0.056816318697705204 0.23463505737315055 -33.33493381807052 94.58823199240676
0.60085 -38.30161371040658 147.587402686292 0.09725941317235094 0.1654799677778447 0.10641339355206789 0.31220618834785224 -28.16442375586024 -163.67393855214743
0.608848 -36.678234942089944 76.9255501854231 -0.07582871170250884 -0.008339257922438842 -0.03260205146561568 -0.21805919492535059 -39.2654821578832 33.81220646204759
0.616846 -34.81636395666139 -175.1719646746581 0.08444885925267437 0.38079929220932196 -0.02200283251291783 0.6079687435389578 -35.513041375668564 -93.46860841971842
0.624844 -39.77487687272947 -166.7051563260607 0.030016387537611773 0.8942588978698578 0.002033881980838848 0.035207066414887 -44.814884789380855 4.303075799802954
0.632842 -35.91008004825797 -104.58547940609974 0.04987955390264187 0.26791218214277307 0.005237546806233052 0.46254802230158704 -32.56342875652437 156.33420048044115
0.64084 -37.67434498257191 148.06450795087156 0.04876221948783257 -0.24887392122738428 0.014463763635581084 -0.5076850277471866 -40.16684215112802 -164.1414846520383
0.648838 -48.508741126830785 168.86994013395062 -0.07141266941085313 0.5725947313163205 -0.07584738881713181 0.42402536543106306 -34.41035781779222 72.99783838136929
0.656836 -36.466655073378305 -42.780284651870446 -0.03085010856777065 0.15158446907006926 0.05297482052813939 0.04454819397429151 -33.49766154104538 163.90750115301856
0.664834 -36.29623960080837 158.86075400906887 0.022453750750136676 0.10625923540830508 -0.0375352852939191 -0.5323717472792836 -38.20070921633055 108.5225284160646
0.672832 -43.124798752362736 -107.01735427444034 -0.13200329517940523 0.2068696511596021 -0.013101344310801833 0.7108552158727719 -33.208291986287776 68.77653699010213
0.68083 -36.75317503665367 -157.299700657761 0.0033329381277937735 0.17257716342719975 0.0011250975042648755 -0.11981520059389784 -42.19680149190644 -87.02445615045437
0.688828 -39.62227574099661 157.80033537843252 0.022463056275274743 0.06893503763052039 0.01607832594847484 0.04881722631055175 -33.09560366011934 -100.99936943615339
0.696826 -48.483777716163566 -47.680886429571565 0.03787590705256669 0.2619647345534694 0.025673271640138592 0.6728929598344491 -71.44506995953633 48.45778582861073
0.704824 -31.763901445908267 -158.0497790082281 -0.09722976855327695 0.6644322646322776 -0.019175621558017376 0.43413328302537985 -34.820787384814295 71.58123071318859
0.712822 -33.9330831522291 -32.380130794897084 0.031221963269674746 -0.3306205542554313 0.06458770027695283 0.6123263711871969 -41.557708957810135 -139.07175275600343
0.72082 -42.479126128090726 110.34191882100043 -0.04616854864429764 0.5500668678474964 -0.006569701717834393 0.2877659435045145 -46.3929523630983 128.3768596529191
0.728818 -36.081045905862744 -98.28362345989927 0.03944871430629001 0.22568566465496723 0.04767433490926147 -0.4757602512076556 -34.08505599263763 11.225836052566532
0.736816 -41.43519429451284 -148.3809377664487 0.018172721306549032 0.0615110119470436 -0.08288897309280972 -0.6212009866860226 -28.853909891573835 -52.93587684286226
0.744814 -41.27959108046588 89.07934317568828 0.0540635016777306 0.5231596337508103 0.07410452008196947 0.5731568311651902 -37.79203377233041 7.226986123379732
0.752812 -42.89751966105736 -83.97753034388147 -0.1097888422734779 -0.20057579558482236 -0.1305982415400394 0.561800444488381 -34.94854666629991 -137.16445719200698
0.76081 -35.59295716967631 74.82780563201227 0.09011953386896515 0.8125044216215147 0.01059655926736371 0.8395457023777504 -40.025475853549935 123.0016965878638
0.768808 -35.535773851213605 -30.1811795905498 0.0028191302789219164 -0.4385241328148964 -0.014984319057172228 -0.14478896757672355 -38.89247200456551 -94.48071471828723
0.776806 -33.766283771854276 62.97992378461825 0.09051761945877532 0.23892023952538047 -0.008864550490002267 0.4591653465450952 -48.35116764010107 -7.1103662504858445
0.784804 -36.728606722218615 16.835230955161524 0.11492857010663311 -0.4011977815513735 -0.013197634119737914 -0.5999217553090013 -30.840995416118876 29.633798315860712
0.792802 -38.737389936308645 -146.30370025376695 -0.06175307775253849 0.5576737837402183 -0.05530703366042376 0.25741080770149977 -37.724804956394216 -24.204581814447334
0.8008 -39.179610004135746 100.24969665745537 -0.0020069633884446684 0.8582828678223764 0.06163427788022955 -0.11538808933240466 -36.47020715313016 34.67064935475873
0.808798 -34.578476554279916 26.02361642888525 0.04047518442535361 -0.2298443439145764 0.09446348742027305 -0.04298570410511332 -41.949756176205895 73.6616197139001
0.816796 -48.258552550873674 -42.91022538447441 -0.059777564478480705 0.06862842422606177 0.06692480274737841 0.3138227008326221 -34.14045469864356 137.64875339046176
0.824794 -54.73783094142398 -8.61866754029357 -0.022739028700530062 0.42630636037115577 0.03447232621968557 0.5973019347637201 -39.03330130286737 55.260737246997756
0.832792 -35.92432571058473 39.05510963583202 0.002659223694608068 -0.4309984621086213 0.019420655353029195 0.151148670311935 -31.484716722482613 2.298729335707681
0.84079 -30.401666872894857 155.308403373038 0.05521529179063031 0.5743194093345646 0.033221316797901995 0.1849364803867273 -46.6417341033745 68.285365193932
0.848788 -37.50608877384467 -123.12518916245727 -0.0330807820843636 0.5252228438895818 0.016872578675579012 0.7136333271775382 -39.59443562294054 11.363213480445921
0.856786 -30.015336879361598 -9.282452972115795 -0.13424908894875248 -0.39072446192513244 0.03325812287310119 0.7476638574202641 -40.35845564741038 132.90125236872217
0.864784 -38.99509408334326 104.66960648276631 0.018852473990273073 0.5380730475377877 0.007266592237698501 0.8449361320211946 -33.50310435273251 -90.34140982041042
0.872782 -32.702487392904715 -16.27226489445736 -0.08129021644811857 0.048023371047004514 -0.05422384836779401 0.8729617600656031 -31.863364739909706 124.11760046913102
0.88078 -44.63634725783136 172.33589408287168 -0.05475798673819896 0.6939493992921231 0.14777745275545534 -0.28354411974373483 -28.153328175901727 64.17259359090745
0.888778 -38.493472264357 169.20312574050757 -0.051349218398226745 0.18735724171343698 0.05281544399450892 0.038375080714438965 -40.19303230918819 53.5336590000548
0.896776 -36.09960332869476 -75.22758637862809 -0.06135562371275632 0.5931464251351474 -0.0901258693527865 0.8251277119188934 -37.46460974280111 -119.12479793877169
0.904774 -34.92509526595478 -42.52315827495537 0.06675144618714766 0.05734438651780082 0.08446664362839423 0.6165534244476959 -25.739543219723306 122.83714270456593
0.912772 -34.59450103682364 127.68671655997056 0.033243258557592206 -0.11212572196438982 -0.005268012673153038 0.5051090253066891 -41.93016399467115 136.87953278179202
0.92077 -40.20307291517547 43.64544965721852 0.03020182937991531 0.12482867061590722 -0.0453265743451655 0.16572769558279138 -36.32960002414477 32.95719117026643
0.928768 -28.56582252190815 18.422047589132806 0.06274114674734681 -0.3728842473031448 0.005539672939518046 -0.1692403357444842 -37.05832708688701 -137.84742286977368
0.936766 -29.20587574072828 -15.419388315303733 -0.0016279869934237496 -0.44288657988212005 -0.0007397934996663858 1.341476380734217 -38.41323144232246 -171.18714196278873
0.944764 -33.31216257654922 177.1882046467512 -0.08609693397201247 0.7029556180664609 0.10691270942379463 0.5646080430253373 -33.65262693896955 37.263265667218384
