!Created with skrf (http://scikit-rf.org).
# GHz S DB R 50.0 
!freq dBS11 angS11 dBS21 angS21 dBS12 angS12 dBS22 angS22
0.001 -6.682739524995322 -173.43877210906066 -2.177959582010116 74.66402888713725 -3.9720898855321254 -26.02245701021274 -4.029120910875593 -152.10600759252472
0.082612244 -35.78136721106094 -34.92677110400849 -47.566263138127766 -60.86288433726156 -43.105741636149595 -44.48227678400413 -41.1065016638462 -94.27441916205981
0.164224489 -52.54681678920767 74.62438823694812 -41.394293383095615 -106.10888801713594 -45.450020435024136 -118.15389562359343 -33.10388100502445 -20.477355730711036
0.245836734 -38.35814299338896 -28.64468468708219 -56.9005631418083 -40.668760777854345 -50.25274824038888 -175.69851363792182 -44.38511450260813 35.80732988982029
0.327448979 -37.01737329244676 103.40486475496827 -49.477496972420944 37.800447798199755 -41.04901773129165 150.22553483148602 -39.06874394438983 134.82097297871238
0.409061224 -38.0146962611043 -19.743748517004608 -42.84366775181092 116.0981560362891 -45.47513631810888 43.256505309410024 -37.156950691058064 42.555149534279266
0.490673469 -40.7406277349115 69.13058247818535 -46.409851159664505 -37.95255939104834 -40.0610150146688 12.559743256212059 -36.62551078444258 20.811258023222056
0.572285714 -35.90991639777324 38.7107016371787 -41.610514186911736 156.72146652170963 -52.494836721648134 -27.526210794733966 -40.11123936266888 -80.92639767216552
0.653897959 -37.60657865289471 -84.94850372285444 -39.95882872844676 71.82627495734495 -39.83390802637512 128.773610788262 -36.76981642087885 -16.03868517651986
0.735510204 -38.3926200118414 49.315291348331705 -45.02485387273852 -41.883393537764434 -53.49359442808741 -40.52460413999479 -38.63311130806349 -76.9543335425608
0.817122448 -34.25216804525913 109.07179689398201 -46.24759575378525 148.2540682002055 -44.23480454749024 -57.54442630823263 -28.895647117975752 -101.29820802212639
0.898734693 -35.35160314904835 120.82124867988973 -46.325928765121375 -56.031265435056554 -47.61191762984602 83.14330026839532 -44.17118937202038 -82.68101972504377
0.980346938 -40.89935375451398 -6.2366225673668225 -49.012959108099004 -97.62434191240436 -43.406211540487135 62.51489161162263 -39.49845642327022 58.47589864701257
1.061959183 -36.75748198142219 99.31954255673352 -45.53317868089973 174.82703933807002 -43.762132433509635 176.34568248399705 -30.904128818057615 65.35701107062953
1.143571428 -40.95938880360782 6.5090517305250986 -37.4823736435564 -127.06298943925307 -39.504780180965525 -35.928525940280124 -29.13279453845083 54.89264608398938
1.225183673 -31.969262840253773 111.91862146357504 -45.54040155418307 -48.916991689559495 -47.03073850795464 73.97171017100213 -35.78564431757884 156.74813343487153
1.306795918 -38.13892263205855 142.091190092533 -49.1309579439058 106.9990549278662 -48.79164260748152 113.27564600867917 -34.41552638832527 -33.79575693867879
1.388408163 -34.396437609815266 -16.045004021752465 -35.6322250727944 96.49876134419586 -42.46067950599197 -83.86340535714518 -41.49797053833426 168.77252079858482
1.470020408 -37.84582758050418 102.72685953720108 -46.67906863583423 22.072564942601108 -51.18031170853065 147.5938114035478 -30.776194144947418 122.91060487946798
1.551632653 -30.088873402596107 -29.867960317561096 -52.890228364152264 84.99543417384672 -40.56989864502992 5.523199313668943 -29.335273253058737 -114.95860551959674
1.633244897 -32.07278587905725 22.143343309969996 -49.41414571882945 -117.41700800277003 -53.510959483281994 -131.68169104416344 -28.26021557944341 -116.97481413805615
1.714857142 -29.854645795719517 -153.3484031029172 -49.15937526736048 -93.2140482513901 -55.037931350403426 116.93548390578678 -27.289025441000184 72.65514493091293
1.796469387 -27.838704344355346 -19.5075992433777 -39.93740207670817 -8.268251573408486 -36.05721634561031 145.2069429035724 -26.44012902825825 132.51067075017923
1.878081632 -49.28669684555206 -179.06167514218936 -38.46491277087923 120.55507095740859 -44.159517053902775 -6.877320382933498 -38.79539925159718 -53.29140656911407
1.959693877 -39.93240491673958 -37.05166531789706 -40.931113710349194 -23.4594889025292 -39.810293370035275 -118.50977931816956 -32.2598594168824 65.66983391244855
2.041306122 -31.7130324825702 -165.67032439893595 -35.1391213662899 169.16710262138608 -36.89820852101076 -26.230213316407546 -28.30852271911811 -159.02770337214804
2.122918367 -20.657626898103437 57.24388250420043 -41.919485716009305 -24.926581730758105 -36.74706167969901 106.57989216331215 -33.07721728665551 152.88420029409224
2.204530612 -22.65510016177973 -169.1541812977314 -39.0885821704751 24.676312248630452 -39.71956675862606 170.74027312832598 -30.88507519220277 -72.57365896118587
2.286142857 -29.387974904722007 82.79127113322909 -33.60645327612649 -38.67521223344025 -43.913198142232474 -7.841716124102153 -28.693027610560424 -28.787493748422666
2.367755102 -26.837189664533575 72.67063539397462 -40.523807748558426 165.6587724174494 -35.85283869765332 106.67847443696672 -31.097460091816558 -67.62452026035392
2.449367346 -20.64889359132556 109.57413528754876 -34.875156815136876 -147.79933956817501 -33.999283921515 -67.15211275242605 -25.565819939288517 5.240615937519904
2.530979591 -21.979918541608964 -107.7969764321004 -42.401501848757455 141.73736411632345 -38.96843240728788 79.29378851451945 -26.278134961041737 100.56065990480437
2.612591836 -25.883578880973293 83.73200981836918 -37.66990413423227 48.13607022373611 -32.44843818130815 -146.25388885351373 -28.056956294252696 -81.13501046301693
2.694204081 -17.74356608291655 29.358554905445484 -38.07470462132112 163.65673864294942 -29.936284461331365 -53.34008374423599 -35.21637058763565 -2.628752583974501
2.775816326 -21.58477201506833 67.37068799258927 -25.59314773037311 -67.34847284020049 -32.77289040652431 -37.47326113907574 -24.913470771032195 56.13195589765974
2.857428571 -27.35346335210215 55.158968846446804 -42.605102909885126 144.21877995750202 -35.95407307062882 66.79586645720963 -37.68632131848009 -171.88744287766406
2.939040816 -29.075186037208436 -22.380505212740612 -40.19750781475381 -88.63223996236336 -36.470778916786045 166.96649309967557 -30.389425799087363 72.5814864706287
3.020653061 -23.639935371650118 -85.14149070400622 -30.954512948894333 74.70031413213432 -30.68590074159262 166.01888961091663 -24.561277296311328 57.093055888255
3.102265306 -26.29704741503547 -93.86802736905193 -33.56407198473399 77.73413196329119 -28.91285166662559 172.45529146538894 -32.323994620292005 -29.528388481066898
3.183877551 -29.425326087858625 6.628835637868334 -41.47240987298795 -148.75770201946574 -29.267466260325804 -107.73804797573455 -27.998020597184215 153.2425293331097
3.265489795 -26.67654270015809 93.62873355969191 -40.93695733354324 -5.274908020324929 -27.404527171819552 23.57850765783176 -28.24920848120346 -66.77394483424004
3.34710204 -29.03587419160978 114.49877727990794 -50.08367569995179 73.48429958777801 -28.977707422652742 129.75332086036656 -36.128263675662566 -85.52356423780653
3.428714285 -34.53443293510823 -165.47759625309084 -47.45870757482705 -85.37781498939802 -25.990121988781354 -79.64416908774808 -37.96027231693924 35.82600969366182
3.51032653 -36.07633408657434 179.64800208253746 -40.67516271016234 -0.46841859925527257 -24.97572763398707 24.510201782702488 -30.21745113806918 53.48820053139725
3.591938775 -29.131854906841745 33.19977857798122 -33.79339155089198 108.23818773710089 -24.142043741066743 152.60677508199527 -34.2154602989759 126.33527790777087
3.67355102 -29.56480914340751 -160.88498277007426 -28.9455061140599 -140.8472184106677 -22.752392325155164 -74.99050748241211 -29.630738818807302 -95.46117358706309
3.755163265 -32.698866957166814 8.694804015937786 -30.754653116386834 -77.93183924664363 -22.617123171042515 18.514994847731142 -48.48045787604944 -130.95977957067055
3.83677551 -29.16656648954867 108.39775006240805 -31.058947051834576 117.96678440692223 -22.078268113593687 153.40033351145644 -36.68920322158558 -9.279539718068166
3.918387755 -41.577368087253994 -58.494057239429104 -27.90289723329633 -132.97306605791206 -20.959649371333402 -61.557979676802354 -27.885377539084672 157.6968377707318
4.0 -29.77684479998114 76.86949704924211 -26.412867361618243 -21.27542794513047 -17.86402742787622 40.245704132921404 -33.31452009420432 82.47597478344879
