!Created with skrf (http://scikit-rf.org).
# GHz S DB R 50.0 
!freq dBS11 angS11 dBS21 angS21 dBS12 angS12 dBS22 angS22
0.001 -70.48191692368775 -119.50311046466413 -inf 0.0 -88.67687019336005 -43.60641647244159 -inf 0.0
0.138896551 -51.860629705772475 -155.51359483563908 -inf 0.0 -46.90776888456966 -164.48188194674734 -inf 0.0
0.276793103 -54.010537014205696 46.75595545918624 -inf 0.0 -47.58938501373272 -172.88579213846276 -inf 0.0
0.414689655 -59.25974643508422 -13.420227517333693 -inf 0.0 -49.89092187944785 -109.41229752432429 -inf 0.0
0.552586206 -55.861208780385525 -93.20991422912812 -inf 0.0 -50.16586997672813 -69.56201629356214 -inf 0.0
0.690482758 -53.3957569317812 138.9964852420262 -inf 0.0 -49.298181183557375 -46.62113262909681 -inf 0.0
0.82837931 -56.44195038785006 -8.485291588571817 -inf 0.0 -51.21514082163121 -46.79686502658343 -inf 0.0
0.966275862 -58.92412173665775 -97.28434994620017 -inf 0.0 -51.7434562584412 11.381705382194342 -inf 0.0
1.104172413 -58.00410590826593 -165.6830987813094 -inf 0.0 -50.845942050975104 83.00724421293599 -inf 0.0
1.242068965 -61.76204127855147 170.5084502099997 -inf 0.0 -50.18484709449605 -156.7798262099187 -inf 0.0
1.379965517 -60.13476539320212 84.00243164835408 -inf 0.0 -51.56888859257727 -130.6879634354889 -inf 0.0
1.517862068 -58.397736708053564 -65.41082929898182 -inf 0.0 -51.232008360110356 -118.32053225545626 -inf 0.0
1.65575862 -63.33481024900408 -149.89716320011618 -inf 0.0 -53.130455615985014 -46.32998591244997 -inf 0.0
1.793655172 -70.46141885346154 -144.82954371446402 -inf 0.0 -54.341980284892415 36.057904141180416 -inf 0.0
1.931551724 -75.45643590562264 -173.51675490466175 -inf 0.0 -54.54538157670342 109.93343559444793 -inf 0.0
2.069448275 -65.02517762710733 160.82640064298565 -inf 0.0 -54.56200285037638 158.06867986715474 -inf 0.0
2.207344827 -62.38044392901065 36.37219476446833 -inf 0.0 -55.99327992515377 174.94682503234978 -inf 0.0
2.345241379 -63.78041023743501 -35.65546792794308 -inf 0.0 -55.394241738384444 -144.18370715040487 -inf 0.0
2.483137931 -57.58447266892608 -149.29125286822125 -inf 0.0 -54.68906327822029 -140.45231147990484 -inf 0.0
2.621034482 -56.958440153780465 58.61399219234533 -inf 0.0 -57.961831260273414 -143.08432359169117 -inf 0.0
2.758931034 -55.51132683473738 69.56053283587228 -inf 0.0 -55.95014244230809 0.6389977279324819 -inf 0.0
2.896827586 -48.226513896185416 -42.292679212486846 -inf 0.0 -51.195031191635316 24.592666898075333 -inf 0.0
3.034724137 -45.503378110807105 -90.76792019230459 -inf 0.0 -50.21846797873857 104.84327080002053 -inf 0.0
3.172620689 -43.61104502680441 164.93929171952217 -inf 0.0 -51.022940506207775 137.50867744918557 -inf 0.0
3.310517241 -43.97337143694561 54.383434970594095 -inf 0.0 -50.58728856868971 163.65216847693557 -inf 0.0
3.448413793 -41.6646030807749 -57.476071994863155 -inf 0.0 -49.557144065330824 178.3378573756004 -inf 0.0
3.586310344 -41.7076375430699 -168.43297335368212 -inf 0.0 -51.00172136183148 -155.75692674927853 -inf 0.0
3.724206896 -41.889178631440714 95.44418800264252 -inf 0.0 -50.92351691183457 -122.1707989768132 -inf 0.0
3.862103448 -42.26088883009709 -9.148816125554063 -inf 0.0 -52.54344442133948 -101.11027935895282 -inf 0.0
4.0 -44.96691450245301 -93.56023900586983 -inf 0.0 -56.347147091794 -56.60165041126387 -inf 0.0
