!Created with skrf (http://scikit-rf.org).
# GHz S DB R 50.0 
!freq dBS11 angS11 dBS21 angS21 dBS12 angS12 dBS22 angS22
0.001 5.678091395201191 -69.06474928535836 9.58311729753623 -28.0837478926565 -2.0123126603307324 55.36464473455025 -4.347316318036995 108.0260588774137
0.008998 -8.012307290304278 96.14191006769863 -0.41548052243356803 -17.095267622650386 -0.1667895804099882 -16.798355186652465 -11.879233913969403 42.3273944936815
0.016996 -19.465078215556396 -109.96985903031651 0.14651220357572356 1.1621955803036836 -0.2419777473263207 2.572846289179968 -23.908576753050788 71.34965121592269
0.024994 -24.53625677327462 61.502412144617075 -0.13994927389916847 -0.5802976230022145 -0.08580903046020638 0.2521028588570123 -23.58347002222228 -100.82358358047738
0.032992 -28.666423899350857 167.16952863455276 0.079744355012676 -0.4827818781119713 0.04634474190555387 -0.7596532246372492 -30.378431911401364 -11.691745901474814
0.04099 -31.22209002592602 -157.9523461623566 0.059203643602748 -1.3877908139800397 -0.044409441511483704 -0.2780656326933274 -42.98630203445862 96.11521516658763
0.048988 -35.48797855744403 7.940414041698767 0.033558293406882204 -0.7535668851728381 0.07000431658116806 0.6190371789040245 -35.017573472495094 177.89168075810937
0.056986 -42.16460882215785 -112.45029145595134 -0.0013242298280537316 0.09714507625821592 0.012503845140840698 -0.18266820101749373 -42.64534372492314 -93.19043512480333
0.064984 -31.54777438984881 40.89319904700757 0.022854857359953604 0.41111891521510036 -0.04288396019771423 -0.052765450674296395 -39.81499751784305 -118.27982349389288
0.072982 -42.39738407191073 100.14672211925388 -0.05927213162878749 0.11254723108963087 -0.043076417028817406 0.3239812845339319 -34.596198991587194 71.54963530060485
0.08098 -34.042802545569714 156.18093820624912 -0.05211673820050895 0.08501146597874767 -0.01963001085264635 0.07791770402922543 -32.22856327822028 80.58581574939845
0.088978 -35.307878393589654 75.96780457627452 0.04003849190703543 -0.19017685666279677 -0.051795956510175364 0.03854621834827445 -34.278411445808125 1.7402196208155059
0.096976 -39.65837682971456 83.7816630183427 -0.008806357039104583 0.12773903525067676 -0.0388249694153196 -0.0017118848482438117 -60.9453121447267 50.18393446590378
0.104974 -39.7793711259694 97.05380024532475 0.018080950453509666 0.06668063755384161 0.032549700513078504 0.13571253279843187 -40.28056134436987 -95.80020894812368
0.112972 -39.58037113623086 -155.39078239324263 0.014211924778865372 0.4252434296906538 0.027149496437249683 -0.2689899123789916 -42.99600948067152 74.22738142299956
0.12097 -37.32520628393792 -150.28816092216115 0.009153888291831275 -0.023955830942811496 0.004034712191161321 -0.12159223291339116 -35.90866985838518 81.40468635917321
0.128968 -45.43627471912391 -64.80160905903784 -0.012075021018590228 -0.0644220184102265 0.013539373609070555 0.11288280917805464 -46.069645332763386 -71.32231578851574
0.136966 -35.825908976669254 116.77461409706764 -0.05320872452769135 0.01714167488416981 -0.0724705803468363 0.23915732050382185 -35.275651949117155 82.67657672210716
0.144964 -34.20347485482391 108.90195658949555 0.016671498896019855 0.019982334649822738 -0.06522828462502532 -0.10093624081264421 -34.157262151047235 -84.49079476144277
0.152962 -32.835298136544665 -115.22074510990096 0.02970547471707229 -0.34723524238212067 0.047380542906136205 0.2981205934829427 -35.43658722376105 153.09451422603124
0.16096 -35.41772820328365 169.49846635217034 0.03478194578808934 -0.08645819652183206 0.012958108397972906 0.2422636803064915 -46.05663065859762 -63.240255818596125
0.168958 -39.64091833319287 35.07939870255208 -0.04226889082405062 0.20874262017768444 -0.008367336843736292 0.23608549330454165 -40.818979905455926 102.17262234354027
0.176956 -39.236556905766015 -13.085321212246463 0.04392683949411744 0.12583722898226413 0.03625246816784102 0.4301268838987567 -64.12464114284448 20.474342014530272
0.184954 -38.15637384058281 -165.20628331110638 0.028689869336614906 -0.09307233172143158 -0.01870443705372943 -0.30337524620453254 -39.044917470387524 4.374481479646272
0.192952 -41.834897537115346 -173.97859771298255 -0.0026000990280040676 -0.0213327462865948 -0.04174993450193484 0.023475917871673174 -43.46737457283814 144.59786465661972
0.20095 -41.6936970265997 65.91687051539365 0.053334256995526255 0.03283909092599695 -0.004360676148765492 -0.23209311747396047 -45.489603620236004 -128.9027415816326
0.208948 -35.2703922468368 -112.20735578980832 0.005709647660510301 -0.381068906982838 -0.014205216808887568 -0.5087749807564075 -46.13004251501294 -50.71381153697658
0.216946 -40.39292517078895 -175.58974276964355 -0.06302381386501363 -0.19382599667918135 -0.03702811201217944 0.17399556973154806 -39.88131510897303 111.30628202870581
0.224944 -36.098729426627465 -82.87770269789301 -0.012064614287478747 -0.6082482471967783 -0.028992456329081213 -0.2582581313746682 -33.89526772429531 -136.5409168031513
0.232942 -38.909299214886616 -91.51706392643001 0.034053741525424494 -0.07718663024181788 -0.02104017420447219 -0.029256406914117496 -52.00850197837059 50.71781312531685
0.24094 -40.10760695475003 -31.36285903811296 0.06351330285651388 -0.32654561690361383 0.0625807454075287 -0.02694157050214435 -38.691300083410155 -68.79185375010475
0.248938 -45.02033544756084 -47.25811222774328 -0.00041347867464539977 0.020432711470725506 0.05311041945515224 0.05650814861063744 -39.54725073200454 44.20025654830789
0.256936 -44.429412881154704 -52.70685537234363 0.0005843994860395651 -0.3138383751067335 0.044584415418527056 -0.2543043711243618 -46.64838654248696 -7.710229783969389
0.264934 -42.23651801614544 -96.94917636721347 0.024480556639368954 -0.1665396810712099 0.0017428791335000477 -0.18667638920065657 -38.05608089682607 -0.8376789784631611
0.272932 -37.151114813331866 59.44688693598794 0.10347744503464026 0.5129600908247772 0.05534957788820365 0.9632966836060216 -43.889197366805995 123.30517666686359
0.28093 -53.35033821673985 27.146975949413704 0.05780820435291863 0.10715914963040857 0.10080581286098832 0.1840399255935181 -38.31429206027015 60.27984762494114
0.288928 -37.25996603052768 20.697824106857567 -0.03740955031455112 -0.44980098158448967 0.012190904966853065 0.19910161171931723 -35.60881490497832 -85.20356910241408
0.296926 -41.66156402901759 -73.72023657795137 0.026006596665150154 -0.008443569564663949 -0.023102746199931128 -0.23617055872295833 -36.55644941199594 179.94117046533492
0.304924 -41.15943941265775 42.34787650993073 0.08773801678407947 0.10403984751923173 0.008657382471828817 -0.19799784556506278 -45.99153472327855 143.79689268885804
0.312922 -33.80842411467221 -2.337508074203194 0.0030582480657241097 -0.7879758334186655 -0.024326103176512095 -0.25502445730982387 -39.08301374804939 -87.10178765540014
0.32092 -37.15433042323973 -37.30409603414405 0.04925810394209564 -0.6440470012127371 0.05642787994359348 -0.6545729139391249 -30.198494690050136 94.29831168721233
0.328918 -38.651328771046856 45.086487405361396 0.03397565976451544 -1.0064503315545028 0.054877503598433595 -0.29233922020844755 -36.052905917408204 40.48939220450521
0.336916 -34.73043963725489 171.7533424150064 0.04400164352869161 1.204088230015111 -0.056226054186331864 0.688868133200445 -34.30839993432892 -140.89780379830304
0.344914 -36.00783179134702 98.57249276725693 0.05269216975316221 -0.29594611313552377 0.06815075606993144 -0.28723077368465877 -33.605473718753096 149.05684848749118
0.352912 -30.582606753510795 -122.25790387646343 0.10098197542326666 0.42838588918805337 0.03562391202478068 0.8668015335962795 -33.855075286730155 -164.2362274946805
0.36091 -39.50829417450783 -35.412319598526175 -0.010992123673112749 0.005228619595517921 0.046379543701036495 0.44980307615958415 -34.313244735648375 146.75848646371261
0.368908 -33.56175227299643 33.360396939674 -0.036207819068237015 -0.5613873649248254 -0.1394859939310379 -0.2244203960140081 -32.24074070619145 7.9623006252703385
0.376906 -44.926710239550275 -28.920053212859106 0.07264886058939346 -0.33444566322389235 0.11954956096787957 -0.5100496556475715 -31.19115277012569 122.67296076905441
0.384904 -32.582980700385235 74.48504745586267 -0.09367648084949637 -0.302834159815533 -0.027208095441963377 0.11049139737302247 -35.90510529103555 61.41298486873883
0.392902 -36.84945510287145 -40.32258193986871 -0.039899143350083065 0.11971234099863465 -0.06755122783109489 0.5878252949173628 -37.61821265001818 -9.636744959358458
0.4009 -51.73613667358094 -152.5609248953586 -0.005240480653693875 0.4937569487520115 -0.04948334840437804 -0.19022192663170245 -50.094904815776395 159.70842815754858
0.408898 -44.7776885534965 99.63585808945388 -0.048300115512175126 0.13477350146687336 0.03849010285234035 -0.4582380574839503 -41.828340109176104 -20.36923719183048
0.416896 -31.967197860175496 -94.21511646447068 0.059356357026906406 0.3894118025712825 0.024194677445676573 0.1480072078890722 -37.990221023870774 168.45710949666403
0.424894 -36.98153325117418 -15.831209036746282 -0.08571548311352373 0.3762941335162423 0.08529584735608296 0.16005346412973961 -45.11169309110394 -80.69054942507113
0.432892 -50.39415747276693 85.37743764721532 -0.03330706324943062 -0.30296856331883165 0.04279125545753305 0.029248797758722092 -31.31841371120663 106.90436853746233
0.44089 -39.391090639063776 79.29964924242277 -0.041507487991630426 -0.2803149282471177 -0.0605601678640581 -0.7995692603600029 -29.537728462539533 52.01611438525015
0.448888 -38.32849884320086 -131.44986097233968 -0.010076643164144609 -0.10487835596157641 -0.007862136288670754 -0.1880946212114362 -31.029257565842308 117.19133798721158
0.456886 -31.902539967444547 118.54528509283045 0.010334044984489402 0.42876888153966497 0.010578433651757285 0.210214832180035 -36.45596172641517 -173.2927211784857
0.464884 -41.99711970990136 78.67831201245455 -0.016647484412231846 -0.2821754570956884 -0.0837287409561153 0.5718424995847494 -34.6075905550178 -145.94137125257046
0.472882 -41.97833639889252 60.73535325124294 0.006562430590270972 0.49948526665388787 -0.02298162572451943 -0.048108579240900666 -34.27728726091219 -43.67884909376541
0.48088 -35.191866451829924 109.39937243161489 0.018507631223337012 -0.15329810744041159 0.01798941005815449 0.28105547492712263 -31.5996670399607 150.253456304132
0.488878 -30.711052040804763 99.27719400553953 0.06589817380707436 1.016240080092313 -0.037199577020469034 0.08042797711325685 -37.193464250951585 -79.37782457369867
0.496876 -58.640556163221746 48.39560957329982 -0.006665918836827213 -0.19673762291522578 -0.04417451102970382 0.0905797712180666 -34.05261944670494 178.2922012905421
0.504874 -47.437848972808794 56.01653581989433 0.029370254397966637 0.16587122107259014 -0.05501406493856652 0.21759343447016957 -38.813539973127476 -139.80782928455034
0.512872 -30.611166662195977 -52.57306314392319 -0.07449572475868166 0.23034238438147067 -0.06268548789088967 0.7159783825380989 -34.840627024057255 160.1866236786116
0.52087 -37.242426105623636 -124.90068515174781 -0.05417354824280289 0.20272631134012975 -0.06429846148645055 -0.23131612589173448 -33.69429794803661 -21.507432044248457
0.528868 -41.591071240033074 49.575517313451236 -0.07299124147954866 0.07542486656092491 -0.06360601957067644 -0.5119766632188971 -46.08547246305909 -98.4169933507257
0.536866 -35.279137599525676 -28.155450224810284 -0.127334330636714 -0.04092789353991529 0.01255739361920093 0.499862236046322 -34.01381169649448 -169.14711600161675
0.544864 -39.39386213618783 91.38525670117657 0.030894114202058467 0.23568825996580733 -0.019145991683602544 -0.29082728860543167 -48.85208707618354 144.51130112593577
0.552862 -39.259082531749286 -107.59787215561634 0.06701907003515455 0.2271788336376774 -0.030689206055048747 0.12247536122102871 -35.34653689372183 75.04950081666964
0.56086 -36.55306782989544 -2.940553478638773 0.027576068035473165 -0.5526411254512371 -0.045923462233087686 0.23630765210977783 -40.018526675763155 138.69618426115676
0.568858 -33.56667528795064 166.51067969985002 0.06542568064513678 0.42304100685006496 0.051455707828018594 0.05837921727486321 -42.47030222637365 -99.54609574869681
0.576856 -35.82025131098006 -76.32445473573762 -0.10620452445040966 0.7543690964216526 -0.021534468346497464 -0.633090491663618 -36.24483699468746 24.92220194162236
0.584854 -32.54189706355627 -134.35800890662455 0.052359263778031205 0.46164711823522037 0.08131916838163744 0.9265161975129238 -37.49301779824314 -105.51453332478332
0.592852 -39.32698873707927 -125.38329105823799 0.006080082587409177 0.1158422016305657 0.03060581339918038 -0.09097970670438618 -44.072328190476824 62.68734013788998
0.60085 -40.71366847449882 39.19263796148874 0.012330286691296705 -0.1850744042038848 0.01418961230041611 -0.0023246719565080663 -32.03970712501343 -178.51314394519383
0.608848 -38.590391435787765 177.92298006176352 0.0514083436485458 0.10171025553870437 0.0868668824644963 0.3031050236938039 -49.035273794983645 -139.04991170371355
0.616846 -39.93070323573942 -54.60087022005978 -0.08401650276523584 -0.004012815804067625 0.010672076048386337 0.32640928322411267 -52.4041529549244 95.69188021935824
0.624844 -41.799923190171114 -23.704740355606514 -0.10864894090438863 0.02401372520478368 -0.05775936089762263 0.2812535552347253 -38.20922596095009 31.516185723981604
0.632842 -36.15151931059136 -28.337420060155694 -0.05620596844495129 0.31639645058332794 0.0691698658576802 0.42339883788575344 -31.962122034551463 150.36984169878897
0.64084 -38.65901257608303 -103.13897265061657 0.026153532536417747 -0.026218887321182886 0.019762779405548183 0.08145899005661315 -50.47603232095936 -82.24514167038207
0.648838 -38.221917888614364 95.33184585376597 0.03561648174403293 0.8334681657978361 0.07487036957686662 0.2538567776052274 -35.429404224648884 -38.3987543387071
0.656836 -44.2006260716044 -147.41329557288762 0.01917276424161886 0.5404353968415805 0.020947251106078636 0.4934838810572935 -31.69635532075169 -37.960077176696146
0.664834 -32.21713636253121 -94.14805599758294 -0.017103422503185285 0.2322566632347071 0.10204812448093589 0.32364777289259716 -37.75851454400002 -6.735290996040708
0.672832 -39.047390200985284 63.84623404477079 0.021300665930152236 0.8660734910297028 -0.030507853133563585 0.7845823542997761 -38.40399719644204 -4.390131360693955
0.68083 -41.977844335433076 54.95428133157229 0.0766875572341086 0.26936107086539834 0.09875276232765261 -0.2864254277412629 -32.5418379847942 -57.01708048239135
0.688828 -42.06401886096893 134.97305718888296 0.027447704356757283 0.3611483383485976 0.0213311092762453 -0.3213993547431942 -34.83618302752079 -49.088084102411386
0.696826 -36.0328908862573 -135.59922558070966 0.0435662740168227 -0.26846737570436274 -0.07433257147847326 -0.3645016525114156 -40.76920498545378 -100.16266593548406
0.704824 -44.009752323080676 130.3014982816059 -0.018060588752666615 0.33379838111159266 0.0182176245823593 0.23147914961910615 -45.624346349601154 42.32897115535775
0.712822 -36.66875652213547 -8.034255000077822 0.136672460767804 -0.37019237342322414 0.10597497162881248 -0.18353685588169358 -31.264935742911597 -36.35052337268667
0.72082 -38.08451739583352 0.02205947851993596 -0.023034255354046147 0.3383928554998269 0.11747754741203695 0.3573715241922929 -39.25731627844973 98.47704510210096
0.728818 -31.274428862455174 124.60307935934112 0.05204139735599715 0.6202764008317135 -0.13727027312481316 0.03633280885860971 -33.4375686118511 -62.757546149986965
0.736816 -35.925846757373954 -61.092242058883215 -0.00794523238355977 -0.6080806769180767 0.0946590791363261 -0.8239289722058061 -34.411056229061835 -40.69498194402885
0.744814 -35.37425826232922 -24.11645001204848 -0.02096748832859139 -0.5125316270907799 0.061946102835172934 -0.2914050880190136 -48.65028703694769 -124.25649579884815
0.752812 -40.73052852194208 3.50141416244721 0.014897712461041338 0.32909051331224926 0.02705804214337903 0.5251236106455383 -35.359896046092366 102.97173215783963
0.76081 -45.27817602274445 -15.800504475016186 0.053157891091018705 -0.45483551851859716 -0.054069901502896575 -0.5153243079103359 -30.818153868525165 -87.17961353826004
0.768808 -37.433361219650216 19.517070322081516 -0.03926984058439068 0.14089944129121496 -0.05306304451161661 0.29725114176019857 -35.128182302797 -102.73855873549458
0.776806 -40.772239312322476 -128.3751399352957 -0.1399629359498687 0.38007637395260496 -0.10515792754046767 0.7609361191537357 -28.684097177346928 162.93655696646232
0.784804 -52.760397801041805 175.88011699579872 0.05787443457965672 -0.24306786330257912 0.04283379978566628 0.4190639466971447 -36.403056997923905 -126.7945482838302
0.792802 -38.29302366826796 115.02536053945937 0.00944700655392673 -0.2318322105088368 -0.024499177178964427 0.8767276517631105 -42.142263851797644 -150.58279090456904
0.8008 -31.910320589925703 -55.29906826870021 0.006165278679343432 0.3452753854886876 0.03552915728059261 -0.243021579074402 -34.495395616287496 90.65805747342104
0.808798 -38.99421647639603 -29.753256170197638 -0.1057798621044276 -0.37757266146467766 -0.12094779855724923 0.2971784775361649 -34.709231423518126 -69.16005422159144
0.816796 -47.17392509928558 -140.729237672344 -0.03619944793958854 0.3004247122313327 -0.003150024595443909 -0.205845722975643 -36.70222534096706 -87.02485016348702
0.824794 -35.20974695054066 7.048917171727714 0.011701819957603318 -0.1674423919779676 0.07875220743778666 1.075733209211543 -27.041628278997702 168.5910126516217
0.832792 -34.95328229285202 142.06191767301294 0.01639560164379152 0.4397456619377454 -0.03443094456148974 -0.11645769626557329 -42.08171711174229 -147.25004398742382
0.84079 -46.040263256025426 -127.84276969697375 0.003452627235325304 0.5677143577833018 0.03441642586355565 0.71199947952725 -35.93947375518057 -153.02662247661576
0.848788 -35.96703875015909 -35.091539313662246 -0.10840114078921889 -0.22529642901667105 -0.0928387004813171 -0.010761516848656848 -45.191006652892796 134.34084487798657
0.856786 -47.04294367946969 -114.78260103020129 0.039144628998890235 0.29518635671977905 -0.004835707791292134 0.08916448796998525 -33.33302090124888 -60.11324721720564
0.864784 -43.10672391520946 130.38639500107624 0.017975601349058682 0.3008078331372421 -0.07975542934355859 0.6965398199688017 -33.79790983877861 -89.58364048834535
0.872782 -29.29027808415445 58.48411474626746 0.020719382474881413 -0.3401344778331366 -0.06840332031543607 -1.2057015104973916 -42.33394993895387 93.63626032315011
0.88078 -41.09169425504085 -173.7872959905254 -0.0019017256363920048 0.16423292415792826 0.015067130999963914 0.05710338441661707 -33.396013451792754 -46.2685152762286
0.888778 -38.11682673508348 -20.300564305919984 0.012977509126668549 0.9022010202208046 -0.06888260822143843 0.26832156885838254 -41.36884957868401 -18.7865240035079
0.896776 -40.942411440654325 -165.82475218972078 0.010197835277668738 -0.1835693168979648 -0.022033376222472062 -0.39943544357124633 -34.430566706789314 -66.31618016777675
0.904774 -38.50903903007547 -156.20329329122222 0.0032450670712332584 0.6420220934856954 -0.05660849849386678 0.11429114035543515 -33.9853797452746 -120.96922033608647
0.912772 -31.206042174904876 -65.13599709166705 0.0415064403074085 -0.17057957420527817 -0.15874511579243175 0.02428637374074083 -32.5534899575404 -92.79520206310929
0.92077 -45.0633368974669 -87.11669459022504 -0.03199901280635102 -0.523344517107624 -0.02011952072016541 0.8273396437880377 -38.70658777009987 -165.9611866663105
0.928768 -35.45999094061868 100.59596241924008 0.054070494720227166 0.32141912137315204 -0.14044096309377146 1.029107797006003 -34.304468048589115 -161.65464260267092
0.936766 -34.824440319474704 151.72129485115084 -0.08521847620225399 -0.0544301379639302 0.09908282180987693 0.6416614089068139 -31.32118830701326 144.41584779771807
0.944764 -33.671897812145545 -72.39252505093039 -0.059354329076678196 0.4425716380547607 0.013857932890171305 0.4214979138791923 -32.062699084653865 -160.16581401567083
