!Created with skrf (http://scikit-rf.org).
# GHz S DB R 50.0 
!freq dBS11 angS11 dBS21 angS21 dBS12 angS12 dBS22 angS22
0.001 6.921687889687101 40.99422270530788 13.315381947620239 21.20120202534708 -6.759990772665816 -158.53106376203135 -1.8854649950753188 -138.81357197972477
0.04099 8.259704996401965 60.15671917072969 10.690486868912927 -45.630844000813134 -1.5831789380922694 27.6629171804092 -3.4366779685029867 97.04435009070603
0.08098 -19.199611495291382 -109.18492477217951 -17.219955224005112 -70.04018204137306 -23.33323847826812 53.27740945731788 -5.6744600962788425 18.150209676690768
0.12097 3.410008446411303 107.2893354711282 -3.885339282693521 -176.52372649452653 6.2050297138831665 -66.39078927052908 -13.84608450879525 68.01166163964463
0.16096 0.9246821923639125 172.50993723099668 -10.205685414571427 40.69386880590923 0.3977229875414787 152.4374113879663 -1.6869628382604884 -65.55856420132268
0.20095 4.619566607047586 154.278376460069 -8.410831761376976 -51.358270782869745 -8.322826711554745 -87.8205402274951 -9.717983589228194 46.32575505980459
0.24094 -2.2097513919353386 156.5373353516186 -4.063357299361604 -7.968900915416402 -10.529619978973058 29.01975793481595 8.397332399989102 31.973226108168568
0.28093 6.7220500636636595 179.56640260375852 -10.412158312870819 35.11619150729914 -19.852789555716527 -77.00157920336385 -25.111291012054483 -17.84114697799944
0.32092 -8.361793267840472 92.65864873736423 -8.88701362727256 117.57628032198632 -29.50867789250182 124.77762763510161 -20.078494403949655 -171.05556556963901
0.36091 -0.48680782238676845 -175.2718216605915 1.9423802434842465 94.84156795219887 -2.415342845757198 50.0482007723708 -0.47309903742010284 51.14959887125001
0.4009 2.4596639198801866 -47.879674164982575 14.176306096126616 132.47647360581288 -10.127128141713392 -76.90549941191082 -14.257914439252241 121.65111305483188
0.44089 6.525460427164052 -132.99401466594549 -3.481049813965889 -102.40912759744096 21.07810456098763 133.17474085092255 10.98106984219614 -24.402971717735436
0.48088 -0.6654864830727646 124.10549177145857 -15.319684727297474 144.99601483661263 -1.1749743334428597 -98.12567646122164 -5.491459541523099 -77.98239082541114
0.52087 -13.731705048300956 -25.3256899461958 -2.41691116361443 -77.61412075843303 -4.918905947903891 -51.14944935214028 -0.2719031930285428 -8.271392925829197
0.56086 -13.206798570894042 -24.83590080753882 -4.683839663021702 137.8244763832708 -1.1486120010328507 -60.56709662376193 -34.08074119960912 116.94576092942151
0.60085 -13.943889226917662 169.03724136441087 -14.472688604008345 -48.670217525623514 -12.141048580065238 36.435044604420014 7.6658780625557785 -49.85105851582267
0.64084 -7.523852060684525 -129.12092920749407 2.726707515856133 -24.69463573077114 -9.925429268534847 80.14806413590402 3.0331485754514325 141.31668602365633
0.68083 2.426848352449152 -117.12736757034492 -5.5519388377516155 -39.17652849464851 -12.576847688782733 1.3648960016061054 -4.626453169118416 -38.13535101970106
0.72082 -1.7587587529854347 -100.81891875411638 -6.466745160329118 -96.66981809443642 -8.604419170403357 18.622359412082094 5.263537292174643 -104.66531088075844
0.76081 -17.541950635422936 -67.26188211709484 -5.8088459601473454 147.2561025913081 -13.990317848952273 179.69929074377796 -10.51035873405291 86.3195468873312
0.8008 1.019239220707099 136.9015652632875 -3.1262893276636894 -53.25455975043958 6.986675301972209 -159.62454091737487 -12.959146284321804 133.53122309644516
0.84079 4.579323050833592 132.96043930109352 -23.283543183652707 23.221379600553238 -29.651091185707084 34.13634699185312 -3.925278873222366 -175.62265678185892
0.88078 -2.579917634548341 -131.13560147037893 -17.856033854425938 33.59244167019299 -25.99500412879061 -142.58936128420487 -16.12878459475031 153.17264482730315
0.92077 12.21763036922055 -34.67158172098701 -2.7744266971125238 -61.79080642530978 9.276992894897388 -165.81182063470573 -3.102485166985407 176.76040948873853
0.96076 -2.559758278477204 -163.17308885936885 -22.23870717751453 -109.25129965144512 -4.6788645756225025 -58.82625868856423 1.2348291783391159 116.52799113155443
1.00075 8.285168819601925 97.51221606127035 -16.785885243791153 -100.5723555606942 19.735579212961053 83.90898211666682 -3.591027029475373 -112.03341264586122
1.04074 -7.003546298730441 92.26441743009906 -2.317047584852108 -31.2882261625698 -18.525377175686767 70.99366963718967 -5.670081934968642 168.34948536978737
1.08073 -2.0695689577769585 -162.39055416047842 -19.386431641359053 -17.067543331433086 -3.9499292809810593 10.954235067231494 -16.725673102296742 44.43510230133545
1.12072 -4.343126838087089 52.25638695069615 -3.719359716289194 -94.41376878356482 -7.894633061331476 -106.4334070036518 -9.376800824292019 144.00393819271332
1.16071 -10.48954279179968 68.25742222074618 -3.9199383373914904 -10.476822377949247 -11.660038505882092 -13.812653050230363 -8.09261417123199 -162.6864930417337
1.2007 15.293507974125859 -60.51065937264443 -2.3440626847776964 -52.462350216892915 -10.976978204171097 -57.29187935660961 -27.80320328591926 -7.5649123984209545
1.24069 -15.347616681958149 -19.06154490987134 -20.10696270500342 -18.397418802217175 -6.310604799738082 -65.93268014463104 -5.133604800052911 -14.770772407127255
1.28068 -20.90493337617255 163.55581258346825 -0.3788223156220699 59.87561802847489 -5.036520366881044 -50.42261423403356 -13.037271575381137 169.7254732101075
1.32067 -9.80422833252873 -28.418655364006238 -11.011441024163275 -119.28970941244476 -8.204115314222664 161.65610584308646 -2.382425755658854 -43.11240949313924
1.36066 -11.1245678996577 -176.50141266644326 -9.633882691645802 143.03361311364046 -13.168815526707892 46.355193709758815 -8.467676803793156 86.77677814158837
1.40065 -0.7203288153474414 173.35180119585797 -5.74146245350364 58.39346171275732 -0.8220119970491389 31.622884659996384 -3.535746281205387 22.432078787486667
1.44064 -7.2565155414663245 26.529320789222293 -1.6070850409994417 63.25590681915194 -24.04944647154813 24.074275904986433 -22.901932218368437 -82.4267782464995
1.48063 -2.232727634771133 -175.61189717800607 6.154332824564145 -13.269777726308325 -8.230501712653798 10.598476722249346 6.239265741589875 48.81894703885359
1.52062 -8.251558679346614 -28.846422310616138 -23.36988562732155 141.5630325434864 -15.655940502347285 119.54554269382699 -6.918851990184748 29.86483470425933
1.56061 -6.729345238150097 -94.00208256357328 4.83239407663513 14.075806893719275 -3.777224788224798 -46.62563812980944 -16.53170503029138 -60.044875932021014
1.6006 -5.272020655476095 4.792176165949311 -10.285038119464216 -49.17545458826735 -7.224963858013834 20.215413375464887 -10.708649094566592 -74.76582373826847
1.64059 3.5520051081879815 117.09441176987721 2.6524614200173557 -65.98655618510587 -4.565035435815033 8.801901190882488 -3.999198074734519 77.95908768426997
1.68058 -33.49509928543948 48.654166822886154 -4.750127589954665 -52.102349116599115 -10.204249200032647 3.9232423984063893 -12.768532147826669 177.90739692145104
1.72057 -14.751197328579323 -19.814022839049624 4.54856224827262 19.32933530230286 -10.121471746391348 -74.59455028097753 -3.9963808584575213 -100.9199297972934
1.76056 3.603147896360595 102.80963556404508 -0.7081595998175351 100.61133791789705 -13.569956113778609 -100.55475013569654 -11.717777129123128 -172.38728567976926
1.80055 -14.814773638247265 73.49699645527207 -12.375160853155297 15.26441796378645 -19.271714830593318 -84.22409077809935 -0.6400238104531392 -4.22973231090667
1.84054 -21.946836291555 -146.84015061277432 2.341943997504806 -72.89478448726854 -5.985020400773246 -68.6999733889214 -1.331950947155924 -64.74752116384028
1.88053 -4.19258726683772 -26.17354204371638 -2.6826706631410935 43.98334301219281 -9.702586986938456 -32.52432316999355 -8.578738371721021 23.876626543102297
1.92052 -2.582604997386718 -144.6230763542638 -0.03938991772032863 102.7269534239264 -6.259034503408926 76.3839594199526 6.156203066048365 107.16582559172546
1.96051 -13.9379009007045 -1.9926832972814403 1.1678031351551343 44.71400164448764 -6.550908232740229 -50.01202606313253 -8.219851391835888 -178.02253494536484
2.0005 3.8166062674398282 -44.69321716602101 -8.406485487531267 49.670194563925435 -23.386095787059787 34.82847493433552 -2.0435480444868865 63.39773460861694
2.04049 -21.477172457916105 -42.48587928761823 -4.120865167161457 32.63824604826589 -1.5597563508218313 -54.84363014890432 -13.917299172223956 -112.47985805091605
2.08048 -6.650994584816918 101.37398067007744 -12.056924219759528 12.396700339304852 -7.780159193709903 -21.99622804013513 -1.9397849861299155 -148.35860419078455
2.12047 -2.4174009200751305 -21.95888582488685 4.483854698962531 -30.082839840347987 -3.846047099575436 35.167485213694555 -14.261777252727494 0.03537745888418664
2.16046 -14.250833367963807 -149.14025446109233 -9.821154826210606 124.12430901757557 -1.0940302669430046 24.417191770402226 3.087761246470489 21.979707114091685
2.20045 -8.73769624870758 -61.53629959883495 -5.601485738593867 103.06945421760403 -4.3311756104492805 -124.20604924824187 -4.350162205524237 -130.61607043891433
2.24044 -4.813434606511482 -93.31214349919952 -6.819750291183504 -5.060956863142734 -7.651812674921481 39.40105484395969 -4.436727199333811 -91.02777431993796
2.28043 -1.2772998564489058 0.2315949124945103 -7.408142233099399 118.4161004320831 2.5979170874675073 -69.07849701833254 0.10039072186039942 59.192595225900284
2.32042 -6.209945206692751 -103.06485985113244 0.0316379271497584 3.5004708946308387 -12.30363064470155 149.19764344641231 -21.59560333895007 76.7668528865858
2.36041 -19.130023025227853 128.43345355183465 -11.594842741385571 37.22221256823337 -10.730917354211273 174.21100840248087 1.3179183132498293 -19.51283448041097
2.4004 1.3947274439008424 6.823804137278297 -20.47288974784132 16.366963496411074 -8.984818928867133 -50.29448144483914 0.06900068044284403 17.770649602355707
2.44039 -11.040498762226933 81.40490418185416 0.6360421640774063 24.058042139009636 -4.252726328573148 -8.283254962109375 -12.734442105469963 -2.814422829875163
2.48038 -6.84765191855793 -169.39161768739334 -16.992215805899377 -18.879766647185807 4.607326965770248 -0.9780893546396393 -10.975342910680606 3.0076318229101964
2.52037 -22.819842697116634 -104.1373019071873 2.797700628259105 116.55913465171712 2.6491795115684575 -60.00746646578316 -7.650804855985056 132.76238120648722
2.56036 -5.880557077914896 -11.823905480234112 -4.42030458535839 -2.1612891406248766 -5.4694695673531815 139.61028969380615 -7.5442695041311865 -138.44526287200904
2.60035 -13.02404706242646 -19.963224560470916 -8.55573048889967 -90.98538123280987 -5.539858502168078 20.478369559414823 -21.06362572390453 26.961735329664513
2.64034 -3.176892881338722 -158.80920457083704 -14.639349326850828 159.94814850548934 12.475275604326976 -125.953178083288 -9.882008039695016 55.1917553845953
2.68033 -3.472288160986702 19.01978779165954 6.0821913381875605 -12.88548657431378 -11.023681237315815 -43.079378944298895 -13.331964734458332 -148.3496179639981
2.72032 -9.871363276266992 25.948418654515038 -12.26260453622702 -6.649319634260877 -4.711536064823339 -52.16184296296412 -8.53495057485351 72.20919997637859
2.76031 -13.37976529597433 -116.50079425604815 -7.566135578090231 24.749846686914033 -10.305850356722843 -69.09604083407908 -3.3298283186569275 -43.93699505877799
2.8003 -19.813206620653638 -26.739515502321137 -12.219281970588229 -5.664778221471543 -12.521038800948423 -9.078486518819592 -6.071789165038108 178.5150807915461
2.84029 -17.35285370332896 -119.89202681811247 -9.280118578024155 -20.086941668964897 -10.033119129881705 15.639471531466146 -20.149051023703656 -168.16395112617536
2.88028 -5.118168389382134 -60.153647532568975 -6.236281136716441 -7.976459942527508 -11.827106190410642 -0.23187592935420093 -9.614973388965893 129.61285409845064
2.92027 -9.809351199097456 139.34124699212688 -10.57970097789168 -33.89842905604225 -11.984118232530845 21.981210777465506 -4.287292989273429 146.14464341046855
2.96026 -5.762691754097671 -155.50555227526536 -12.03612456400231 1.2225443921139156 -11.358334300728643 -4.0840641658851675 -14.648415655540061 139.14257602680553
3.00025 -10.9125423477926 -140.75976258895665 -24.603344761005566 5.3306623648551925 -9.840435275829051 12.864326174067523 -0.39978337444943635 81.09395788422046
3.04024 15.60606126535967 -97.54076144127941 5.061004721730854 -71.69433210897188 -5.180401722468827 -78.86785395858936 -4.7667823713414545 -144.6701780703184
3.08023 -7.43635647895746 141.36104087296923 -12.807338021947004 8.505623362333312 -12.445577286160628 2.1525922642212225 -15.500476795163555 148.9559893599804
3.12022 -16.42596004027687 156.78085750064832 -10.14119446862082 -7.002649427512561 -11.125753225779814 9.537283172524457 -7.256712723682948 173.09880331188458
3.16021 0.3318195739961335 91.54131822780434 -8.117190904725728 27.588784996491324 -12.388016619034703 28.87525465959811 -14.366039702248711 168.51146916044857
3.2002 -25.61480584847046 -44.47011766821952 -8.052892130128992 -1.174242523387342 -11.327353064568007 -11.773901478178024 -17.63443883242821 98.60450892760774
3.24019 -8.749753028407463 -160.74696979680675 -14.312756830947396 1.1817201329263896 -12.019394088465623 37.2973519446085 0.5288342576490604 132.1169426771644
3.28018 -5.345850862839986 128.5849733995959 -14.004681074344818 20.762745421067574 -11.386531070941459 1.0108453055199491 -12.129414592065082 -167.76481915339016
3.32017 -2.8348244235784286 172.47725092176367 -15.061024379953976 -1.4166034214699303 -13.524949552807081 -31.870477908326095 -2.1370503712283933 -148.1348926160608
3.36016 -5.7221280622241 -34.825563526373905 -12.03336365048032 -54.33577337276363 -11.042221362577864 -5.689296560660559 -0.9680663989068206 141.44709302950903
3.40015 -21.369771885691762 127.8180621120319 -12.393511090605646 16.532519168698453 -7.788879817642737 19.90478514343021 -3.8372384130974613 83.92227568814351
3.44014 -9.25765555001534 -154.65091350549017 -9.2868883760657 0.6254641961546841 -10.218377648703342 -37.56512652107663 1.803152831010793 -103.06325897801412
3.48013 -7.80880546772218 154.59286381462366 -16.62139406604151 35.62146775442689 -11.391716252959654 -8.880096110517592 -13.12678379305678 -179.96775006866332
3.52012 0.5457216894447717 143.95258718181157 -14.484819749403544 13.626052879325876 -10.905343496067818 -7.498633229809662 -11.398131988392233 -145.63055334260565
3.56011 -9.24589458892081 162.0987969362631 -8.38970427646255 -11.15101362716829 -14.449197014181001 11.562073234997602 -4.4211908481361215 163.0013974911592
3.6001 -16.502777832678387 -163.98600549249218 -31.76395517440827 -106.99401468966703 -9.061692693583609 -90.94056754178482 -11.200916592530806 -179.85924104658073
3.64009 -0.22968483311863058 179.7352052086897 -10.653919315028746 -32.87576509478648 -16.54739924465584 -12.493927969817848 -15.576785653913714 -145.61461514296988
3.68008 -8.130935662001237 172.9826771013952 -11.410763210407005 -5.024932223751474 -10.841380313134724 7.8321111968892545 -22.817741369324665 -142.9445062367385
3.72007 -13.338424607189785 -153.41360597976845 -8.56211326702886 -0.15829192279384718 -9.55168326615513 18.01074523414948 -14.853824153410159 -136.05171903771506
3.76006 -1.975732511354986 -177.02898720152191 -14.166779360919449 -0.1595810311322343 -12.373709692477844 19.903463815096657 -12.837427078267341 141.9238386785509
3.80005 -4.483670604432422 -138.79371450632425 -7.024038023453913 -14.999111272196025 -12.401781599432768 0.9860010615069552 -10.817689861985901 150.6883800190178
3.84004 -11.754479743201344 152.3514031716062 -12.325373154735946 -15.84438970167466 -8.561638158216697 2.9568381432993545 -7.164311013619686 131.63402332183117
3.88003 -1.6925019722458479 141.52887570371743 -10.72809938380612 8.302716125302185 -11.03887492534165 -0.8323030884325437 -5.825324816924146 135.98355434977694
3.92002 -9.820080544034454 138.0485215074771 -11.678887339523971 -17.927388480449963 -10.129428458716262 -18.71726154332469 -13.884014335745762 -109.41943646303383
3.96001 -1.3755700770769268 -167.63759156910808 -14.593232968758906 -6.969675496001731 -9.823994595576801 -20.390710724873024 -11.626250443423205 -172.9920257716752
4.0 -18.445785635910216 117.3027064386013 -12.585574401079986 4.576445199194626 -13.093853750052563 -21.26756315363988 -6.513480115670379 -146.35024920725473
