! PocketVna 1.81  pocketvna.com
! Live measurements ((Reflection-S11, Transmission-S21, Transmission-S12, Reflection-S22) Linear 10000000-4000000000/101 non-calibrated)
# GHz S MA R 50
! GHz                   |S11|                     <S11                     |S21|                     <S21                   |S12|                     <S12                     |S22|                     <S22                   
0.01                    0.00073598349810738276    116.96348333754717       1.6767276298827531e-5     -52.692194329521435      2.0057344902406644e-5     -113.32714389551175    0.0007076013275105563     116.00116375774894     
0.0499                  0.0035607434062379477     -19.503018259082008      1.999951509895221e-5      -79.937615313995281      1.9944135487100039e-5     -37.242332090801312    0.0025849647089470976     -24.367582065490009    
0.089800000000000005    0.0027381122908492019     -133.11573737811383      7.1996514326819325e-6     48.524028583874212       8.9369116410346353e-6     -16.516235099880724    0.0024312102108328612     -120.65446671741519    
0.12970000000000001     0.00063313791745428082    -152.33007723603797      1.9457768593935516e-5     -5.6254550685984919      1.3755188368660799e-5     -71.133230936271374    0.0010698322634756729     -150.17043681200053    
0.1696                  0.0018389488810869577     -129.07843232241885      1.2528899521854514e-5     171.24347590022833       1.2801983823933626e-5     97.120880365402655     0.0032825404104745368     -161.29177655644378    
0.20949999999999999     0.0038421507837416739     -176.48929163415414      2.0886008082761744e-5     73.226363501748978       1.2329450302284627e-5     55.512875329290004     0.003379565889998879      102.90418183743728     
0.24940000000000001     0.0051689428934876477     85.229060901022777       2.9335467800590856e-5     170.04006943669137       2.2721819325226904e-5     -146.97692005836097    0.002295180094771272      46.552613422512557     
0.2893                  0.0027092041094677736     12.446669453398716       2.9421082434269472e-5     136.32363257151496       2.8562632300612224e-5     118.56394077536436     0.0015476532344065879     11.28694234769978      
0.32919999999999999     0.00083128021058663526    -22.71585548743797       1.3297349490912535e-5     130.15906664556613       1.1391126375046282e-5     149.84606930062017     0.001133161900221921      -1.236497019589192     
0.36909999999999998     0.00042351690834128796    70.328547285513878       1.1083118673628699e-5     -152.71146871416994      5.02081243064159e-6       -71.48439081809795     0.001255018718742604      -9.3622266198419357    
0.40899999999999997     0.0014354922474021118     46.953875072479583       5.1700158033666097e-6     79.370200287068243       1.3533290053003862e-5     -129.28052930144452    0.0015910993204543672     -49.280904943863682    
0.44890000000000002     0.0022766604646240855     -2.5818897355562362      1.9639019582879405e-5     145.52618136848034       1.2719016175620389e-5     92.854024974670409     0.0015662763864199723     -107.7147469988479     
0.48880000000000001     0.0023915890608630242     -72.738965456740289      2.0531638640099927e-5     121.72328140728438       3.3003896504050496e-5     78.910756779374779     0.0007667082902510651     -147.34292133399924    
0.52869999999999995     0.0015854941645134862     -129.73510759652888      1.0814889232479755e-5     -176.60340684476233      1.2928646682008004e-5     155.34016573457464     0.00090287499153907515    -121.78972673720864    
0.56859999999999999     0.00066287822672204803    -147.36057912018416      2.927382420034608e-5      -155.66586953870288      2.8054954221418454e-5     174.80419349183478     0.0017397365542122535     -176.17004379852122    
0.60850000000000004     0.0010623991581674773     -119.50689991729259      2.6650043590902413e-5     -164.81372105481233      1.2092879894233513e-5     -166.3147872505269     0.00172268411889804       123.61955230135472     
0.64839999999999998     0.0022538603874360319     -148.50888647999821      3.05761924292456e-5       -105.0555253136697       2.2205530220483816e-5     -73.389141009454093    0.0017079873203940388     76.563100447852719     
0.68830000000000002     0.0037399128675745675     147.87240279081877       2.7238500355283186e-5     -53.531313575054739      2.4846731212953826e-5     -116.55736768785046    0.001606868586442765      30.821833975626625     
0.72819999999999996     0.0044545364425952663     57.68847873987378        9.8676098116639378e-6     -56.861874742111667      1.4378062794488995e-5     173.66308698252791     0.0014042690967157785     -4.9811041624004311    
0.7681                  0.0017236409632677952     -24.289120534297226      1.4257758157468403e-5     16.796749345504367       2.0672740533925381e-5     10.633608817648758     0.001407204331161864      -59.96983006044784     
0.80800000000000005     0.00021235644830422572    -29.860824119116682      4.3203218065672602e-6     -53.97989119955546       7.8551665924860916e-6     -103.99670187343594    0.0014560139094878298     -118.49875274296308    
0.84789999999999999     0.0010669436253066531     29.349602223035724       6.6989835340538556e-6     -95.488665043857154      4.2649611997600361e-6     116.56505117707799     0.00095750780461911918    -161.0962735008473     
0.88780000000000003     0.0018912041921690015     -10.476031033332539      4.3203218065672602e-6     143.97989119955545       7.1358750053052491e-6     69.142879888244366     0.00081778714376468066    -168.73797813597972    
0.92769999999999997     0.002369402233626589      -67.214866739110661      1.0555621728923041e-5     74.315694170588756       8.6406436131345203e-6     -143.97989119955545    0.0009352246034398593     152.3472663624122      
0.96760000000000002     0.0021348216882675552     -125.64274663779329      9.718302112426004e-6      168.68145291478126       4.6248185012781549e-6     -74.105319535721947    0.00075438035868262757    109.47217740391943     
1.0075000000000001      0.0010276231333632665     -157.35680807840779      1.0950115540444669e-5     60.487221190426553       4.1316341377931549e-6     67.411926298253462     0.00072030207737766843    98.261689393082889     
1.0474000000000001      0.00064898091801389045    -120.78134507304178      2.1247783582840674e-5     99.465625129536534       1.1931925131410594e-5     64.795067934209953     0.0011511607555363442     79.173410698112235     
1.0872999999999999      0.0013407209280978764     -114.21604394376517      2.3257100410471426e-5     85.295806393746361       4.1400363053866232e-6     -4.4382469494860697    0.0015353083301513546     46.768183693929878     
1.1272                  0.0020972999312405573     -83.506579915611724      2.2758557931035869e-5     67.010759939234177       2.2422163019460363e-6     -8.0224036473274953    0.0014716708554800243     63.197165840680753     
1.1671                  0.003173454306198743      -134.1365756837393       3.6980106987572151e-5     60.129118591372311       2.5728303664194381e-5     65.973493421320796     0.0013201533034579982     31.817034841459151     
1.2070000000000001      0.0025033785198444792     150.10192230568751       1.8693922448923407e-5     69.101846620583586       1.3402675046603473e-5     36.34116574594524      0.0012787643405238313     9.9370475837425918     
1.2468999999999999      0.00070947678084730718    67.475109934626687       1.3662057133645941e-5     54.455057623366557       2.5514645697709717e-5     -16.646360274969169    0.0014760269481201261     -22.687318435429678    
1.2867999999999999      0.00064338723242743454    -129.83453984461769      1.8413043876985315e-5     -54.103874526653527      8.7778970323438053e-6     -77.4500927596671      0.0015904869380023144     -71.963120746716001    
1.3267                  0.0013316355634440849     168.6553006355972        2.8182146853441454e-5     -112.52431963729944      1.5257299237447341e-5     -102.00682024025825    0.001478085810151006      -115.66231445640611    
1.3666                  0.0018659662990351844     98.710731788853096       2.3604489397418214e-5     -174.58452997374661      1.5788286592763968e-5     -149.82919796067219    0.0012734619876526355     -145.16489839547822    
1.4065000000000001      0.0020558437480215908     31.426632298476612       2.030571919221305e-5      153.03066959224904       1.8100295808086901e-5     88.985812597314236     0.0014480050364699775     -170.58507805147985    
1.4463999999999999      0.0010730212951306013     -51.861855797730485      1.1818438703718609e-5     -83.811384036758412      3.7029610432646277e-6     58.996701873435939     0.001747934119164001      134.47742619415897     
1.4863                  0.00016764723782468786    -69.95358685603469       1.0254784368686208e-5     158.20632065115029       1.5396130403703819e-5     104.34558387272331     0.001956066051042084      82.876066411954483     
1.5262                  0.00062743501660412582    -9.4957659102411522      2.0229052156085558e-5     157.86550205228193       1.8375350779183226e-5     108.11905017506061     0.0019237188437678792     54.770175224710322     
1.5661                  0.0010462583035354028     -51.50599375994674       9.404368266847027e-6      168.2983684856334        1.1642852350720692e-5     154.12364568733429     0.0019742734257838642     37.439486324391112     
1.6060000000000001      0.0014661296905390437     -96.591089301100382      3.1390216532015689e-5     128.85308015829867       1.326150186550168e-5      106.68382805304049     0.0021930193203606317     18.128029209262561     
1.6458999999999999      0.0016401602177650793     -152.81489034839618      3.3973163909056908e-5     52.592294795895882       2.9350667450138814e-5     58.726944049307505     0.0022581697980468165     -11.550024420166361    
1.6858                  0.0010583182353416396     110.25635405558539       2.1598220526277576e-5     24.301643918310663       1.3694331308367674e-5     -45.94786216124438     0.0019077584672519115     -39.638168975057553    
1.7257                  0.00070351209443350821    -2.2499630830620041      1.4737400972258517e-5     -37.130594540224827      1.8637583803393416e-5     98.807111491372353     0.0016247627923494613     -56.073904605389799    
1.7656000000000001      0.00089650970141275739    -85.551481068955255      6.5103623461110756e-6     -133.00589176499815      4.5771191263696823e-6     56.284065306697251     0.0016759043462148547     -68.680397744544734    
1.8055000000000001      0.0010370017372314478     -139.43326464325483      3.0703886934777007e-5     -100.72641482226179      9.5529605812915173e-6     15.423646742867581     0.0019323862535484508     -87.928501109523992    
1.8453999999999999      0.00089920805988295436    160.89337725717627       3.2393864940669665e-5     -91.120202600660065      1.21224884477429e-5       45.024900380663148     0.0020604644482780658     -109.26421426383152    
1.8853                  0.00071060805882265611    77.038207863220975       2.8966901110561247e-5     -80.540100548939961      2.4831640579538754e-5     -94.405297896620226    0.0021139614244359427     -127.97839845823313    
1.9252                  0.00049386294026694229    -29.630806015650879      1.2086031373955403e-5     -66.801409486351815      2.5476088919543744e-5     -79.961929409570473    0.0021516082335618987     -148.48678421555525    
1.9651000000000001      0.00065802802952852726    -124.20340652798342      1.2860867559658467e-5     -110.19863110637482      1.6448296997337465e-5     -10.017000391161572    0.0021167616868825825     -173.82583655085477    
2.0049999999999999      0.00063708431037811644    177.80031188487072       1.6905513495796849e-5     -95.386465754635353      1.8012639588391417e-5     -104.27190896878729    0.0020106364177636211     157.72803863519516     
2.0449000000000002      0.00046774315402222408    116.61729444526762       1.8036716921378395e-5     -153.900671855703        2.7968372073829155e-5     -140.53447081323034    0.0019450319968876268     126.06163045037924     
2.0848                  0.00013026035521743803    24.939482581178058       1.1337933110512613e-5     -162.08893813511958      2.2605121695530214e-5     -169.4789504426229     0.0018827185305178497     94.148877919503065     
2.1246999999999998      0.00067038569401710031    -164.95643824469158      1.008680117891989e-5      118.21189850746788       2.3860320052806586e-5     146.94013085953131     0.0017513181030326679     63.941302632734526     
2.1646000000000001      0.0012154588441338273     108.03256140218959       1.2928646682008004e-5     24.659834265425353       2.1423736087410559e-5     78.037453012689923     0.0015950774133971449     33.66772533218456      
2.2044999999999999      0.0012824326296292969     38.657780800747027       1.9903957978631849e-5     123.95179891748309       9.027795060792759e-6      -10.076459688890189    0.001416869796925917      4.910688285971311      
2.2444000000000002      0.00086667686100154635    -13.603785621537073      3.6086349301720347e-5     21.155565932433632       1.2656168164652771e-5     72.493052838605138     0.0014570365624647691     -25.174598408293019    
2.2843                  0.00044089752618260789    -49.000157104485034      3.2859809091757241e-5     -34.767457227002126      2.9465809495015558e-5     52.892506167786813     0.0016294002574801863     -61.597126238815406    
2.3241999999999998      0.00033786281804056533    -2.5859816373699966      1.0516277432650462e-5     -115.02179809883049      2.0410158074615134e-5     -15.324826026720098    0.0015971721816831971     -100.74675233444567    
2.3641000000000001      0.00080022880571884076    -16.054503649523632      6.9885413395058915e-6     2.6275252650446794       2.6417657590575971e-5     -152.81344985981107    0.001224536490371907      -127.71091689029366    
2.4039999999999999      0.0011638126726113789     -65.000723098709187      1.9053828201840355e-5     -90.963428359030672      1.3538008377073652e-5     -39.304937179897038    0.0010855629510084642     -148.11362287412956    
2.4439000000000002      0.001429871778494908      -120.57979934566805      1.2511940813551155e-5     -125.7439194967112       1.9637008372166027e-5     -75.969028988073461    0.0010336334645120596     174.07575517614083     
2.4838                  0.0012534397357738774     -168.91482223488288      2.0020712415054905e-5     -152.61485885299138      4.0052929824617986e-5     -154.64571281698019    0.00081058431987910122    122.08359240347139     
2.5236999999999998      0.0010482983462970696     144.20636356266701       2.4525737192298694e-5     111.24870304454593       3.1399820247298491e-5     151.6228192138374      0.00047865308686017205    108.92765742328658     
2.5636000000000001      0.0010544574094215082     114.70515925569696       1.3576382870131319e-5     79.214231275028652       2.5567062208007894e-5     83.574991238823841     0.00072000239494308699    93.23596990143848      
2.6034999999999999      0.0014350042337405178     85.73643256861223        1.0518837238838127e-5     174.79822265322468       1.4304571464275471e-5     177.43267004951232     0.00099845332344436857    54.030213642253507     
2.6434000000000002      0.00178515653666825       44.718799920028388       2.6313363283876963e-5     107.56790775601293       2.1765422300003424e-5     113.20374115904181     0.001022618777446376      23.436864089062617     
2.6833                  0.0012948448006744127     13.702250358986364       9.8121657245811345e-6     119.07573241861252       6.8374453489367555e-6     -21.813003128345155    0.00080136254406114067    3.9077289455475519     
2.7231999999999998      0.0011574159943604709     82.258754044343789       7.4864034449562106e-5     -34.629517698373576      4.2229891480613774e-5     -0.010108641305327494  0.00090133077636678986    76.30652865769936      
2.7631000000000001      0.0014100455079628729     71.161229348416029       6.4025395088586966e-5     -145.91419604311221      5.7510336178014236e-5     -63.43494882292201     0.0013308420556718144     54.918397899885527     
2.8029999999999999      0.0023186102314140238     39.186783937939282       5.1340857243345401e-5     146.60280832919179       5.0459053104721886e-5     -139.59324175981823    0.0018729272820822835     13.939558849294105     
2.8429000000000002      0.0035237694263680992     3.9214939197586651       3.6904545049501055e-5     111.7068975266901        4.3638296703234164e-5     158.67453055671774     0.0020647053462296756     -13.27336052614411     
2.8828                  0.0043324122798837402     -32.802575523103059      2.1384015195225914e-5     108.16980938239121       3.5385362073169028e-5     170.70625846991084     0.0024769764203162923     -29.302129269565985    
2.9226999999999999      0.0043878085244877666     -67.703571308156896      2.6085735043844894e-5     58.430020946615656       5.2815334442116736e-5     109.30911836494559     0.0034680577258818326     -54.084889865738873    
2.9626000000000001      0.0042898464702406346     -44.400198737395975      1.3653222994905037e-5     88.655422361375187       4.61299525299557e-5       76.055778035528093     0.0041689450794540174     -38.307556848387392    
3.0024999999999999      0.0045152897368101741     -66.106280695445278      1.7490493046507e-5        29.360412588131656       4.8029330899015698e-5     3.4061268856902838     0.0043638962072471196     -68.813947295031454    
3.0424000000000002      0.0052732897580508101     -89.368637441816063      2.6795571599230049e-5     -31.422768693737133      6.6468727844835469e-5     -43.837346895814697    0.0045555347190890287     -94.461225265108197    
3.0823                  0.0057995227540943743     -118.95622876789486      2.3863850262821188e-5     -115.20493206579005      0.00010098533019667943    -125.78682035490489    0.004721958509316765      -120.61224167823369    
3.1221999999999999      0.006580153402983244      -162.39217256681761      3.197461172765703e-5      55.528607494175226       0.00013603058181173685    131.87851411278521     0.0055016858760500841     -156.34946071174184    
3.1621000000000001      0.0064158410494799594     164.36733104597872       6.8277234413912947e-5     -70.718805648500947      8.9158496768339317e-5     40.665691154181999     0.0064316701520450619     169.87783923061036     
3.202                   0.0054889055519675876     144.98980223937011       0.0001062293636067329     -161.34774837760247      4.1486589661153844e-5     -61.663004905687252    0.0057033834771027117     142.31863313313116     
3.2418999999999998      0.0060588677691887395     109.43384810747496       9.8299806243503724e-5     131.46331614692164       2.6427705097765171e-5     106.03858494238199     0.0058511136871055606     104.33643995324779     
3.2818000000000001      0.0069076496244300225     82.063176887914423       5.9722084339936844e-5     45                       8.4695793564970858e-5     -24.355522563319848    0.0063404739174101931     79.179042682937876     
3.3216999999999999      0.0068257526546919318     45.457977214557737       2.2306775768486348e-5     -85.094915004663122      0.00011972798739373141    -91.215917321166884    0.006275310740081824      44.116476809089406     
3.3616000000000001      0.0076352313819319307     2.443006731395156        5.7438385778904577e-5     95.709853617648463       0.00012815441950244974    -170.44567780453696    0.0072656976259578929     3.4724731054588558     
3.4015                  0.0078126625819863703     -26.559846326296189      7.4330039122497005e-5     9.345245766600712        9.6931993434449e-5        151.00185925516587     0.0078322209074378861     -27.136359519304428    
3.4413999999999998      0.0075212347155140654     -51.413497371981734      8.3796298732481333e-5     -40.384138541483701      8.9723694097400725e-5     104.96635549348872     0.0076171104033743537     -55.337526573476573    
