! PocketVna 1.81  pocketvna.com
! Live measurements ((Reflection-S11, Transmission-S21, Transmission-S12, Reflection-S22) Linear 10000000-4000000000/101 non-calibrated)
# GHz S MA R 50
! GHz                   |S11|                     <S11                   |S21|                     <S21                   |S12|                     <S12                   |S22|                     <S22                   
0.01                    0.0007078040926464139     112.99973700062071     8.159151188333621e-6      -76.534791905188285    2.4887242298067346e-5     -113.29543850974244    0.00068603460312947244    113.39689081503982     
0.0499                  0.002184662801205519      -14.038376102221118    2.4944144379144477e-5     -31.453903643610339    7.7781099698345767e-6     -11.772766389090661    0.0020875243371456759     -20.179604671501711    
0.089800000000000005    0.0024429636303156636     -87.735636093209777    1.5239805193850989e-5     1.2045748266394389     3.1318770552353366e-6     65.995992351882379     0.0023989128637716627     -98.463804695209603    
0.12970000000000001     0.0025378226138608861     -136.94151056869003    2.3628667982497649e-5     30.697295277801118     1.0548448756793798e-5     15.695246129311792     0.0024698531744113288     -150.70660835005242    
0.1696                  0.0023557027435023112     179.59063360573009     7.3370516888305273e-6     84.989936759425973     1.922505204888332e-5      22.32095395206899      0.0022630219528317684     158.53612976828421     
0.20949999999999999     0.0021328952986208083     140.99382763605257     1.8637583803393416e-5     171.19288850862762     1.0207241033840789e-5     95.361029964671644     0.0021861688232093271     113.4412465425515      
0.24940000000000001     0.0020478213132349718     91.892526636993637     2.5368145973574172e-5     134.4883378969285      2.4656980289606131e-5     145.48880201445724     0.0021933195332150012     61.94358725184329      
0.2893                  0.0018749485353510024     56.234661401855504     2.1705637212925616e-5     174.12893682917993     1.4930913325114036e-5     156.15943528479332     0.0019069325065008424     21.601125554482536     
0.32919999999999999     0.0015925389860942617     36.650682355833467     1.8935830511225778e-5     -124.7593145117082     1.5006869477712703e-5     173.95823743503806     0.0015236075523688711     -6.0291415190797943    
0.36909999999999998     0.0013342260803842613     19.215455082576202     1.2079103143036772e-5     176.99464240947705     1.7087969539848468e-5     -138.0220718863151     0.0012702068363716827     -31.798941387537013    
0.40899999999999997     0.001175558005337066      -2.4457338641971704    1.2402674733873941e-5     166.69838458083245     6.5465127508147642e-6     -50.912467245964415    0.0011053028372136385     -60.842723536867055    
0.44890000000000002     0.0011177784775978224     -25.022084636054192    8.98254863385661e-6       -135.03360455891101    1.2773339781179365e-5     55.0955921450837       0.0010711630763480537     -88.929894257110661    
0.48880000000000001     0.0011785805980865827     -52.200718105071822    8.9440550556581147e-6     163.49733350892674     1.6522915249289093e-5     87.7775426384773       0.0011470125544614806     -118.05486346097067    
0.52869999999999995     0.0013403421835177596     -83.716645308826585    7.3085942397376672e-6     87.487612999786379     1.9436405731089115e-5     94.683387889755835     0.0012298604145703016     -148.34124314349336    
0.56859999999999999     0.0016156556590052351     -119.97107647789498    2.4968730921452024e-5     -131.39500944242405    7.528353621542827e-6      152.34445700179853     0.0013391304224663662     171.12061052234807     
0.60850000000000004     0.0018608802256875818     -150.78038003450723    3.0015341525784849e-5     -169.64681448225818    2.2879325826688268e-5     -166.34388249881758    0.0014428182027810344     128.9885739499237      
0.64839999999999998     0.001966428225857218      172.99779496467642     3.2940472860475283e-5     -116.31583986994697    2.4767802038234334e-5     -90.741149549295301    0.0016655984445746483     83.498168473247617     
0.68830000000000002     0.0019701215213987619     122.38123559834085     3.0639853921507116e-5     -79.845938108990481    1.7973357879794798e-5     -58.009722454501677    0.00178199983060961       35.448760070759064     
0.72819999999999996     0.0019454442246169084     79.999735884211844     2.4765729904174805e-5     -90                    3.3141267903652501e-6     -163.2760805825564     0.001574011134607446      -10.131403520279648    
0.7681                  0.0017433940005581892     35.122749266845418     4.8554982734701239e-6     -78.672825341874017    6.0731784311997261e-6     -42.912016167276661    0.0013295874744293789     -70.859702099032731    
0.80800000000000005     0.0014466914948345598     0.6539070284424866     5.9072533322685779e-6     36.176138056959516     3.5512471617200261e-6     -10.272591388942235    0.0011960558934722733     -116.84390133283596    
0.84789999999999999     0.0012264292146721208     -26.691138269350557    1.0968843845749787e-5     67.895058698875275     3.3684865082517439e-6     -138.76638797096678    0.0010120202717317623     -150.24203872932975    
0.88780000000000003     0.001154943508702058      -46.994046900482559    4.2649611997600361e-6     116.56505117707799     3.8607884939690311e-6     -99.55321010690696     0.00085877882794161786    -176.62980303096407    
0.92769999999999997     0.0011750555828478231     -68.572261849111868    5.6564089522558455e-6     -38.152987793301698    9.6800476692382201e-6     48.963422701277942     0.00081315596169985655    155.96736403712032     
0.96760000000000002     0.0012792583416618944     -94.227458853526642    1.3025807675776969e-5     43.029857674503241     1.3343224385019509e-5     51.779882128758089     0.00083326316983827224    121.9821951998146      
1.0075000000000001      0.0014367996059581035     -115.56833245210137    1.4379215203882085e-5     133.19435275636295     7.6469711881223267e-6     -41.642811248377456    0.00095038287517602502    89.349133568541916     
1.0474000000000001      0.0015549138031458562     -131.40702722312187    1.5347534143425617e-5     65.537629541788348     1.1020977797258778e-5     41.492005024266163     0.0011116536358090994     65.623897556475029     
1.0872999999999999      0.0016287551700113327     -145.92597165134404    2.7923560461154364e-5     72.788245530615967     1.1426232362618137e-5     -1.6067010372782315    0.0012487818286944813     44.691323065068275     
1.1272                  0.0016549795410386176     -111.99319508874036    3.1641395644743547e-5     79.594996734711458     1.1941839761545866e-5     64.777947432873461     0.0013231679472085467     71.721656564475396     
1.1671                  0.0015894908758754787     -141.57817881586595    4.1055650143083052e-5     86.004021239016964     2.4702208675742774e-5     43.949043428135091     0.0014745328873269781     38.706377974474954     
1.2070000000000001      0.0013509025962179337     -168.35175532771697    2.3216394099427675e-5     40.000974439523866     2.0447250733791618e-5     43.095273888384853     0.0014518635310793767     4.5784582997713015     
1.2468999999999999      0.0010423024813424923     170.01854503196012     2.2498425592631822e-5     16.3884695650145       9.5947771580724691e-6     -34.208343878616979    0.0013729879085672041     -31.16814026110038     
1.2867999999999999      0.00084534082604166701    145.83835044219316     2.6616749484816183e-5     -35.785645352357463    1.6985462647785554e-5     -20.811959567516332    0.0013701195840859627     -70.238072447173849    
1.3267                  0.00079000326331930728    121.60792704883286     2.0880743616144562e-5     -81.256946401079816    1.8004655986102812e-5     -99.119307828816616    0.0014435479818799286     -106.10288117066135    
1.3666                  0.00090208379182452189    88.426808990445963     2.7729808847580864e-5     166.76653198151567     2.315992335667698e-6      -105.86944042684107    0.0015157054965495343     -142.83229241659032    
1.4065000000000001      0.0010467342690805587     53.4115858970601       1.8428720054121949e-5     91.969345970040436     5.6228194553983983e-6     163.60617522871055     0.0015574195565210126     -178.82019541522538    
1.4463999999999999      0.0010529724342696538     8.6014488602069505     1.4089646779318344e-5     67.489673709470381     1.0837278624936665e-5     174.99101676205558     0.0015918221635997452     128.47234457910253     
1.4863                  0.00093111139621210564    -31.288644994641508    4.5402410127625866e-6     167.97091140943471     1.1538842403246206e-5     -172.09487306884381    0.0018008233186378624     86.178514021169988     
1.5262                  0.00089450012147938352    -65.326887337360276    1.6994160253701077e-5     147.18779983301886     5.8313824279705681e-6     119.38167995266707     0.0019964281870868293     58.289019418992481     
1.5661                  0.00088863707720538462    -93.974519354630772    1.4489149661267081e-5     127.87756768480921     1.6279825490289309e-5     110.54990715334597     0.0021143047566220589     35.353501509226277     
1.6060000000000001      0.00077320144723842246    -118.20622588502987    8.5738800536344342e-6     92.091611886456661     2.5512512375540212e-5     106.63032906389687     0.0021208153076528223     13.568018935875886     
1.6458999999999999      0.00054349596972673984    -143.83969255571358    2.2261569305679939e-5     93.280880772609407     1.2381145640393711e-5     67.385439479988023     0.002050882654143194      -10.255585060356273    
1.6858                  0.00027591284148825246    -153.99472094273602    7.6813751560947694e-6     7.1319094888484589     9.9649029604931399e-6     22.461689849984371     0.0018996985732950115     -33.520171639170577    
1.7257                  0.00017975221661203051    -121.05050839421395    2.2470818916119961e-5     -23.300864207106819    1.2351008830903574e-5     133.9734789865752      0.0017944403459305232     -54.622581002280278    
1.7656000000000001      0.00031387088612294439    -112.54370092585015    2.2450572555266419e-5     -118.74248435065793    1.2921875961653728e-5     114.67361786988666     0.0017746889132836897     -73.387062603171785    
1.8055000000000001      0.00041624231443537844    -133.1765657391588     2.7034900625685089e-5     -102.89875110416445    1.1446722965739477e-5     -86.828444535024701    0.0018634897440612506     -91.054511295390597    
1.8453999999999999      0.00040364551067560749    -161.13763839627757    3.0175543117836876e-5     -98.462213286451657    4.5833183835174212e-6     -56.335764654196446    0.0019771336421053054     -108.18177554635866    
1.8853                  0.0003232471108008246     168.32565906749264     1.7810311758846976e-5     -78.685366912362227    7.3015689849853516e-6     -90                    0.0021208055864176656     -126.82013993272932    
1.9252                  0.00018108816940267891    132.86755182064351     1.5948887968799097e-5     -95.710593137499643    1.5772822813105625e-5     -49.886017444902677    0.002183116331000161      -148.39739127269576    
1.9651000000000001      3.0514598474894682e-5     167.99317975974179     1.626901279412698e-5      -107.01591724834206    1.297077608382776e-5      -68.43082813476326     0.0021425842683891164     -173.91776398945109    
2.0049999999999999      0.00020132772499554611    -130.52447959855522    6.8605122529228964e-6     -123.70732529037146    1.6522627997032722e-5     -87.803359701630669    0.0020295555689739584     156.88846257446843     
2.0449000000000002      0.00038348971624503657    -156.42722301386877    1.6707991360829546e-5     -141.1726023680429     1.9947976115516114e-5     -103.8078712468803     0.0019524248681878488     125.11412673351879     
2.0848                  0.00051448274539668895    169.07849595388632     2.300654599148675e-5      -173.65980825409011    2.5406479835510254e-5     -143.13010235415598    0.0018906558006745752     94.141164189633344     
2.1246999999999998      0.00062276784020166398    127.64682978947124     1.3054135877876673e-5     -138.93404971402839    3.1072030702267521e-5     -168.80053656191569    0.0017453800746149489     64.03162725319028      
2.1646000000000001      0.00074785562120395976    83.246478174676014     1.357079437100423e-5      106.32563380264581     1.109038880819391e-5      113.6029294576409      0.0015684896214783911     34.317132155307242     
2.2044999999999999      0.00078395114111509288    43.835165966077618     1.1781844121473434e-5     -14.053818859863906    2.453538183682493e-5      21.258613400406446     0.0014643160354865534     4.5894508170729518     
2.2444000000000002      0.00070935833985332787    8.935490458018057      1.8699753590044948e-5     40.200163886095304     2.5137004625971007e-5     26.24606948600572      0.001447829936289508      -28.217343181238828    
2.2843                  0.00061110989374932594    -14.779686643941202    1.6538006607885263e-5     -3.3058302315497028    1.3566085404048793e-5     20.544996345352661     0.0015305599777230097     -61.393279905630898    
2.3241999999999998      0.00057553937091681616    -27.14521405998503     9.4672988791904577e-6     -103.6097318958122     1.6095082137251167e-5     -14.859660812398731    0.0015736989237806549     -94.037841140879408    
2.3641000000000001      0.00067983120895586042    -40.587468591572225    4.7609210014343262e-6     -90                    2.2940913564366982e-5     -41.642811248377456    0.0014729000782235933     -126.08177408411299    
2.4039999999999999      0.00087947888093592485    -71.846250679037638    1.4002352864756827e-5     -93.905332679397944    2.5029592058300078e-5     -105.45107509945862    0.0011299700449074637     -160.51595799829772    
2.4439000000000002      0.001120771530321582      -110.51431889654074    1.1931925131410594e-5     -115.20493206579005    3.4225639079375999e-5     -115.85105252617281    0.00078928049556573358    166.38824842855979     
2.4838                  0.0013116357521363957     -155.33342375978182    2.1641197314389415e-5     157.57587463889922     2.6779308323773751e-5     -169.7593145117082     0.00067229660998494652    139.53954862996824     
2.5236999999999998      0.0013329223300758922     152.59876374872013     2.9955596466324665e-6     148.00972245450171     2.7841680248922051e-5     135.9324379305952      0.00067832510660617009    113.03662688033073     
2.5636000000000001      0.0013466652985992349     103.73470813150639     1.5980232726304485e-5     159.04687715412015     3.5402488006932632e-5     124.39239144532455     0.00076798406262443589    78.964342487873779     
2.6034999999999999      0.001356052457847486      68.734123796580093     1.6282442311011376e-5     159.4255435408468      2.1846485909316202e-5     57.464364783772645     0.00086380418751559325    49.411945262121819     
2.6434000000000002      0.0013316710843226836     44.468896345264355     1.6659105022017966e-5     172.34100982013854     1.2781557332757505e-5     116.59492384356469     0.00095261846116053372    28.486895563759479     
2.6833                  0.0011669899872180521     27.129450827673033     3.2379780967990082e-6     101.4133543463772      1.4928377524426038e-5     38.088164600322713     0.0008849856184307771     9.4992762221995104     
2.7231999999999998      0.0013530199970152961     93.349749138586262     5.2528166261243192e-5     -54.100490759943106    4.9001061598899301e-5     3.7138213753393523     0.00099716970138098758    71.143619950662384     
2.7631000000000001      0.0016922225055358093     66.864907989514094     4.9495803432600573e-5     -138.63720151223413    4.8147572649830256e-5     -62.07876046956013     0.001189262580647561      48.149419022728594     
2.8029999999999999      0.0024350830145725365     30.470415769246525     5.7030717263626546e-5     172.32720403762167     4.7288877308133806e-5     -145.66396451584529    0.0015898672726772822     19.154993035186187     
2.8429000000000002      0.0032522782405365988     -1.1132672833089252    4.5266261018650958e-5     124.13210334535941     5.4704908692639021e-5     176.67386394520022     0.0021908782056912534     -4.8886091362402508    
2.8828                  0.0038207448556654196     -31.180107425707249    3.7125800532693013e-5     75.12709625337304      3.2413503204044862e-5     147.39850531303705     0.0028219891648930684     -31.041247895830153    
2.9226999999999999      0.004255384375442677      -60.581195846370122    2.4147446656976075e-5     28.249270637467969     4.9276624920645254e-5     87.044582928808424     0.0034210275930483098     -58.727994293862608    
2.9626000000000001      0.0046562161982203571     -39.846139546917819    1.2499118968997141e-5     -117.20656602117302    2.8966901110561247e-5     99.459899451060053     0.0039182631581952043     -38.802630755488664    
3.0024999999999999      0.0049467432867925159     -66.989713213445086    9.5263124677695965e-6     143.13906462211247     5.1161450324672998e-5     2.1365375054109728     0.0042945349358298269     -66.450460633015609    
3.0424000000000002      0.0053819183009597912     -93.690395282904802    1.9784243434362301e-5     108.71470448470706     7.5934505217621571e-5     -57.640049789010668    0.004680501220576839      -93.20443789138443     
3.0823                  0.0053568211076312584     -122.27145273810383    3.3272442761444468e-5     13.242723853314098     9.0267552192539098e-5     -135.85609549363642    0.0047820663045392321     -121.60575364661172    
3.1221999999999999      0.0058992713775939797     -158.41853448299318    4.4195407843813395e-5     -61.218405114040138    8.332919399184982e-5      136.69554692484698     0.005395422397432308      -156.93245631262928    
3.1621000000000001      0.0066666610774612448     170.6089875257436      4.6318866985455771e-5     -128.5935986757635     6.3521125520640869e-5     88.568407687751986     0.0062525000479289094     171.23413857402713     
3.202                   0.0060878956950966151     145.14046537745998     5.6940349930080511e-5     176.48165491819233     5.9523897498804976e-5     24.925909360982217     0.0058027528971341035     144.92118806953764     
3.2418999999999998      0.0063656685280265206     105.76799116009094     4.9370441837116275e-5     156.89791472073426     5.0542819527669825e-5     -43.214006771275464    0.0061481469513481176     104.94911525374167     
3.2818000000000001      0.0066624811555829055     77.912434360368636     4.1755194788001425e-5     115.19785877367011     6.4859526393877933e-5     -68.454029805884772    0.0064114623774495947     77.137896557936728     
3.3216999999999999      0.0061888075355093367     44.964638652272654     6.3263487053406633e-5     54.398784891127733     5.8741251095672797e-5     -90.312492908429533    0.0060119863842584267     43.185251302529252     
3.3616000000000001      0.0070406818945428816     7.6503316619718662     5.0473191551454775e-5     9.0535304460021511     7.9996903298828529e-5     -155.36835015513316    0.0070328491544693226     5.1000448870859394     
3.4015                  0.0081667364876505302     -21.323608388138169    5.4445973005446299e-5     -41.216165851873605    8.269553664139409e-5      169.37749074826792     0.0079584952836942446     -24.95984195094357     
3.4413999999999998      0.00823853379597108       -50.509409184778882    3.7576214927355428e-5     -48.770257657127125    0.00011927563759951679    116.56345060218351     0.007858845910572872      -55.312157112099371    
3.4813000000000001      0.0081047778278271511     -84.068028108652953    3.9536243204225377e-5     -60.139943386310101    0.0001257498621534097     75.825434782113234     0.0075473719074997218     -88.324481253183635    
