! PocketVna 1.81  pocketvna.com
! Live measurements ((Reflection-S11, Transmission-S21, Transmission-S12, Reflection-S22) Linear 10000000-4000000000/101 non-calibrated)
# GHz S MA R 50
! GHz                   |S11|                     <S11                    |S21|                     <S21                    |S12|                     <S12                    |S22|                     <S22                    
0.01                    0.00053040168042447827    130.46004825643712      2.5278703341752733e-5     -82.787010380334053     2.5368145973574172e-5     -135.51166210307153     0.00070083862781355935    115.0903782958419       
0.0499                  0.0025961639775793758     10.407001704983289      8.0914265756895455e-6     64.473144203001667      5.2531877042267442e-6     -115.00216574827793     0.002547503854869002      -25.009483213759687     
0.089800000000000005    0.0041350194607757962     -91.434420870253675     3.6149369412270446e-6     15.296547314430068      2.1865353318887719e-5     -9.1959217021542141     0.0025040852062738934     -118.37504340886544     
0.12970000000000001     0.0023929269680830036     -174.21229653172631     1.858205272123398e-5      19.975255634101337      1.0911908818190843e-5     8.362470985483073       0.0012754436835386552     -164.13698976990494     
0.1696                  0.0010409117850928616     -157.28331784121374     1.7635425120426702e-5     13.560697656643933      6.7249817098127192e-6     -70.721936585093971     0.002528357830703847      -155.12134686067907     
0.20949999999999999     0.0033502116526966117     176.712905285537        2.5569630606091256e-5     114.97453285457711      2.0895292425759276e-5     143.65719884869313      0.0039495056876317769     114.28610630112314      
0.24940000000000001     0.0035604909714785512     68.789777905473713      1.3261803245957235e-5     132.08530932066657      2.4027064303823577e-5     164.66229340466694      0.0026634711259863162     39.946468848043629      
0.2893                  0.0012117437608485651     27.2434750609244        2.871500545287877e-6      -96.405860232356744     2.4767802038234334e-5     143.87125190345128      0.0014310506475755532     4.1859320051606383      
0.32919999999999999     0.0010771044689891717     65.792241217543832      2.4714286745888096e-5     -159.69666026006544     7.3635863778645895e-6     97.44140548974373       0.0010436706570774886     0.069943199408475321    
0.36909999999999998     0.0020627984082393601     38.519315440859614      1.3141483084517828e-5     -142.85723643437646     1.5913843678831578e-5     -151.38311776041377     0.001219359247690686      -10.335689873876444     
0.40899999999999997     0.001771772075892734      -27.11135524506976      5.1732198449655662e-6     132.49017077007508      1.1262954244105833e-5     -40.412186781968806     0.0014430132224230823     -46.105603448824795     
0.44890000000000002     0.00056399139569253149    -55.111161029750292     2.0319793226573228e-5     151.02905718838062      8.33026889909148e-6       130.35672741688114      0.0016446382159848308     -95.12827721644517      
0.48880000000000001     0.0011140158289702231     -19.757110859503825     4.4595194828375813e-6     -175.88028265298078     2.6234344916486597e-5     111.2816793150386       0.0012780404302828556     -148.71917829563739     
0.52869999999999995     0.0019916878229989813     -77.926784393908136     9.5263124677695965e-6     -143.13906462211247     2.3983315943191342e-5     96.851256230440896      0.00046358246389955406    -161.30472085049831     
0.56859999999999999     0.0018368820132461381     -139.05823172511046     1.8160476513745453e-5     -126.47498755596415     9.2306680017772009e-6     -93.93404971402839      0.0012917956006122022     -149.59658259201413     
0.60850000000000004     0.0013115385722194419     -156.74307163742935     2.1720328645769661e-5     -127.88015490589144     2.2872085939948019e-5     -166.33947601807799     0.002433657146383052      144.65536371249601      
0.64839999999999998     0.0018293635841302568     -170.96262795010821     2.6555400502468587e-5     -131.1208988391349      1.9531109775877248e-5     -134.33541731098947     0.0024633724097206165     64.320180831005175      
0.68830000000000002     0.0025084453346935452     129.87518790886656      1.0384829205749355e-5     -66.58010799994058      1.5567570516230072e-5     -69.726387435508173     0.0014862053396967523     10.524992133310969      
0.72819999999999996     0.0022193828484951411     66.170625299869442      2.1974080100687205e-5     -37.367230860877584     9.5989678805173274e-6     34.245122299049747      0.00092046605586846501    -8.9101566000912928     
0.7681                  0.0013356375612453202     31.517487473622694      1.5175896295239457e-5     -127.35935282667769     4.7256302255702056e-6     -42.316224840531021     0.0011743168119950299     -39.129319406590902     
0.80800000000000005     0.0014777573020040896     14.445201324308174      1.2801060193508728e-5     -119.7283361690414      8.2794993829830518e-6     -85.613157943788579     0.0017767601049414178     -100.10703402669742     
0.84789999999999999     0.0015872077032311445     -27.226245873058385     2.6202008798617474e-6     165.84521370912282      1.8181767712280145e-5     77.888844589287658      0.0016667223119142124     -163.30497530202638     
0.88780000000000003     0.0011604116353143388     -66.795033305745392     8.7867871932148049e-6     -40.632911921026178     6.5465127508147642e-6     -50.912467245964415     0.0008417778097534501     142.52478633750974      
0.92769999999999997     0.0008612024423431179     -65.495002470759317     3.3141267903652501e-6     106.7239194174436       6.9597874957743473e-6     65.794628197582853      0.00031814024454295063    147.3881256782621       
0.96760000000000002     0.0013052401843765423     -79.813568913160722     1.0567061565327511e-5     122.73765354512091      1.1538842403246206e-5     97.90512693115619       0.00075039698009582336    156.29801469353879      
1.0075000000000001      0.001747297342379945      -115.49872193230436     1.6629784351052935e-5     61.471487972958336      1.1587250639985028e-5     9.4744354804694719      0.0012524114557033526     104.37088838309216      
1.0474000000000001      0.0015762622591351148     -140.09102731472137     1.8733499301673925e-5     89.020096139958284      1.4378062794488995e-5     6.33691301747211        0.0014870783184451105     59.273094915359536      
1.0872999999999999      0.0014361395656705418     -145.37541977698663     1.6200730289566915e-5     88.866882561399933      1.7751569206810653e-5     -10.324204603610863     0.0012110549634210719     30.659742863213367      
1.1272                  0.001683037795714634      -105.69607846708757     2.3568984646307515e-5     94.641806367152739      2.5735424885892728e-5     51.016373136526816      0.0010418737767449652     69.874980685260098      
1.1671                  0.0018091356687583149     -143.17635086269152     3.6792637219588174e-5     61.67566960583374       2.1898716527929894e-5     16.850484127158886      0.0013678531697468895     48.350029113491992      
1.2070000000000001      0.0012661320922968758     -177.91624013073005     3.2553960358804665e-5     45.398718036715692      5.0834858785022019e-6     93.529190299367016      0.0016536137995466183     10.666992208428132      
1.2468999999999999      0.00088146455193146959    173.81715007998304      8.9508485776399972e-6     -117.46089132651431     9.6431123610245262e-6     17.258954292904079      0.0015823130119560051     -33.782476855613332     
1.2867999999999999      0.00094463840449230806    155.30408111717347      2.3090266449616701e-5     -58.484546870071185     1.3155170541093402e-5     8.3366140812762097      0.001471926212385794      -76.947017054433246     
1.3267                  0.00090383260658099       113.32274864308339      2.225720385428346e-5      -75.954453003777758     1.9289827991769628e-5     -122.89212775928144     0.0013689405652856292     -114.98409515272643     
1.3666                  0.00076707427160013536    83.22481438359047       3.4170049760302927e-5     -127.81691103297401     3.1120215390493737e-5     171.78260094420224      0.0012529684098254656     -142.34040199264959     
1.4065000000000001      0.00097684629503553286    64.034944092886946      2.7209150052567183e-5     124.07299101102227      2.0932185744710722e-5     49.301376504957481      0.0014992435803204028     -169.0613575239899      
1.4463999999999999      0.0012610986356437115     13.987394403396875      1.547968887518341e-5      28.143863294699376      2.4000919916103674e-5     -117.59120575604834     0.0018097217768928589     133.56406870339902      
1.4863                  0.0011161888433791145     -41.274862578435041     2.6183888641620307e-6     -76.003298126564061     1.9684433937072754e-5     180                     0.0019816743104011467     81.337856240453362      
1.5262                  0.00082186081458544792    -78.230037265023086     1.6880274872243816e-5     131.18830416336286      2.6724210645285713e-5     99.564739158299645      0.0019194149783018251     54.330285632407175      
1.5661                  0.00070292247262682659    -91.553063571135482     3.5997853143760256e-5     149.80502248521057      2.7304898912507271e-5     33.130700180712672      0.0019578027484214453     36.054080868325265      
1.6060000000000001      0.00076213459325238334    -111.8416620065495      3.1739505698686772e-5     70.114565784486558      1.2695789337158203e-5     90                      0.0021128772927706337     17.852254484485275      
1.6458999999999999      0.0005968049685167291     -144.33144332941134     4.7760307394601361e-5     49.853393440705055      2.2379074918038702e-5     148.35250855776624      0.0022386653674936192     -7.3911490094093955     
1.6858                  0.00019772128670400414    -157.42879634463753     2.2294878651630065e-5     -26.196842448586505     3.0441088350396703e-5     97.792955587208724      0.0021101995940969267     -38.585753147013307     
1.7257                  0.00027691909999861468    -103.79733172642162     2.3180868455828622e-5     -143.9035760137225      1.8413043876985315e-5     0.973772172497545       0.0017061089807823197     -63.172659807735833     
1.7656000000000001      0.00041674873351625564    -130.70517677522329     2.0968049191922955e-5     91.730771357822505      2.7325797380307385e-5     -128.85742960210101     0.0015115657967431668     -71.975956388437396     
1.8055000000000001      0.00032182589460789149    -154.52177045891253     1.5870333056481942e-5     -73.751630594881917     2.2885885488432021e-5     -150.93996072817902     0.001801305570181177      -81.720018004384912     
1.8453999999999999      0.00026157259707844925    -152.84521704302423     2.929854210789387e-5      -94.360710811816077     8.0946400771423261e-6     -25.574444772100112     0.0022704443898866628     -104.04189803168673     
1.8853                  0.00032408719140952818    -175.11121914480674     2.3962107385676281e-5     -122.01482518082575     2.1352268212590661e-5     -22.744434167175928     0.0023887410577506977     -132.33879579667939     
1.9252                  0.00025101447632728115    135.30905388865361      2.5309192400732608e-5     -160.194140922738       9.2117443055722389e-6     -133.62359278670536     0.0019919257214325433     -155.79639061205503     
1.9651000000000001      4.9544996878302974e-5     20.639746048868346      1.1817637838882361e-5     6.1527036149220429      2.831581858911464e-5      -120.30961138206226     0.001804913433375848      -171.3596067835189      
2.0049999999999999      0.0003121198278326165     -128.05851568951084     1.8475061850514306e-5     -19.041424029039327     3.4579120609161868e-5     -134.25798126124681     0.0020768892155682292     168.554504886318        
2.0449000000000002      0.00041687797979161726    -171.06208306066029     4.1374737756174776e-5     -93.954769481007062     1.5297036311676237e-5     94.777546745546758      0.0024219774971129997     128.88043355614235      
2.0848                  0.00045686066044712354    157.57046380987867      4.1819405373531672e-5     166.37721384309938      2.2726264068860622e-5     -82.767810473490599     0.0020609982269001385     80.288012541241827      
2.1246999999999998      0.00057942099970588966    129.30749809970001      2.4132431703572188e-5     90.01768934167724       4.0820850582612521e-5     -174.64840479667458     0.0013963970074231129     60.374750559149994      
2.1646000000000001      0.00075492293845133259    85.416496352423877      1.2640816294763422e-5     -11.594720155182348     4.7861491138929393e-5     121.16107949802809      0.0014588993697544034     44.021495470328468      
2.2044999999999999      0.00077753999227585572    43.511018612436516      3.8445934410800563e-6     -65.620370847182969     3.1663724580379812e-5     15.713910285015686      0.001690947843411326      10.757041984446436      
2.2444000000000002      0.00064881636547367799    10.374523198125821      8.6373568955724406e-6     107.10636264354731      2.3866564738003765e-5     -33.050111841864243     0.0016769241409923534     -32.606729920527421     
2.2843                  0.00060710338078779529    -6.6973078157904826     2.9861861969944512e-5     44.575444831207605      8.3061644201566446e-6     -136.59921294173125     0.0014978696508685637     -73.320573870249987     
2.3241999999999998      0.00068236443754898356    -24.72856301390642      1.9984158609995282e-5     -44.350484318118745     1.8549816613129078e-5     51.965564666928159      0.0012731355245879463     -94.376949105741318     
2.3641000000000001      0.00073640676510257992    -50.826957867300862     2.8297137380279164e-5     -86.785023720008979     5.3029563794786061e-5     0.6842643976484718      0.001348082025295365      -114.25311386936393     
2.4039999999999999      0.00080054808797772698    -77.237119855061337     4.2164942747007113e-5     -168.26516206310879     6.958266708338541e-5      -87.907513797918        0.001429523490154074      -150.85005737666853     
2.4439000000000002      0.0010363882572033806     -111.06152397134832     2.5902321436451034e-5     78.686835406644747      5.0339314493543106e-5     -172.01980776821492     0.0010329871147205275     152.62396169021545      
2.4838                  0.0013102848572972791     -152.820079519144       3.686316662520869e-5      -69.854636174292835     8.3816647495692668e-6     24.583052625582472      0.00047697277638793001    126.85432478470487      
2.5236999999999998      0.0013347840467838653     152.56345429520772      3.6196338392234004e-5     179.49286657461781      3.3581137979628431e-5     -139.98609337407052     0.00065059116029350097    126.64588671301138      
2.5636000000000001      0.0013162009772019515     105.21657457794203      3.1848423364121779e-5     94.575524581871392      3.9080392559188422e-5     136.31318459255371      0.00085684581754644131    80.422765319672067      
2.6034999999999999      0.0013587996660845991     70.180408447949745      2.1423839731362724e-5     15.49104630767922       4.3647635272763374e-5     81.637529014516929      0.00091429966380424685    46.449506072579219      
2.6434000000000002      0.0014032480841349969     45.275128453623012      2.6307995867641072e-5     -156.53507796816703     1.8902281559206356e-5     7.7244809463456034      0.00088475350721398257    27.484517081427118      
2.6833                  0.001154886820948321      25.240667778944491      2.8853375492968593e-5     155.96991162106039      1.0264469414911756e-5     -68.183144826055482     0.00087659676116249772    12.148496513473047      
2.7231999999999998      0.0013404577419674334     92.402874251072078      4.2554978401885144e-5     -90.85270210027727      3.513178898113013e-5      -12.530125671553529     0.0010847214915587313     71.199290476656003      
2.7631000000000001      0.0016983734820341383     67.0349128810888        4.2171005561551159e-5     170.47111093992092      4.6920811410079214e-5     -95.832807049703263     0.0011510759358394343     47.504110418708308      
2.8029999999999999      0.0024388144642320834     30.176996920714526      2.1608515468595573e-5     88.320542816285709      2.2186748181771173e-5     -156.36180855107051     0.001759770650781281      19.850714538189631      
2.8429000000000002      0.0032004543736978129     -1.5575739979127785     3.6833664606954666e-5     -89.014836879565294     3.396827880270702e-5      -20.800212339535463     0.0021145079761809241     -11.493920757076241     
2.8828                  0.0037512593679168951     -30.12204928213146      0.00010522594249163305    152.89428459978794      7.5934505217621571e-5     -147.64004978901067     0.0025274889098448887     -28.342257148138234     
2.9226999999999999      0.0042659985378428814     -58.879645543146495     0.00012984925772757165    57.784482679208708      0.00013361476502157232    116.07639356756063      0.0034903882426400895     -54.388462289417859     
2.9626000000000001      0.0047580586998078695     -38.687831667810897     0.00010368570312452339    20.431240057151761      0.00012773464963074105    80.701954105988975      0.0041071055223803714     -38.136887783298278     
3.0024999999999999      0.0050574209251596529     -66.689479023405255     9.1098337010307276e-5     -67.459797080591827     0.00013454868671813826    -18.435952128637727     0.00434228688747484       -67.47972233874421      
3.0424000000000002      0.0054304608315986491     -94.470113888525006     8.2634806903335241e-5     -166.44237966597905     0.00012104547307720625    -91.954151200675867     0.0046414215046166338     -93.282482695891972     
3.0823                  0.005326078858051338      -122.91885170022782     8.2017529638523466e-5     103.65627174023589      0.00014871166633293235    -167.92328694281332     0.0047690171759561147     -120.14136058128437     
3.1221999999999999      0.0058321509740579171     -158.35557889814621     0.00010111428990246657    -9.5817012563175581     0.00011778249411716459    102.61293491591694      0.0054842628577522696     -155.99035991572435     
3.1621000000000001      0.0066009539285616804     171.15118462495573      9.272860581584707e-5      -89.019382079745583     7.6477213568370149e-5     20.919287977285553      0.0063645025702438662     170.69508480742556      
3.202                   0.0061000662810472943     145.92863690522265      0.00013901403410765926    -163.13839521632636     3.5612336545179092e-5     -93.058149331095194     0.0057142181290071531     143.82357098005278      
3.2418999999999998      0.0063985878357913613     106.63200639272024      0.00011435610150205931    120.90805934392773      3.5605687805280431e-5     81.79529380843131       0.0059179816968129677     105.35678020796372      
3.2818000000000001      0.0067265669893843911     78.653463600890504      9.9818458328813066e-5     38.800734815817428      0.00011275535726459131    -15.016041787223369     0.0063655226706796917     79.878975839839228      
3.3216999999999999      0.0062324239946959748     45.270402063034659      4.5357488002232462e-5     -45.565685098685172     0.00012575035126914227    -90.865685706578276     0.0062084047587838273     45.269357512661621      
3.3616000000000001      0.0071140083659844717     7.7051773420312335      3.6851593700487058e-5     161.40753488578278      0.00015243615238934996    -167.12187841373427     0.0072376695322626267     4.854418707475566       
3.4015                  0.0081524208579231029     -21.482755693658881     6.3326779893506854e-5     44.184880830476182      0.00011301567134039353    141.61449866597135      0.0079128661078015482     -26.131180574476691     
3.4413999999999998      0.0081938951920894031     -50.191040301232114     8.7441743512804864e-5     -10.248081244518408     9.1530666767648933e-5     95.375995269205589      0.0076689765964269999     -54.522688520942616     
