! PocketVna 1.81  pocketvna.com
! Live measurements ((Reflection-S11, Transmission-S21, Transmission-S12, Reflection-S22) Linear 10000000-4000000000/101 non-calibrated)
# GHz S MA R 50
! GHz                   |S11|                     <S11                   |S21|                     <S21                   |S12|                     <S12                   |S22|                     <S22                   
0.01                    0.00045777771310582166    138.99320772231931     2.2294389388554156e-5     -109.99128602440166    2.192152385983688e-5      -91.67495182146989     0.00045153946648509181    140.16380415024415     
0.0499                  0.0020548210962565462     21.482444915792545     1.1446722965739477e-5     -86.828444535024701    1.7114455570415669e-6     21.986682177742413     0.0020120581934024149     17.03103766482683      
0.089800000000000005    0.0035166846952492292     -59.549977149373376    6.5154464682844107e-6     -136.94619511703078    1.1166653209411589e-5     14.805828143223755     0.0034795208300363472     -70.483765441473039    
0.12970000000000001     0.0048326000018772183     -138.33454990119708    9.9766946554788645e-6     -9.1528084233970191    1.0814016613607911e-5     3.3177811683348435     0.0047237213568386066     -152.50661416252029    
0.1696                  0.0032338969576082652     145.1364955780015      1.911538620178552e-5      57.883358394444237     7.103826779776378e-6      26.538176986031385     0.0032042544521789741     123.55460881389274     
0.20949999999999999     0.0016484636447478055     96.914179629498975     2.2417706268189513e-5     77.719045594900621     1.2798841907380688e-5     136.01418740268579     0.0017937281344815022     73.123773766325826     
0.24940000000000001     0.00076281722561808243    91.120987873601266     1.657505699887088e-5      126.42691114445925     1.9098739012047421e-5     158.559693586555       0.00087454800441097999    56.280960958632647     
0.2893                  0.0012547020646526588     101.66524282411132     1.3402675046603473e-5     126.34116574594525     2.3641625592792795e-5     165.21048438111296     0.00124489094232601       63.539689984475437     
0.32919999999999999     0.0024007750460481722     74.103501691047086     2.7886481108612347e-5     -157.22352203231881    4.6868830543585521e-6     -151.7239194174436     0.0023744992536363068     35.145693680252819     
0.36909999999999998     0.0032101788095673157     23.182212079709213     1.5242753520947947e-5     -125.67115825735124    1.8461848670669572e-5     -176.04288212192353    0.0029676635600544479     -23.520555658360593    
0.40899999999999997     0.0021591804366935998     -49.526835884710032    1.6024924143989847e-5     166.22865394099634     1.2129586400435434e-5     6.029269390229854      0.0022514586544688242     -99.333555535858224    
0.44890000000000002     0.00076084486709434847    -109.62982038924599    9.4224043752410123e-6     -122.63450688507184    5.7281156784030604e-6     56.351271413104676     0.00098540104450391       -157.63313124699323    
0.48880000000000001     0.00046898134187263268    24.222100842933383     1.2801983823933626e-5     172.87911963459734     1.3396550001050888e-5     121.44467127742371     0.00019559185652654758    -11.801318179432666    
0.52869999999999995     0.0015894273020096823     -29.145933675363686    1.2670581436637668e-5     157.92956884799926     8.3836381494137653e-6     127.30780567047857     0.0014121915483460629     -88.441217124427013    
0.56859999999999999     0.0031348355735186018     -97.11559147592709     2.2227390906200949e-5     -89.174137481490391    2.025374797333335e-5      -103.61706340946549    0.0030209795742594655     -162.27923060005881    
0.60850000000000004     0.0039672884131142097     -168.20540242220926    8.9772787328204284e-6     -135                   2.3797164923633347e-5     -135.01268447610738    0.0031849095093433276     108.4349064375839      
0.64839999999999998     0.0022078080518712216     120.89163393547268     8.4710480209938271e-6     -77.039377667514529    1.7523006868096591e-5     -133.5356148049884     0.0021643880559716082     42.496937880366836     
0.68830000000000002     0.00095202627875223063    84.795462672991974     1.9702065473571154e-5     -88.15797833936827     2.2688158109197647e-5     -83.570462233343889    0.0010377743469581798     -4.7912093167625658    
0.72819999999999996     0.00085882514205882522    110.83348938055614     1.1111796002166111e-5     -126.87758113507154    1.3292545742802194e-5     -130.13452272123746    0.00054836945492783222    2.0236531206978214     
0.7681                  0.0017112074235818748     75.855272409130279     1.846959407515494e-5      -118.76725207772409    1.6069748623296446e-5     -119.61967362797267    0.0010529732523290127     -16.664451368550015    
0.80800000000000005     0.002596864483933611      25.903985826606405     5.8401764647885866e-6     -22.344352528291768    9.0364363007181336e-6     169.88529369444745     0.0017657933906883292     -78.160660145155802    
0.84789999999999999     0.002584948016311814      -38.797119930646694    3.5512471617200261e-6     79.727408611057768     1.725048035547456e-5      77.22425239218164      0.0022512567871651183     -143.76534759336781    
0.88780000000000003     0.0016849065145181738     -102.18447271426987    2.2875345203877797e-6     33.845340261071705     5.5544415648969411e-6     -58.996701873435939    0.0016914036130306995     151.26505892771925     
0.92769999999999997     0.00033600696450170568    -130.05559111972607    9.6800476692382201e-6     41.036577298722072     7.4106127893098942e-6     9.8411317596343881     0.00098642978571829103    85.9577033573336       
0.96760000000000002     0.00081091527884825671    -34.212916112941464    1.495395375952261e-5      -3.6564657896251234    1.1818438703718609e-5     -173.8113840367584     0.00015972088294441598    -3.6453559605557895    
1.0075000000000001      0.0018238056836611958     -76.745260082947254    1.3337371709619767e-5     38.239919986828845     9.8630520291769604e-6     93.724824659509935     0.00085959451364731574    176.10254660407804     
1.0474000000000001      0.0031482714705286848     -118.83453191134829    6.9959840953608098e-6     92.624727984850864     3.2033602102185956e-5     39.365354878642627     0.001991202532396162      106.33697222787524     
1.0872999999999999      0.003225886381966039      -173.27935539854596    2.9685309479462762e-5     55.460370608547812     7.5515962325770019e-6     -67.736707096981092    0.0027762217661477327     42.659293103409091     
1.1272                  0.0014825231386247052     -168.7861810175815     1.6880274872243816e-5     41.188304163362872     1.6475688400656395e-5     25.070113233951737     0.0020971891266307243     43.576932785868635     
1.1671                  0.00032900243606454293    -150.0703622576091     2.8163810603720226e-5     82.888143857474986     1.8881967467810076e-5     42.28129295820743      0.0012756942996971525     2.125394077694212      
1.2070000000000001      0.00096303832227036918    -120.51348351270609    2.8961963175633305e-5     52.115967129496624     6.5469918250040163e-6     60.926396527402467     0.00071973808535531118    -15.531603683154579    
1.2468999999999999      0.001576428878717637      -150.89508055526593    1.2130755641917257e-5     42.884429461308272     1.6775001655295626e-5     29.479741856411419     0.00081313020315284493    -4.2100230100205804    
1.2867999999999999      0.0018503579413230876     159.20471656457616     1.7188849528579138e-5     -27.520262599376377    1.4259912991363931e-5     -106.8254082928476     0.0014118884797497434     -34.536972854962436    
1.3267                  0.0017771800691924813     87.101896921935278     1.5861479419880168e-5     -109.88193420958001    1.9105921162583035e-5     -105.42364674286759    0.0021358641038081326     -91.92527267407074     
1.3666                  0.00088268585151023756    18.650128723471553     2.9858693253347023e-5     -171.44731936342214    5.7146001748010919e-6     179.92529889563434     0.0023557221314064992     -151.77346074445697    
1.4065000000000001      0.00021583500630447891    116.9409733210781      3.0900967530889945e-5     99.464593326603506     1.0444114284692795e-5     70.453404349845911     0.0016626460418659335     152.36336044738312     
1.4463999999999999      0.0011238331071048199     52.738323096496849     1.352009215700891e-5      9.4519406572218383     1.932847763757832e-6      -99.317086069126219    0.0010205408760769862     107.04220580059038     
1.4863                  0.001685682083913335      -1.5652350844852694    1.1920009238556978e-5     138.21775666429792     5.7219149297016089e-6     146.30993247402023     0.001116037143404674      108.71847520782779     
1.5262                  0.0020452111776389941     -64.441442969878977    1.5762909017370202e-5     117.5945685371762      8.6702032179904582e-6     66.232478897007852     0.0022380297060804275     84.749723163413123     
1.5661                  0.0019985822511222177     -138.40057100214909    2.4140346790829264e-5     116.56505117707799     2.2895099559246948e-5     109.42555522789991     0.0033392210462941246     39.207823926693308     
1.6060000000000001      0.0006679575838335561     125.01160153551514     2.8960655962468463e-5     105.25899711498668     1.9368944663109525e-5     10.393554812751734     0.0025444405273554295     -6.1821531724559158    
1.6458999999999999      0.00049312013810411581    -5.8396293195006361    1.4810564259699101e-5     59.060959099001984     1.784777989933641e-5      84.898685584500896     0.001634921141935949      -31.143097583101515    
1.6858                  0.00075831098246317017    -76.167329214920656    1.4092500914461204e-5     -22.538310150015629    7.8787626423915211e-6     139.90999887226363     0.0012853392804524383     -31.597428337740141    
1.7257                  0.00095418602949720144    -121.07140259831758    2.5626206706824621e-6     119.62090937462067     1.5247982257554839e-5     31.391078230516154     0.0015303773868024291     -33.953804529983223    
1.7656000000000001      0.00086791804713520489    -170.63082843106238    1.1766620580610502e-5     -86.914753814347151    2.7291203150743567e-6     -35.555861155220825    0.0020245636042433052     -56.384904249722837    
1.8055000000000001      0.00058425209391798597    106.64283706092733     2.3129141567670599e-5     -134.45185664633345    1.1683465417742931e-5     132.77754263847729     0.0025405509624666137     -89.46297071637207     
1.8453999999999999      0.00044288396323347652    -8.3682421340465112    1.8778197741230588e-5     -108.7225036457792     2.6034209308204691e-5     0.68869686441226308    0.0023909239648086428     -122.28436807313079    
1.8853                  0.00066562341426641518    -107.97700445671477    5.4852113512336809e-6     -79.987511914712968    2.4644327911218022e-5     -51.789264159132188    0.0017290424601703665     -141.67387507415316    
1.9252                  0.00077140670492925265    -166.26091249049736    5.7504052136516277e-6     -83.602422315832783    1.5454158357021904e-5     -80.537677791974389    0.0015294791643086312     -145.23123671677226    
1.9651000000000001      0.00070081202948356282    121.0972632101432      1.969485973287162e-5      -88.13561778360976     3.0643434597187567e-5     -55.981515998064566    0.0019717937693951044     -156.10961170376711    
2.0049999999999999      0.00067167653402886828    27.873184222843751     1.7965407804438911e-5     -136.42831691768458    1.9427837150523923e-5     -101.30131397536182    0.0026574265374644324     175.03050280382593     
2.0449000000000002      0.00097426758240790588    -100.70557138623813    1.4696522827328538e-5     -173.80094637968784    3.8312686451164183e-5     -170.45158489864599    0.003040989803997625      115.33957898581184     
2.0848                  0.0011651041547283418     178.39132030674932     4.7156054241182454e-6     109.66600298857732     6.101338634037109e-6      -98.92170351294277     0.001750501008741186      67.137056684886645     
2.1246999999999998      0.0010715643086294966     109.30989963625623     3.716794399285768e-6      -70.075769065714439    1.6874290346061238e-5     160.20493206579005     0.0011221420383258141     66.256327501565934     
2.1646000000000001      0.00090869706535820559    55.621185718426759     8.9508485776399972e-6     117.46089132651431     1.4231812294541456e-5     128.68791508505259     0.0014336333081295572     52.206393144741739     
2.2044999999999999      0.00054932032196442729    13.537899105663497     1.701876030476316e-5      53.365886124032592     9.6605332441590906e-6     80.544942376633458     0.001831676375551773      17.982650852082223     
2.2444000000000002      0.00028676189050908793    18.796017282467115     1.6017687840070294e-5     13.77769026126397      2.9449840851955069e-5     41.944115148261453     0.0019876589195276829     -29.115953886527581    
2.2843                  0.00064063439260571438    25.63793008658147      9.847190285889541e-6      -1.8210540312034413    2.3311728476056344e-5     -29.358751066721553    0.0018450292096276505     -82.415264192758158    
2.3241999999999998      0.0010211648614251573     -11.187447971793612    1.6218175283429237e-5     -86.628902380133169    2.281311935238726e-5      -73.843835953742044    0.001127763030875716      -113.14386771705311    
2.3641000000000001      0.0010540262511661723     -62.554832048622806    1.3837415178799302e-5     -99.264523985132982    1.4293804406829006e-5     -1.2843096309461897    0.0009053907004839361     -110.3797312034977     
2.4039999999999999      0.00089255908561505597    -103.53732883182884    2.6936050965746361e-5     -81.874380182176068    2.8254418037128423e-5     -89.350313047017607    0.0012135308828256919     -131.17027266108309    
2.4439000000000002      0.0006315105810491083     -119.38761685958244    2.1723595892345733e-5     -105.25167171837219    3.1248901264529983e-5     -115.26365375399955    0.0014510083303547079     -178.35725567833853    
2.4838                  0.0010552440954926059     -134.65873807804559    1.8951326156374673e-5     -140.43957697678377    4.2508873473081157e-5     -166.16834865175704    0.0012383258461339125     100.3995670195245      
2.5236999999999998      0.0017282703426711812     170.34373870021753     1.685785857806772e-5      93.243039461175599     1.5236437320709229e-5     180                    4.4807571809450768e-5     130.69119704962782     
2.5636000000000001      0.001764799696778343      99.433690386287026     9.5203523532122764e-6     -143.11216659655963    2.8067891659759375e-5     158.08562022673519     0.00078357496617479934    113.62522882156891     
2.6034999999999999      0.0014737035058536567     57.672704969570027     1.5083585871571024e-5     -149.64781531183516    2.325842268637997e-5      104.22320751099154     0.001172503014975978      58.216447478044799     
2.6434000000000002      0.0011634167579999809     37.370243086605385     1.3351567238632289e-5     -177.28129295820744    2.067136699096825e-5      100.61331233590506     0.0012451995427039944     21.888307053122737     
2.6833                  0.00093364493810071481    28.587142162688398     2.0049704810278412e-5     130.50891942554614     1.7563874237958293e-5     40.596022189004529     0.00090562804384740239    -8.4878792588662364    
2.7231999999999998      0.0012490104436929869     101.91259753136579     4.2203296048707016e-5     -13.923393866150082    5.2680435883968714e-5     13.953698924494507     0.00074150252405443527    56.704325132911919     
2.7631000000000001      0.0018603762102926517     76.034713950609969     5.2182336790412734e-5     -119.52976692397969    5.529375241516884e-5      -47.790707503083802    0.00094931018305630295    69.255640047742972     
2.8029999999999999      0.002887011810742609      29.547868918344086     4.89442845100419e-5       168.39928059952626     6.746304075106916e-5      -111.25148841695804    0.0018916886413497516     31.27545696273231      
2.8429000000000002      0.0035285465798650354     -9.8861835638041278    4.3611015540868261e-5     132.05705963176149     7.0467666122328617e-5     166.71750821172529     0.0027567691238836543     -9.0186742750469602    
2.8828                  0.0034554225968682034     -38.515914319596284    3.266027335750276e-5      63.440794138093842     5.5810870484232686e-5     117.44077230052569     0.0029562330924591349     -43.119857310724953    
2.9226999999999999      0.003678323062784471      -60.20175710222393     3.3244856304374334e-5     43.456257858205838     2.3948958104839513e-5     38.545673386109222     0.0028406365728272961     -67.275726062540571    
2.9626000000000001      0.0044586358043754333     -33.527155094222621    3.1159117287660952e-5     -8.7888682186155052    3.4173401866696119e-6     -68.244983847244356    0.003215083019984257      -32.489430898890596    
3.0024999999999999      0.0056562794299945237     -61.869750864627754    3.5753627687042494e-5     -123.40527984481766    5.2706336087249807e-5     61.587338556927428     0.0046576678984675346     -57.132190353529992    
3.0424000000000002      0.0061633951269900603     -101.30127989650187    3.3133559560314163e-5     108.43087460124696     9.1219013710168846e-5     -30.316061295231894    0.0055038049757313856     -94.44029897406358     
3.0823                  0.005005330298765316      -132.77635878753318    5.4002779570386145e-5     1.6839871277974821     0.00010796755934158824    -146.03029865510035    0.0050808632845285645     -131.26033157291749    
3.1221999999999999      0.0052048556342697474     -160.07275479074181    7.3495995781770274e-5     -80.046864133846128    7.6870171888714214e-5     129.80557109226521     0.0049756078407317749     -164.27504260311966    
3.1621000000000001      0.0061952034147478106     173.9808808387298      6.0602717553300415e-5     -141.80993598450311    6.6638527659149387e-5     77.6171065242455       0.0055901836444448875     172.36557702383078     
3.202                   0.0062800908446883595     149.266189300273       6.1853864845558252e-5     167.24437288502378     5.094294042814687e-5      39.945049700243167     0.0057580195962363568     150.01216862255981     
3.2418999999999998      0.0069696480643802929     106.89696176927252     3.3689627336637596e-5     113.90073399295407     6.1151414010867646e-5     -19.095014333116318    0.0066589647872787056     107.31261502475451     
3.2818000000000001      0.0071040471451591578     73.621640161189049     2.8876947167239191e-5     98.217908705161292     7.0927226330797332e-5     -65.960512114687944    0.0068916759233157744     73.18473579014919      
3.3216999999999999      0.0060849544735095806     38.476772175149762     4.3021167876298299e-5     58.894999591769839     7.4943320343255886e-5     -119.71520754577823    0.0059821639443595606     36.032987125857048     
3.3616000000000001      0.0066258836214123616     4.2348503924355665     6.0155370392028215e-5     17.196120114776836     7.636827266776937e-5      -170.18663100704248    0.0065036714232680742     1.6086004901437962     
3.4015                  0.0076342514395230029     -20.965480531697278    4.2815717427462133e-5     -23.147532937742128    8.6466131808811324e-5     162.69545458942682     0.0073314201333827102     -23.299596371703032    
3.4413999999999998      0.0080858249203881061     -47.192817406774175    6.102775069487048e-5      -34.18284719410461     8.9102601064102314e-5     126.00940923453732     0.0079314416702164284     -50.097814050436938    
3.4813000000000001      0.0087712452095983391     -81.315794361501432    4.921672067832119e-5      -75.418900296724246    0.00012877893739679275    86.892433364322585     0.0085983762060874522     -86.875532363944245    
