! PocketVna 1.81  pocketvna.com
! Live measurements ((Reflection-S11, Transmission-S21, Transmission-S12, Reflection-S22) Linear 10000000-4000000000/101 non-calibrated)
# GHz S MA R 50
! GHz                   |S11|                     <S11                    |S21|                     <S21                    |S12|                     <S12                    |S22|                     <S22                    
0.01                    0.00070506048490787847    114.47532259781613      3.3775034219923764e-5     -85.153438137412152     2.7243737425729438e-5     -130.75255569536867     0.00071017713444714665    115.90051402553809      
0.0499                  0.0026290236861629033     -19.082709763805823     4.7624132156516645e-6     -143.07632034913235     1.482664977186183e-5      -46.730771357822505     0.002573100417207362      -24.77511739440094      
0.089800000000000005    0.0024253832509246931     -107.32705076156459     5.2846522271709939e-6     -57.318162409996127     2.0079777772850697e-5     -39.217607677635961     0.0024664082002486256     -120.93339078366951     
0.12970000000000001     0.0013581240390541827     -141.92195172988164     1.6703689919985256e-5     -8.7228460215011108     1.6910464458100576e-5     -34.29920170827841      0.0010805011257005795     -152.92272883216418     
0.1696                  0.002714083942100765      -139.14135380642065     1.5620525584922816e-5     52.441405489743708      6.4304337798292335e-6     -110.19863110637482     0.0031952765848509922     -161.3328565289647      
0.20949999999999999     0.0039239282161412396     135.68189373062089      2.8070673221217967e-5     68.071511512698422      7.7468842652473814e-6     55.026037090321296      0.0034309290562710747     104.65609183525791      
0.24940000000000001     0.0022896123422417049     65.677713224918136      2.591944339754446e-5      149.03341892863801      2.4067078751916658e-5     171.6516625111459       0.0023375948611117853     46.023542016882622      
0.2893                  0.0012732457796474079     46.879392357782308      1.3220479510937144e-5     -155.9194837225559      2.5279574026934614e-5     154.71888449496009      0.0015595442517691413     11.390133350128083      
0.32919999999999999     0.0012688105773060751     51.931323457397284      1.1473240965360163e-5     -138.36955055068955     1.4325862372933594e-5     167.19969629843536      0.0011887060305210038     -3.1848699642236613     
0.36909999999999998     0.001553229612520799      33.163869287473844      8.3316881651676866e-6     72.245568592474683      1.2368190448045681e-5     -150.79453848356482     0.0011813438530762482     -13.617661857754715     
0.40899999999999997     0.0015093584472763554     -2.5440132461188587     7.6469711881223267e-6     -41.642811248377456     7.8689172145699508e-6     46.649723803291941      0.0014729027881819677     -48.513208373809221     
0.44890000000000002     0.001246012030038237      -37.170635491822765     9.5292925834655762e-6     180                     5.0812959671020508e-6     90                      0.001529894370953424      -103.61239246524278     
0.48880000000000001     0.0010239314833274183     -68.479464728684647     1.6131582386717429e-5     169.8111319408535       1.4882351507299021e-5     123.69006752597979      0.00084084470746809364    -142.96540811883091     
0.52869999999999995     0.00094094933640535643    -73.674465827633441     1.3297349490912535e-5     139.84093335443387      5.9012408160634692e-6     -36.218837265614539     0.00092446279189927524    -126.28362746487221     
0.56859999999999999     0.0018305126410285495     -104.32057578501352     1.9383577166571352e-5     -148.40548279622666     2.0336909415211701e-5     -165.5310171812053      0.0017071211096789031     -177.65475998971365     
0.60850000000000004     0.0023730672278555534     -157.20208694712002     3.2651664327197524e-5     -130.66936206711122     1.7870594590981906e-5     -160.28832902937327     0.0016667063323038522     121.03113787545333      
0.64839999999999998     0.001732320174410559      161.53504951357831      1.5504144442270389e-5     -124.98074194597551     7.631678839969658e-6      -106.91355323834195     0.0015397209262826292     81.030991177127362      
0.68830000000000002     0.0017016041719900882     127.66960691001454      1.3347668872097496e-5     -115.34921841111935     2.3915342430935841e-5     -95.326945564321875     0.0018499102016365759     37.825661045787214      
0.72819999999999996     0.0020768665940189301     86.529122218581847      3.1739764543829473e-5     -81.944077978230638     7.9393409214933061e-6     -143.08708751275313     0.0016909870837385794     -16.740205432287194     
0.7681                  0.001922052870561195      30.177940645398419      5.7219149297016089e-6     -56.309932474020215     8.6697422242806509e-6     8.4504205844690823      0.001189102116495954      -74.338200557796654     
0.80800000000000005     0.0012841062938552053     -3.4304911364324457     5.991119293264933e-6      58.009722454501677      1.7357104172367266e-5     -39.792975153031328     0.001154506111188605      -112.30491564757918     
0.84789999999999999     0.0012258142236517707     -18.923251425776098     2.3575607892131971e-5     62.746622750680231      7.528353621542827e-6      -62.344457001798524     0.00099040420438160936    -151.79954988579289     
0.88780000000000003     0.0013279329709143391     -48.59615704796262      8.3112854583099056e-6     -46.561894870128349     1.1786199176211333e-5     152.72223062474333      0.00083928271293322754    -171.31853374090227     
0.92769999999999997     0.0011571584985174581     -81.144900506574714     2.5406589081325188e-6     -179.83197766783357     2.5595550907257782e-5     11.450579478097637      0.000978949610516052      155.65399106935621      
0.96760000000000002     0.0010055716591506354     -90.162591965682665     1.1450378922570393e-5     43.866361244416524      7.0281884002180053e-6     161.5842586116629       0.00076268931915885732    105.65093486476295      
1.0075000000000001      0.0014553264869902023     -102.83242731311243     2.2813821348483611e-5     58.079904869576218      1.4944081780117634e-5     -12.262346454879108     0.00066463323389607685    106.59933544569792      
1.0474000000000001      0.0019722208852857009     -130.16113831733222     1.3384876283586714e-5     67.689255466994396      2.7137403851685628e-6     159.4255435408468       0.001355680739876808      81.799760031809015      
1.0872999999999999      0.0017371591351043208     -157.15605880459705     2.225297724169977e-5      87.543777952375393      1.6985462647785554e-5     69.18804043248366       0.0016636033687500206     39.066450351126811      
1.1272                  0.0014100874222211805     -117.08440849382164     3.0740207997287858e-5     128.29762081641545      2.5839094742690175e-5     47.477374422923724      0.0013684251969943155     59.227719639469356      
1.1671                  0.0014247683855315772     -135.98414832064719     5.2134051272346374e-5     87.206699205361801      2.6266995213522377e-5     14.706338990151012      0.0012963422051850732     34.542680159592571      
1.2070000000000001      0.0014124199604539211     -162.52228946300863     3.6191366079502025e-5     33.555939247527363      9.2445163559300577e-6     -74.04826115882706      0.0013847522343589517     6.6363031170807965      
1.2468999999999999      0.0011955328005965995     168.99146447045786      1.2689250905838313e-5     -31.70227149932763      1.3931464099743512e-5     43.157978339368263      0.0013488219031631745     -30.186589522483299     
1.2867999999999999      0.00085842768387216608    132.57157410426822      2.2545456886291504e-5     -90                     2.2615174279389568e-5     -38.149805266303453     0.001373397182880802      -68.446782304114251     
1.3267                  0.00055515455193778712    120.14413127841772      1.0518837238838127e-5     -84.798222653224684     2.3440670404910292e-5     -81.42691114445924      0.0014934598079781912     -109.38263822739223     
1.3666                  0.00086511822387826771    108.15610337715252      2.518181835276007e-5      -156.99283989440551     2.877166313312806e-5      -169.17891757104078     0.0013399106322765906     -145.86582091878165     
1.4065000000000001      0.0013650677204233958     59.438750398486242      2.3348380502478301e-5     136.09897179079366      1.4923782612229917e-5     51.934348901269558      0.0014134921873116618     -168.34932244332796     
1.4463999999999999      0.0012928446931037055     -3.9714253953964502     1.4268766388842872e-5     122.28762614435436      1.8881967467810076e-5     -47.71870704179257      0.0018709422343907442     137.37977819184457      
1.4863                  0.00078643925820706272    -50.274284036881376     2.132480599880018e-6      26.56505117707799       3.0251972154168241e-5     159.09216764018666      0.0021371864122029403     80.516530470842312      
1.5262                  0.00069089954974102606    -58.033454855028083     2.3088266157480206e-6     164.08000116280081      3.2140413510022055e-5     113.26660665681197      0.00195181351910714       51.472858501558079      
1.5661                  0.00087894517670996947    -83.424513149739226     1.8588290760944434e-5     146.85771311960733      1.6239580877992061e-5     85.526698683001143      0.001961766581700124      35.786691083933938      
1.6060000000000001      0.00090105721017576354    -117.33247771420247     3.566018333168714e-5      81.28751275845859       6.698275000525444e-6      31.444671277423694      0.0021643232081589104     14.068916308947008      
1.6458999999999999      0.00060380249567382009    -154.82310986737718     2.8281666925515155e-5     28.874277147084179      8.4500555452171214e-6     124.29256879938764      0.0019628824897244355     -12.77507731863026      
1.6858                  0.00014634102009509963    -166.95924941403334     6.1668352532937238e-6     -34.515653319224285     2.3510921847657258e-5     73.523363836299552      0.0018393834741471445     -31.733742511389565     
1.7257                  0.0002789996195417709     -87.71807376746672      2.7334595215088341e-6     35.682913930873774      8.2840706927872231e-6     57.524855458380863      0.0017508461832335231     -54.33542959365257      
1.7656000000000001      0.00045955766063572655    -122.8442284963965      2.3155546272175384e-5     -132.20920306876084     3.0063623569308701e-6     18.345143599422116      0.0016779818941402241     -70.189950023162353     
1.8055000000000001      0.000408933696934158      -150.86783042064999     2.8789047282921589e-6     -96.38931643765622      5.5451944040969551e-6     -23.602929457640897     0.0019630636316998944     -85.556546542076958     
1.8453999999999999      0.00031217059752921514    -168.08422688447331     1.2079103143036772e-5     -93.005357590522991     1.1639602620431427e-5     -25.843356080965538     0.0022260532917284851     -109.68840827093844     
1.8853                  0.00026860999075819402    165.48810787492724      2.5721498801706373e-5     -65.966736003640264     4.3203218065672602e-6     53.97989119955546       0.0021204857561460525     -129.8121697019287      
1.9252                  0.00015378287023241712    116.35525022241387      2.3311728476056344e-5     -119.35875106672155     1.347704795176372e-5      -74.972685271115907     0.0022300132034275963     -148.69750547491191     
1.9651000000000001      0.00010808592606561878    -106.72988611291782     1.939997993724572e-5      -158.88507723697006     2.2037877877032464e-5     -78.355763628587411     0.0021483532803728794     179.62742699653003      
2.0049999999999999      0.00033356593693257094    -152.87405705677091     8.4562120435696993e-6     55.735873736467695      2.8978533026143408e-5     -94.39418604758157      0.0017389036514092473     153.19176915428685      
2.0449000000000002      0.00030527502754569352    176.83948418780273      2.390286065915295e-5      -107.00031201877836     1.7329110311642429e-5     -118.44924628637213     0.0017286595582890751     133.54877169269912      
2.0848                  0.00037206330348985245    173.38460695711393      2.8822198122565296e-5     -153.13688098261827     1.3112551947594752e-5     173.04861893031554      0.0020256514468943703     103.47860185167468      
2.1246999999999998      0.00064531731960692802    141.97422565736323      3.0120132939753569e-5     161.55608750701455      1.5681461609706078e-5     -158.6282755284079      0.002029631871114451      60.290598222867814      
2.1646000000000001      0.00090545178850842082    84.183478827349504      3.5127748475916585e-5     49.403977810995471      3.2492497933076031e-5     146.15324763698752      0.00146529703419453       30.410109044002592      
2.2044999999999999      0.00083814649579944708    35.050393932090351      1.1749565601348877e-5     0                       2.7893350858187381e-5     67.22944687532943       0.0014423810709985874     8.1372177105104164      
2.2444000000000002      0.00058083584393809338    1.0650076683237453      6.6989835340538556e-6     5.4886650438571483      2.3077684806492413e-5     7.9051269311561869      0.0015802747745214095     -26.554661702295338     
2.2843                  0.00049695521419731558    0.84185481482073221     1.5620420749496655e-5     63.422727027136169      9.0780241710570374e-6     -53.543918910799043     0.0016634098560275891     -68.194539782624332     
2.3241999999999998      0.0007525306028050478     -11.314382493390323     1.1811292413258953e-5     -36.277153978498887     1.3340386792694573e-5     88.623885604560428      0.0014533235107529112     -104.9137450516216      
2.3641000000000001      0.00089931528680614852    -50.515512963462712     3.3021546451489433e-5     -112.62483707253227     2.4310395065634869e-5     -19.851085373623111     0.0010976462881404515     -124.11721502619648     
2.4039999999999999      0.00084783314571117109    -90.730099605422353     1.5350736612047177e-5     -119.73798276232826     4.0966943394120236e-5     -88.666084280792774     0.0010620278061091476     -141.04301478687745     
2.4439000000000002      0.00086857315307077056    -113.84756392229284     2.0108530416992156e-5     -164.43952516551778     4.6951327359600363e-5     -136.90979498567177     0.0011519559281570502     179.71539672624624      
2.4838                  0.0012040559186083767     -145.38783447392174     1.7292160354130063e-5     -45.733178363725372     1.4268766388842872e-5     147.71237385564567      0.00097060074897645254    121.40727767955477      
2.5236999999999998      0.0014974174055160574     159.52089756083299      3.112751815947035e-5      178.83421853529387      3.5207847700842495e-5     -140.85732570251682     0.00042588948466497643    96.764470899992062      
2.5636000000000001      0.0014869963747513237     100.41977773787586      4.3493088261798185e-5     73.017781126401303      5.4692263595332103e-5     131.00089227865112      0.00067083362662904956    94.234326427248362      
2.6034999999999999      0.0013594019968124367     63.997686726824554      2.2390040973805255e-5     -108.18775189727434     3.6436122695802298e-5     77.421631777979897      0.00095694531779278173    53.894371931662647      
2.6434000000000002      0.0012568484434662113     43.904767982058964      1.693859143917965e-5      -173.53456873537536     2.4118688266880675e-5     20.80877642811372       0.00098997297850898715    24.945723811040512      
2.6833                  0.0011377337460709439     29.877889383534207      3.4238397134742355e-5     114.66890193594084      4.5114480600956368e-6     -39.236145637299806     0.00081286386148641881    7.7000042037076586      
2.7231999999999998      0.0014321112673901259     96.19848104038806       4.1309633761677022e-5     -34.67031791098055      3.8506551062871645e-5     3.7831025512236254      0.00095770691801126066    76.424515493389976      
2.7631000000000001      0.0017869641974987457     61.736457391223269      4.7421273917863691e-5     -137.43867791519608     4.8052694430716218e-5     -82.408878949020874     0.0013195649049384636     53.552087058445267      
2.8029999999999999      0.0023515400430109863     26.997608541563274      1.3929425833634806e-5     155.779241460968        2.5984058723596258e-5     -128.56230982052378     0.0018470499188502098     15.075380721146315      
2.8429000000000002      0.0030259677545248888     -0.34859718720816979    5.2766607189089585e-5     177.24021083523272      2.9569514682434226e-5     -119.59446611981416     0.0021323580961928653     -12.757458480662059     
2.8828                  0.0037447580953831215     -27.692710385976969     8.653509125218102e-5      114.49743773908239      8.8494036356556163e-5     169.45827957144598      0.0024590086636104153     -31.982620318153696     
2.9226999999999999      0.0044849216736826038     -58.425415615134419     0.00011161905270058163    22.408634513326565      0.00011795495331212338    84.90124636400202       0.0032793412141892278     -53.984417624388321     
2.9626000000000001      0.0048805768692843175     -41.146306604785551     0.00010269395784827659    -36.197298441028792     9.0031221788351918e-5     45.144169542948106      0.0040613933114544993     -35.473077981659237     
3.0024999999999999      0.0049186924324930853     -68.986410030284262     8.217332214914334e-5      -130.768082631504       9.5700380339057715e-5     -39.072221508287903     0.0045083284405893964     -65.731096679098414     
3.0424000000000002      0.0052791958096995205     -94.245910455748898     8.8954791964547994e-5     136.73426564725625      6.1865361092047584e-5     -125.80719730701443     0.0047699796220025898     -94.27930750334302      
3.0823                  0.0053200079135951603     -121.72268960564693     0.0001025251569115076     32.605635955072266      6.1043221116190711e-5     177.01955723973873      0.0048207349271457162     -122.13975132924776     
3.1221999999999999      0.0059489832495911756     -158.22302877747256     0.00016646494342131751    -51.272107433285676     2.096081917573898e-5      89.144598668304369      0.0054284303438726653     -157.43682174687632     
3.1621000000000001      0.0066533304241723481     169.82697314322508      0.00014369594385123973    -153.49207718406413     4.0587728316635743e-5     165.96630743272243      0.0062655205157153369     170.42315923654832      
3.202                   0.0059698060750891522     144.87046580338247      0.00012456300381804571    131.89907500965674      9.5977578201817052e-5     97.031782592956688      0.0057088126974929139     143.95738698843897      
3.2418999999999998      0.0062689089915276015     106.71956803778745      6.3480304303477241e-5     25.798145600385958      0.00012268579118730969    8.6339961769763374      0.005971792668095075      104.75142912853084      
3.2818000000000001      0.0067225651332963685     79.382685209826874      4.6400264146803534e-5     -99.84649659360683      0.00013768936654051306    -74.073768133163483     0.0063236555902263436     78.366727713929635      
3.3216999999999999      0.0063529698662449542     45.528457425396311      0.00011819331686216851    130.7540778048772       9.8148512831358484e-5     -150.11863107715087     0.0060740729127968865     45.029668261707883      
3.3616000000000001      0.0072197468261317429     6.8499872668983519      0.00016062491473846867    37.933023675258866      5.3723500347873858e-5     127.07490483014328      0.0072376753115586789     6.2106078476518007      
3.4015                  0.0081736280488087041     -22.58135732813761      0.00016413682642974552    -49.312948074522005     5.5327596642486021e-5     -121.8622585569592      0.0082735479864909662     -25.763594756656971     
3.4413999999999998      0.0081194791333786421     -51.195687335358997     0.00010626662182795064    -141.79629476194671     0.00016748146849396888    157.13073811243203      0.0078961230077163845     -57.483201115986418     
