! PocketVna 1.81  pocketvna.com
! Live measurements ((Reflection-S11, Transmission-S21, Transmission-S12, Reflection-S22) Linear 10000000-4000000000/101 non-calibrated)
# GHz S MA R 50
! GHz                   |S11|                     <S11                   |S21|                     <S21                   |S12|                     <S12                   |S22|                     <S22                   
0.01                    0.00072283711675376122    114.77514056883193     1.5706716316794795e-5     -75.943981183279931    1.7903870745550697e-5     -127.08448757697342    0.0007241430436605705     117.49757002358116     
0.0499                  0.0027049596055999485     -17.741539204408756    6.349385484119297e-6      -36.843004533755099    6.3874466658945509e-6     26.535162927565196     0.0034231542356591696     -27.152097327090623    
0.089800000000000005    0.0025862038218020305     -111.83144790715524    7.0281884002180053e-6     18.415741388337111     1.9806378841539804e-5     -12.02852269165175     0.0026701036431161984     -143.10154841020596    
0.12970000000000001     0.0010295213645930342     -138.48828990502855    2.6507554354066617e-5     6.1961389675077765     2.4708410208160664e-5     64.09171591035728      0.00065397831125186981    -171.11835330255724    
0.1696                  0.0032542477077106093     -144.0503317597653     1.2513639936631159e-5     54.303696424178405     4.9284450240467977e-6     14.981632572390918     0.0017485060543320308     -148.23511277015487    
0.20949999999999999     0.0032778984396700443     135.90259019221023     2.8724403981711813e-5     113.44641990018155     1.1538842403246206e-5     172.09487306884381     0.00374559366465607       157.92722760545198     
0.24940000000000001     0.0024279564931144106     75.434890976779442     1.5872419353302205e-5     163.72580995364422     1.9027833265649029e-5     115.71219976398739     0.0053817801971827841     54.511432458435358     
0.2893                  0.001636799482299626      39.94779101521496      2.2600228205309657e-5     -162.81950279975953    2.2477662023663115e-5     156.70664809897784     0.0025447193266328115     -22.786612650523953    
0.32919999999999999     0.0010191447205674851     36.294866389667668     1.4161350899426468e-5     137.70806134787784     1.365772714838498e-5      125.51951057224171     0.00095893392513898075    -63.893447025077883    
0.36909999999999998     0.0011906116115340721     45.010394688925153     1.0107129314816093e-5     -133.74554837731847    6.6024798771713857e-6     -125.21448582180133    0.00031925968946693863    5.9945184864671486     
0.40899999999999997     0.0017915944242321475     14.93276784174472      8.8956437848976165e-6     124.83476581226567     1.3840333361429803e-5     -36.616978642632247    0.0012301675048211956     -2.7219699606507315    
0.44890000000000002     0.0018163461714420428     -44.929037792865763    2.2292119714818095e-5     -125.72467089133215    7.5447016012107834e-6     67.71527062689897      0.0020814986015863079     -64.017455916138204    
0.48880000000000001     0.00089760287669707524    -94.56521732010907     1.4540611197901262e-5     121.6132722139548      1.8575050540143848e-5     70.01689347810003      0.0023598584342456484     -133.66984997850875    
0.52869999999999995     0.00080519080096642058    -61.42394003682945     9.1583759864589159e-6     -33.754706238982394    8.5486053973213395e-6     -164.94634857987012    0.00145782922488356       166.4721254960773      
0.56859999999999999     0.0017237766894469624     -99.970709509782793    2.4895707860248923e-5     -174.14267429748321    1.2454886240751533e-5     -174.16321993307113    0.00060578658240822503    123.49872789921893     
0.60850000000000004     0.0025547734368899636     -144.97470218539596    2.7128857184572754e-5     -147.41415596004884    2.3115896686364176e-5     -105.9580792538642     0.00063455377181849404    169.65164968531403     
0.64839999999999998     0.0025865312280816534     159.0173988241938      3.2756176578690569e-5     -86.661854709680554    2.9004838497217418e-5     -95.025203045755731    0.0016445892795640732     135.11728472615684     
0.68830000000000002     0.0017790937263757742     95.098866261079053     2.8090159165226823e-5     -100.42174318069488    2.4584600536458232e-5     -144.46030368487996    0.0034478226182531524     59.685035835262006     
0.72819999999999996     0.0011028771775523122     85.343109007795704     1.6398348759493464e-5     -58.469242263102323    1.9073486328125e-6        -90                    0.003369552512168215      -27.443952962454553    
0.7681                  0.0017183062731301745     63.449281155804869     1.0649077080757605e-5     -26.600905852944081    5.6810615981178599e-6     -63.43494882292201     0.0019663327532671963     -117.14002282008228    
0.80800000000000005     0.002438372013680442      10.701314151511994     9.2296425963557035e-6     -26.56505117707799     6.798184269142947e-6      -37.384817355564259    0.00066976916206315583    -177.90834380471134    
0.84789999999999999     0.0017634872788035508     -58.825597863518674    2.0610466109140475e-5     -33.678578498759983    1.4763481024920631e-5     25.46583137224837      0.00028739758687443956    -75.671951976387234    
0.88780000000000003     0.00064082394186515965    -83.68474655185409     4.9567195806804544e-6     50.183402006502        5.8540895384448409e-6     139.33543008584019     0.0012180074837420134     -125.08636922299205    
0.92769999999999997     0.00080868377323703011    -33.534143697980141    2.5965521375465177e-5     101.99026571152083     1.4616863775709408e-5     -34.38668766409495     0.0017662177401974132     176.45448209276486     
0.96760000000000002     0.0016241453368955985     -69.492252445290049    9.0940066633765864e-6     -24.801368893625188    6.7249817098127192e-6     -160.72193658509397    0.0017236094889282409     103.92115144878466     
1.0075000000000001      0.0022888499575736639     -118.86540888542983    1.225488247590508e-5      126.57032370759258     2.6854175716712127e-5     65.546836006175326     0.0013415515637988315     51.052157811087987     
1.0474000000000001      0.0016908558622337904     -156.08231966590199    1.9517680067868881e-5     68.007700056898557     9.4452441618821715e-6     70.36441719555296      0.00069362316912543369    23.784082707913452     
1.0872999999999999      0.0010501486037346852     -154.6125045240133     2.1148084217817007e-5     48.656465789625123     2.0447489638905765e-5     53.848297669967806     0.00038824746189017247    58.987781857641679     
1.1272                  0.0012934171676387549     -97.135537192775772    1.7210475096689962e-5     52.475265260972492     5.9625921698635147e-6     -154.77982348893531    0.00104966654835474       121.65628561965259     
1.1671                  0.001811934841546818      -126.70742958077889    3.4348020994445241e-5     86.81672289545017      2.4209417465927866e-5     73.221375388865283     0.0023493074340760456     65.690065969124348     
1.2070000000000001      0.001945809512606042      -168.536122162971      1.2642256598929012e-5     61.486555812668222     2.6129646101088578e-5     27.49298483184204      0.0027562500982921188     1.1353415272791525     
1.2468999999999999      0.001204493173926562      141.62552142155172     2.8837856950390452e-5     -28.266667849130911    7.8423899677528804e-6     -31.757276146685903    0.0019242064647721012     -63.257354203311984    
1.2867999999999999      0.00040987297809085644    127.50877314518101     3.0501757001596083e-5     -75.529268754486623    2.6346619386713127e-5     -12.527050277721074    0.0011298310180094283     -106.20427038333212    
1.3267                  0.0006916374359795534     154.98750640343744     2.5284404522327291e-5     -122.69262039940709    1.143368001587277e-5      -88.394345807369021    0.00065468715836454938    -99.266153377362826    
1.3666                  0.0011670095990210976     104.39919300313615     3.867490103317967e-5      -147.74891452640145    9.8085471627667689e-6     150.96230479212832     0.0013692587486063329     -112.36639925388016    
1.4065000000000001      0.0014650127975945476     49.509356076182513     1.8049021884873335e-5     55.732664556655784     3.0087156669806651e-6     108.47981629966546     0.0022629844914189589     -163.00647564315938    
1.4463999999999999      0.0011335643697223336     -9.7073654979324768    6.9356902123804533e-6     -164.03769520787171    1.0124777069700561e-5     -122.19309101855143    0.0023106502510121299     120.65987451245333     
1.4863                  0.00071511868288969894    -43.452800241731438    1.0164847614798133e-5     -165.52577066015598    9.5307837479780451e-6     126.89677183689062     0.0020393896804539735     66.072812782725421     
1.5262                  0.00072188043754772997    -54.940301281980396    1.1149676241582479e-5     175.09327813621354     2.1486075474561412e-5     108.98156375729874     0.0015303122998625799     44.899007791698651     
1.5661                  0.00092786135111088146    -82.765417985984911    9.4412350922583113e-6     132.24935700648925     8.3836381494137653e-6     37.307805670478572     0.0014947999483450264     42.046987981999777     
1.6060000000000001      0.00095547815308289537    -117.91905785744697    9.7429695875657778e-6     109.05845748056596     1.6945444316660763e-5     76.990277545498316     0.0020994818265758818     32.832008538927518     
1.6458999999999999      0.00060264106676103258    -158.09783147369481    1.7579016131243458e-5     73.223998586904656     8.2794993829830518e-6     94.386842056211421     0.0028685059662574165     2.7281301877626865     
1.6858                  0.00011671772066885347    -176.72481732623407    3.4803390983162823e-5     25.391099156365886     1.6507038331860394e-5     78.887865748872429     0.002714880637604911      -46.293749827843534    
1.7257                  0.00025252788308904395    -93.315139674834683    2.1581802449965656e-5     -63.797631482215394    8.6672031182238042e-6     23.722445217417587     0.0017383082579413385     -79.326292957368906    
1.7656000000000001      0.00041349508622385352    -120.24685080970646    1.7512473599294159e-5     -136.46526617423746    1.0552931449431606e-5     -21.147873805673999    0.001220335299802518      -77.207378267916752    
1.8055000000000001      0.00042448193174866226    -146.90488255000457    9.842216968536377e-6      -90                    1.5250011733121061e-5     -102.01264347938668    0.0015254971060315399     -74.288693595544046    
1.8453999999999999      0.00036020420755808734    -163.19439277063978    1.624016368129999e-5      -85.500492884978442    1.2685337169415946e-5     -31.673640713367057    0.0022406208307246189     -94.396791137790771    
1.8853                  0.00032241431770078292    161.15472595059734     6.0244981910344323e-6     -108.45735624435027    1.8746384800849719e-5     -26.127143152443445    0.0028312694849348145     -126.34811582052234    
1.9252                  0.00018050974232262294    87.579991602772949     1.1148468835842959e-5     -69.990722060706744    3.0628484110293376e-5     -70.62181459269344     0.0024661005970152993     -162.46550063173044    
1.9651000000000001      0.00023506369316807915    -96.203016172369956    1.9638816068463586e-5     -104.05205938016179    1.7467099264902881e-5     -88.949043428135099    0.0017314096784574328     171.07467091518265     
2.0049999999999999      0.00042195176442200318    -169.11248596176696    2.2768327001428552e-5     -112.9991774856128     2.4476622384490083e-5     -112.91233155655402    0.0015294116400320502     160.87647960247833     
2.0449000000000002      0.00021461281725316432    114.10022768724954     1.6195809145854824e-5     -151.92596260196436    1.5326271685175068e-5     -95.943400131762417    0.0017865738201604657     143.92847989396947     
2.0848                  0.00060195725095689456    -137.28724295657776    1.8693922448923407e-5     -159.10184662058359    2.7563302836731441e-5     -155.48554866955084    0.0023289952741410444     108.86723429618098     
2.1246999999999998      0.0010549373452546319     131.51014219778494     1.1007927114377358e-5     136.17921045814271     3.1312857966354538e-5     -149.54827944709407    0.0026871031777433922     54.420640630778607     
2.1646000000000001      0.00095396271294728708    63.895636235509478     5.2531877042267442e-6     -154.99783425172208    2.5136251569415596e-5     86.380231650517118     0.0012960084015619037     5.0315751520721914     
2.2044999999999999      0.00058884339705293027    24.091524518273044     3.1113625464825323e-5     89.986279746547439     1.9077183611436199e-5     18.442024996717464     0.00096069158890017988    12.231093986060365     
2.2444000000000002      0.00046041461933843077    25.575239294049556     1.6538006607885263e-5     3.3058302315497028     1.2642443211698394e-5     51.123982283447546     0.0014133992672075101     -9.6084020076702004    
2.2843                  0.00076538471967047266    7.8440158835908456     1.0370223297292632e-5     -27.375091771538006    1.2895810043653244e-5     9.9140177987205611     0.0018194840304727722     -49.848606602341754    
2.3241999999999998      0.0008537111597088843     -33.193706989304104    1.2155916222015561e-5     -130.74984739024819    3.131308399638491e-5      -22.672299024032547    0.0021489741850429151     -97.641532836936094    
2.3641000000000001      0.00063792879693285657    -66.969411719960149    1.2079103143036772e-5     -3.0053575905229732    1.6131582386717429e-5     -36.208312968149869    0.0016736797991690018     -147.56730596383312    
2.4039999999999999      0.00061708845067159261    -70.147568976952286    2.9889582500303622e-5     -93.057826625642008    1.4924256859242941e-5     -60.709246277617822    0.00063974391765564864    -175.27365219860391    
2.4439000000000002      0.0010885876783749511     -96.986149303720083    2.7183281726694776e-5     -165.79997857495999    2.0419313522329018e-5     -105.33946342764061    0.00064833014429626723    -166.80777660007791    
2.4838                  0.0015580132335890028     -152.61504585726362    1.1443829859403218e-5     146.30993247402023     3.4743843627331197e-5     -149.21113718016602    0.00095942540517347016    160.59387664157418     
2.5236999999999998      0.001429558950660721      146.69828180591401     1.7779839245215854e-5     -88.991544744829795    2.8722675269811283e-5     166.59097859003415     0.0010532805612159103     100.75424818651013     
2.5636000000000001      0.0012528195437669469     96.417292636229163     2.3577885858600377e-5     115.51238499377766     1.8516334236901275e-5     95.912467245964422     0.00079107350233865602    45.927269865007254     
2.6034999999999999      0.0011863546093034739     71.055613520198889     1.5508417069603613e-5     144.99670465605928     2.1486075474561412e-5     108.98156375729874     0.00038403369837171385    58.386162198133981     
2.6434000000000002      0.0013076791553504811     51.49660570713074      1.1149676241582479e-5     94.906721863786473     8.6346186158187528e-6     143.95081765337409     0.00096720498824970813    50.514393135528678     
2.6833                  0.001330186707992376      28.88986647311151      1.3059754189523292e-5     108.42461222200346     1.9595997221118417e-5     63.025769800789497     0.001164365487034481      16.003360240007794     
2.7231999999999998      0.0014777783773738508     86.600308681454067     6.2713730328034289e-5     -47.662665323121949    4.351851472052888e-5      20.945251906385732     0.0012963377459096444     62.455566242560089     
2.7631000000000001      0.0015406545052371043     59.550596908898534     7.4123708877888987e-5     -144.06196793697069    7.5234387220928206e-5     -73.321951464320591    0.0011159776919288824     24.11493339818395      
2.8029999999999999      0.0021862432177482691     33.177857951156319     4.6782233538857503e-5     148.03620835931326     4.1835906367538363e-5     -147.39107021026129    0.0010480766322346004     29.391744512280614     
2.8429000000000002      0.0031823789030842411     4.1882509144732616     3.570892361903804e-5      80.791205981804595     1.9995728788235216e-5     147.32249663755255     0.0023060763261320556     8.8708857107600547     
2.8828                  0.0040784720422584325     -28.494371810509357    1.9355204544980851e-5     138.98005888420377     3.5847438584994275e-5     147.30412669288467     0.0033601511415648337     -29.835552065573797    
2.9226999999999999      0.004460027010516677      -62.283813371953862    3.2259858521754655e-5     69.250357300206218     5.021609796394999e-5      103.15582267225788     0.0036983716176362748     -64.611862175327857    
2.9626000000000001      0.0045928896593710822     -41.564156153015986    3.1981798377618124e-5     96.836942212789438     6.3112150911959851e-5     106.06432061464285     0.003752595830745296      -44.814990277961684    
3.0024999999999999      0.0048335028595679844     -66.159422460084869    3.6583186825192576e-5     3.4911714293547798     7.0197199702838053e-5     5.7075676018157671     0.0037748235004243899     -67.21595730885268     
3.0424000000000002      0.0054608602745691683     -93.076376837452599    4.8527308437195379e-5     -77.145825071378184    7.9137628193735513e-5     -61.482960324691575    0.0043767584551653626     -87.201488129930709    
3.0823                  0.0052877433599762694     -122.74535448899863    4.8150176489196736e-5     164.31643259011454     0.00012236607476206787    -139.94965299284263    0.005074229785672759      -114.65666708806721    
3.1221999999999999      0.0059772194331430654     -156.83297506002057    5.0022061773682093e-5     -8.0311376735355324    0.00012208354311192031    131.94250865601543     0.0060804806399498666     -156.09857247703806    
3.1621000000000001      0.0067818474978966784     169.23086907998191     6.5145015394684429e-5     -79.895602369655919    8.8697340804183954e-5     55.060419564078956     0.006646017975760898      166.53470392444365     
3.202                   0.0058479971280650566     144.66951898176194     9.1647170346078835e-5     -149.61380715862404    4.3997376695442016e-5     -30.825646565208594    0.0053151480076245048     140.76501747490357     
3.2418999999999998      0.0061614452913744721     107.80280647201087     0.00010064760800505361    132.95416333793639     2.3580269541343904e-5     46.638770629315069     0.0055055806716551659     107.35757700205266     
3.2818000000000001      0.0067452979860965221     80.957076823944874     6.816980447803622e-5      64.034266920007326     8.5377366575564086e-5     -24.851967922633914    0.0064846076265991596     83.99657614272904      
3.3216999999999999      0.0064645068527438287     46.510543529342392     2.2170206324803379e-5     -29.14063373339431     0.00010531245870422113    -97.275347161679832    0.0067144601791263398     45.530756888307252     
3.3616000000000001      0.0073316937285880721     6.5750237458217651     2.4795588195404057e-5     71.33639192547335      0.00012203906008041704    -163.21565479358094    0.0075395512313928279     1.3441041356960068     
3.4015                  0.0081154432640223768     -22.956659948636311    5.0268347291396745e-5     -9.8225190055525129    8.4501470225562599e-5     154.3974327969986      0.0075500573272005676     -28.540697128147908    
3.4413999999999998      0.0079776917989066738     -50.502168524014586    5.7074305464197966e-5     -42.741097401134695    8.677534621375624e-5      117.68934587724297     0.0072657644392148824     -53.77512022560046     
3.4813000000000001      0.007961945872736095      -82.052793799692296    6.5939037882638493e-5     -58.986281072333526    0.00011370786344971727    81.324624327176124     0.007456641652866699      -82.660749293887946    
