! PocketVna 1.81  pocketvna.com
! Live measurements ((Reflection-S11, Transmission-S21, Transmission-S12, Reflection-S22) Linear 10000000-4000000000/101 non-calibrated)
# GHz S MA R 50
! GHz                   |S11|                     <S11                   |S21|                     <S21                   |S12|                     <S12                   |S22|                     <S22                   
0.01                    0.00056447997238020359    127.73417058117558     1.0709770986656086e-5     -102.00567183008766    2.011253837570669e-5      -101.84274621789154    0.00050179749334452138    132.0240142049941      
0.0499                  0.002862927615334159      5.0263310412020052     1.1499982615634467e-5     6.3606881961742774     2.016244674389391e-5      -26.157899128067619    0.002520879713675274      5.6379696123657741     
0.089800000000000005    0.0038256676536671838     -111.27072149862374    1.4770208068387128e-5     25.453404349845904     1.4678683794760541e-5     -38.818773544414398    0.0040627159987805667     -101.92987819297338    
0.12970000000000001     0.00080099570556397756    -151.9310869320166     1.6827866557758367e-5     35.794237548092859     1.6665876303524496e-5     30.968149369564962     0.0022838377574189469     171.67047932491198     
0.1696                  0.003561786474857036      -146.3495556682121     1.0480189112137564e-5     88.288970594521601     6.7249817098127192e-6     109.27806341490604     0.0009627967925476006     -179.20632073403115    
0.20949999999999999     0.0027601134643732606     112.50277324449725     3.4083833037113871e-5     99.106107080273247     2.0080873879141695e-5     71.571773666723672     0.0032457208520239597     151.68246182728342     
0.24940000000000001     0.0013275928366907283     111.43484579422633     1.7695756323884725e-5     -170.72010991981412    2.1629338319013689e-5     -176.62310864680506    0.0036043262294897598     41.12471293969547      
0.2893                  0.0034991580415172658     57.291931712349935     1.6812796006064172e-5     -169.11830890285657    1.2092879894233513e-5     166.3147872505269      0.0012158265669509171     -7.0805521750041462    
0.32919999999999999     0.0011435193517369353     -8.3822999094856616    1.136212319623572e-5      153.43494882292202     5.1206090236351188e-6     -172.89566431416441    0.0010575571888986983     23.085748498530609     
0.36909999999999998     0.0008289374604100602     60.489414685846732     9.9393593545015687e-6     -116.5842586116629     1.5772616925828484e-5     -115.03978431967597    0.0019509907464471061     -7.8478944768481584    
0.40899999999999997     0.0020392023209410866     21.242983088679097     1.0676245246214493e-5     149.60541082527794     1.8946581814840715e-5     -39.543052616337725    0.0018129309449971731     -82.279926171598717    
0.44890000000000002     0.0017624758779980852     -54.606284899526628    1.2793482173178328e-5     135.99101431638064     1.112066981009825e-5      88.387541956409251     0.00067457631658223219    -124.06461553421222    
0.48880000000000001     0.00075957043151186248    -50.768088589688318    1.8835033855924562e-5     -174.18792267050614    1.5061528812693916e-5     42.433839177299546     0.00093466525367079389    -83.367221623080411    
0.52869999999999995     0.0012268037007445594     -107.59566867673121    1.3031561733952144e-5     -92.785520143434965    2.5596574551544721e-5     172.87705224014755     0.0018873893549037504     -140.7621540544699     
0.56859999999999999     0.00098157628209644718    -89.054486040461811    1.9311022430179749e-5     -152.59460507111177    1.1023339832715212e-5     -168.34070734647699    0.0014923697619993374     149.33725573789818     
0.60850000000000004     0.0027614984014544225     -119.26761733500905    2.7658227090126077e-5     -77.412599110895485    1.3562422653392047e-5     -122.57258355349386    0.00098863102731284623    119.68543225068876     
0.64839999999999998     0.0042987849808716373     157.46377965949051     3.142893436020427e-5      -135.81639759610667    2.518181835276007e-5      -113.00716010559452    0.0014083185606407226     103.49434206940759     
0.68830000000000002     0.0019118649646516263     69.994173546266083     1.8751062858926693e-5     -61.703869959609641    1.7970806577706737e-5     -133.55531004535553    0.0023220304031748395     43.3377685102569       
0.72819999999999996     0.00070370934694292508    86.430136290949278     2.2261569305679939e-5     -86.719119227390593    1.6910700807313106e-5     -129.67305443567813    0.0017909079239382957     -23.155805266047786    
0.7681                  0.0015979156325226062     74.86458937177828      4.1316341377931549e-6     157.41192629825346     4.4248671362063982e-6     -158.87937136434488    0.0010760156172806071     -77.612249114423705    
0.80800000000000005     0.0026428309734032114     21.089407229833409     1.2362453173079416e-5     41.84861257382034      1.701681455230571e-5      -75.988093699352802    0.0010684940413876532     -101.9710872357641     
0.84789999999999999     0.0023108720161219647     -54.71591420093575     1.9890193932838952e-5     -171.75152437563506    2.3865711118848332e-5     61.386685252339269     0.0013536510266951764     -144.92321427040997    
0.88780000000000003     0.00095197387439291728    -109.90958702442363    1.7274713791144881e-5     17.106362643547318     1.2689250905838313e-5     -121.70227149932762    0.0010643462023346238     166.68497929398416     
0.92769999999999997     0.00048949048212897073    -15.57774940439708     4.8028571548136078e-6     -7.5770229346477906    7.1307934010061017e-7     26.029592191513455     0.00059818023576029748    136.78513480541798     
0.96760000000000002     0.0015209897156727376     -51.347599409469915    5.1732198449655662e-6     -47.509829229924925    1.0746560526844343e-5     108.97510351028218     0.00067094278590245011    140.81950970537468     
1.0075000000000001      0.0026569466506253833     -105.66901880745088    2.2948003530266494e-5     75.580256372246581     1.037045079461667e-5      40.016390781135257     0.0011113177471183909     98.891689003071903     
1.0474000000000001      0.0024293299202992236     -158.44485565301275    2.9876855134654561e-5     47.152507323270768     2.0480053705082658e-5     -19.001823680056447    0.0012344620678524762     60.117863532041561     
1.0872999999999999      0.0010229447191201688     -177.65154672142666    5.1261564735963935e-6     119.80685615596627     6.1626165784155822e-6     124.45857649264993     0.0010853128318320821     41.501216001025767     
1.1272                  0.0010518634875587114     -95.942792870494458    1.4926951412086598e-5     88.770174666989249     2.4019503618651568e-5     44.459608364773267     0.0012071410772521282     80.079145067726515     
1.1671                  0.0017145134710221        -125.02331009276307    5.1357725947409285e-5     68.993520952948714     2.9850604948338301e-5     57.154789612931296     0.0016702490500245513     43.2899136420383       
1.2070000000000001      0.001633379216128284      -166.97952552138042    3.2967464539075743e-5     -7.1924722447279406    1.3840333361429803e-5     36.616978642632247     0.0015853540121555387     0.13759663433076114    
1.2468999999999999      0.0011491044036007539     163.1671778470311      1.8604768112583538e-5     -62.552439891215059    8.3816647495692668e-6     24.583052625582472     0.001293519830449282      -35.972537823004139    
1.2867999999999999      0.00072453017149349272    135.37246189953439     1.8548541745373692e-5     -51.933257365968153    6.7481862601035283e-6     -48.849780550179034    0.0012950761634457086     -66.306997479396088    
1.3267                  0.00065982457432818076    137.04764543233225     1.7822681153185091e-5     -85.900731210272923    1.1932855559424166e-5     -118.61331474766075    0.0015386421068304124     -104.19107799886922    
1.3666                  0.0010394761596495329     96.612573651415659     3.5511475098123345e-5     -125.54745975955311    1.8636060262856068e-5     -166.19153841746859    0.0015667498572792535     -147.42093616843417    
1.4065000000000001      0.0011013795577783647     50.849756863661398     2.9210948334667335e-5     127.48661750013487     2.5729633784538523e-5     51.005935608667656     0.0013737475075902715     178.46379746509803     
1.4463999999999999      0.0011262940949559443     16.105018993189891     1.0559207702019678e-5     6.8893357564755862     1.3709019707510707e-5     -76.613272213954787    0.0014840570258784845     135.99670157906851     
1.4863                  0.0013090784497394297     -37.222932713457915    4.5161643738835565e-6     -129.3093589613502     2.6048512701360423e-5     170.88253677885962     0.0018987367196425008     90.057555660018124     
1.5262                  0.0010054355083931252     -98.718369056482587    3.3020356240624218e-5     146.76530582558874     1.2560682342777533e-5     110.70322233561178     0.0021032572342188104     56.97689822899023      
1.5661                  0.00041704946073625965    -100.61795755635892    2.5780978025973495e-5     127.99261606485238     5.408100297449321e-6      -130.2502639265511     0.0020522107654030396     34.211326157699396     
1.6060000000000001      0.00061785564142130252    -100.39161015604       3.0930892195957668e-5     70.818724966741513     1.0870808167263985e-5     -173.26951606538435    0.0021016836047889156     15.707629625474839     
1.6458999999999999      0.00034407470505531761    -123.17631501864183    1.9218159942029982e-5     22.329390205467469     3.3307766185348021e-5     112.40592857297544     0.0021438893823501246     -9.9268339183444105    
1.6858                  0.00058182722562055862    -107.04085665656797    1.109038880819391e-5      66.397070542359117     1.8071137110510073e-5     71.56505117707799      0.0018904335625626286     -36.338865270289944    
1.7257                  0.00058658833100760227    -153.61492713460044    2.2306775768486348e-5     -4.9050849953368871    1.0101978993140712e-5     43.715020635545521     0.0016712980808111001     -53.918411570281734    
1.7656000000000001      0.00044634177654504816    160.85610396151648     2.8745745824226515e-5     -106.03922969119952    1.6288463663240727e-5     -56.927789931396845    0.001764891471628285      -69.693815861408325    
1.8055000000000001      0.00042581675268448687    -20.15029646574196     1.0025328606227185e-5     -169.03245187199343    4.7206175461291557e-6     -137.75064299351078    0.0019735047316585884     -90.709727959227621    
1.8453999999999999      0.00086312465567927644    -122.76054482917795    2.1785830187069987e-5     -44.4042007941759      1.0157633685148599e-5     14.484733560322967     0.0019802908770339984     -110.98945536465227    
1.8853                  0.00088344179462671903    164.87494628139726     2.2496945142968033e-5     -98.916397238959831    1.83284116106229e-5       8.9568856838764983     0.0019845371238913592     -126.19526507062602    
1.9252                  0.00078318076191182776    65.752049221445617     6.7329590496153217e-6     -45                    3.1768692054406848e-5     -91.720238383744089    0.0021814145138225891     -144.66972356546515    
1.9651000000000001      0.00063151707289874385    -60.612714849516742    1.9467585813865551e-5     -65.94622615045499     1.3561550813930434e-5     -106.30427353344133    0.0022689858617785793     -173.28175488473607    
2.0049999999999999      0.00076818228998068601    -146.65163253030227    2.228220040885156e-5      -139.02674102706237    2.5568179264913691e-5     -75.60740883357856     0.0020441950310112564     153.60613493564759     
2.0449000000000002      0.00063716574746591976    153.89487525584809     2.0026683890395779e-6     -71.56505117707799     2.0531638640099927e-5     -148.27671859271564    0.0018654502660699797     125.55135118627413     
2.0848                  0.00037518695415345032    104.10744025207643     3.0044973197158595e-5     -128.56661199456218    1.0226868415627974e-5     -154.21900634225801    0.0018763966384528184     97.203294041741458     
2.1246999999999998      0.00028740296202528297    165.67375867833627     2.7418106227448479e-5     137.81952246369966     1.8045118555964424e-5     -151.62554164999236    0.001818842919705908      63.242762838691988     
2.1646000000000001      0.00078050460052712229    104.48859046557851     2.6649776969841298e-5     21.673504054598592     4.722331799400906e-5      131.73188240600507     0.0015219301090564311     32.977455684290931     
2.2044999999999999      0.00089968566676155005    48.190010232850845     6.9634235944871159e-6     -30.049036526183684    2.8369449246836464e-5     49.537435784883137     0.0014518185457592001     7.3377137797436767     
2.2444000000000002      0.00074284544802467802    11.814163070272242     3.4385216478958026e-6     123.69006752597979     3.3961865574546583e-5     -41.593873114309723    0.0015127666786470962     -27.135227517503331    
2.2843                  0.0007237507253167485     -12.773834951560632    2.636488878337794e-5      9.0071385909777675     6.3874466658945509e-6     153.46483707243482     0.0015362459668266924     -65.622760204597355    
2.3241999999999998      0.00059091937597552087    -40.27055000087126     3.9205614915027251e-5     -31.763006955604137    2.1180911718372789e-5     40.148779106145042     0.0014220708097244718     -95.380949324933184    
2.3641000000000001      0.00055299054145203973    -36.501515584604114    2.54195335699085e-5       -110.48528545924661    4.4040328969054009e-5     -34.711705740217582    0.0013785129105804439     -120.59953731306908    
2.4039999999999999      0.00094874529270573787    -64.103830028362822    1.2009545543081826e-5     -142.51159643649908    4.7204340975067148e-5     -104.42227457612255    0.001270698352213978      -154.16483398897932    
2.4439000000000002      0.0012780640517879734     -115.17095508140555    1.8015648703825252e-5     -40.706669619724984    1.1347314967527732e-5     162.06471100594169     0.00091422216369399989    160.31250465799383     
2.4838                  0.0012539865275718318     -163.97866453563844    1.2947507832390828e-5     -78.683601463541024    2.9121154457093157e-5     -161.56505117707798    0.00063184551658698306    136.6904708368601      
2.5236999999999998      0.0011104043906985941     154.71007202702023     2.6147440816272382e-5     150.95173884117295     2.5184167046274882e-5     -174.94215378190074    0.00067607788438106304    113.41042366003494     
2.5636000000000001      0.0012651365525886643     111.97503499752341     1.8748909024644038e-5     88.064298918834709     4.0503127586399048e-5     131.1888996126257      0.00075493707900386759    77.465795007691582     
2.6034999999999999      0.0014106041282243458     74.021057907432322     2.3903515556925433e-5     -109.40635357572883    2.8197884521896683e-5     82.240288579586405     0.00079999371992704716    51.251021862993404     
2.6434000000000002      0.0014506783146878389     45.576178313657387     2.6429069331323276e-5     147.26865568726944     1.1545133224808351e-5     148.4845468700712      0.00097385395176745727    32.03725805101292      
2.6833                  0.0012205735290637279     22.983438496806372     2.9206275939941406e-5     90                     1.9623661038167562e-5     80.670000373148213     0.00091395000679534225    10.954698722585549     
2.7231999999999998      0.0013765587050019476     88.532701640350055     5.6697464432728999e-5     -36.805146470512298    3.8986304750151068e-5     12.224765963831327     0.0010217913392555171     67.587323623709466     
2.7631000000000001      0.0016345001287752254     60.626653682666408     5.486622171447899e-5      -127.00216632067173    5.6330755518827172e-5     -53.709088168567135    0.0011779983467223806     47.697961085235356     
2.8029999999999999      0.0021872484585143837     29.862677247906962     5.3775072699277865e-5     158.88554674313627     5.4945190505739056e-5     -149.43597497897522    0.0016644832945275525     18.818646794164657     
2.8429000000000002      0.0031326687740543886     2.6085518706310276     3.4040170688253468e-5     86.247655496549953     3.9317699301739057e-5     137.29613329636081     0.0022198673880489132     -8.5878657466605883    
2.8828                  0.003934514972039743      -29.585571030445564    1.4033781181586717e-5     127.6668885145989      1.7087969539848468e-5     -138.0220718863151     0.0026651899726661331     -33.296338828537763    
2.9226999999999999      0.0046079498582712866     -60.219830611594176    5.7541092978449765e-5     96.654793487866186     8.5975444629923513e-5     126.74179491534878     0.0032691427872175265     -57.49375492888305     
2.9626000000000001      0.0046647075219002328     -45.463265999878878    3.5996993430370083e-5     11.702984426222164     7.4970899251746847e-5     79.255122773178911     0.0039400036822135947     -37.261357709287665    
3.0024999999999999      0.0045404158216547268     -67.886876881968135    1.7286960666760063e-5     -7.3792405813079682    5.5909121552022357e-5     -1.6189138218899919    0.0043896217442649828     -66.47592762771508     
3.0424000000000002      0.0053676150353399506     -89.806821083274656    1.5828324921732181e-5     -51.517095009365853    7.7357978695278911e-5     -52.002082915911977    0.0047612305829834141     -94.042038289876857    
3.0823                  0.0059751223692122669     -122.17160436085653    1.9925769564358402e-5     -149.35957135531439    0.0001421832262194405     -133.28011412786756    0.0048759842762488119     -122.80943335441829    
3.1221999999999999      0.0061509969288682667     -166.61368138098516    5.6012819266428974e-5     21.620260039863084     0.00014840042885688062    122.77013942781201     0.0054207016693389037     -159.09041099993019    
3.1621000000000001      0.00604471959840964       167.52309626162497     8.2634806903335241e-5     -76.442379665979047    7.4849896181341648e-5     33.761248265630563     0.0061761043549746512     169.78371359510024     
3.202                   0.0057367687197719015     147.62315871626015     0.00010855500455292797    -167.67123704251193    4.4857975119666072e-5     -97.73173541224898     0.0056702244453105963     144.27616266193411     
3.2418999999999998      0.006288983521736586      108.47611882916826     0.00010951976025574592    113.21803918211816     3.1249204142552389e-5     42.12022920114488      0.0060783418616570314     104.72228292252342     
3.2818000000000001      0.0069433901134604743     80.019493617066658     4.0802221518361603e-5     29.359463303153426     9.9023857166358323e-5     -38.23228598892949     0.0063945162914674815     76.723521192580236     
3.3216999999999999      0.0066601136268641566     43.106842141662057     2.5722227170936493e-5     118.77734782081072     9.5705472185881154e-5     -116.397490972421      0.0060301039164656553     42.330295225402466     
3.3616000000000001      0.0071630641988537046     3.2729800603090973     7.24328340209925e-5       31.738004011701793     7.1161147428307523e-5     -165.52727004608556    0.0070377906957513137     4.6268604219860716     
3.4015                  0.0078958312348467782     -23.151417249322197    8.7169028265323355e-5     -47.067779175018963    7.9481794384673906e-5     -172.19347043442914    0.0079759514656206065     -25.488841023042859    
3.4413999999999998      0.0080886772096899501     -50.552673888764645    3.3447312680815376e-5     -160.01907430518099    0.00014240953003365032    130.11683715283104     0.0079410032706270627     -55.987153054614154    
3.4813000000000001      0.0080556233802868641     -84.991405783364016    7.3731466583879825e-5     20.156234915209993     0.00019715386377613817    66.861967712337815     0.0076238973920451395     -89.785265368217864    
