! PocketVna 1.81  pocketvna.com
! Live measurements ((Reflection-S11, Transmission-S21, Transmission-S12, Reflection-S22) Linear 10000000-4000000000/101 non-calibrated)
# GHz S MA R 50
! GHz                   |S11|                     <S11                   |S21|                     <S21                   |S12|                     <S12                   |S22|                     <S22                   
0.01                    0.00071799186686664234    115.20514256762264     2.1675863381934578e-5     -121.82167660896722    2.8279762949013365e-5     -122.61822593519179    0.00055310536373996807    128.98850883473921     
0.0499                  0.0026776727028441473     -17.878515503830837    4.1400363053866232e-6     -32.431650696357956    1.74669641976537e-5       -117.04596592242817    0.002767845392347844      -1.2883978892090358    
0.089800000000000005    0.0025205288646482573     -110.61521555849676    1.7516473438214742e-5     67.623841704356821     5.8248913571083641e-6     -29.417636233689002    0.0037332827287337835     -120.81415001300363    
0.12970000000000001     0.0010752603540480814     -136.29201495240815    5.8532787322379229e-6     12.497165696897893     1.2212356180506966e-5     8.9853472990285166     0.00082853378036646622    -170.02529912359293    
0.1696                  0.0032602619098011081     -143.54632651230247    1.1450029863046952e-5     146.3306131370864      8.5462024307408262e-6     47.968234029871709     0.0034770998479289874     -164.58420511021797    
0.20949999999999999     0.0033386741535952431     133.06545904674988     2.0205820731474743e-5     59.804392816283546     7.8420891322693063e-6     21.397070542359106     0.0028686352073673139     85.766172061746516     
0.24940000000000001     0.0022521639487262613     74.739029574274682     1.5769464931223127e-5     154.98474190878446     2.3512338452568361e-5     145.44378820336871     0.0013996736340739842     77.101875256034617     
0.2893                  0.0015746757308557238     46.241693793231889     2.4496813333366514e-5     176.28561425015388     1.524959311901622e-5      -177.61988285655471    0.003463961747852269      23.837135848580999     
0.32919999999999999     0.001205540308813388      39.753522613162069     5.5506075383565364e-6     149.06262273839826     3.8310259471172925e-6     114.47162053370489     0.0011975305715920103     -50.853782564298839    
0.36909999999999998     0.001275948419318815      35.928859714422202     8.1934235028415765e-6     -125.52556451953053    1.2448424175077038e-5     -142.24532227081164    0.0007299571591258678     9.261576671374625      
0.40899999999999997     0.0016289562708342213     7.0985249879843186     2.6242979836990442e-5     145.36245909843188     2.6202008798617474e-6     -104.1547862908772     0.0018125116419386467     -32.189577573303751    
0.44890000000000002     0.0014926620122493513     -44.431332094822274    7.1358750053052491e-6     -20.857120111755638    1.0161589552262401e-5     -141.34019174590992    0.0018226677924920141     -112.27595268372019    
0.48880000000000001     0.0007599005340856328     -77.328549969071545    1.3137129411632534e-6     -165.88494533072864    7.2461061998395859e-6     151.16855820007564     0.00073137361410096984    -121.16435730740524    
0.52869999999999995     0.00106201736035574       -59.670736944690461    2.1668836232374975e-5     -129.06901291038079    7.6285795804718195e-6     135                    0.00116683681430645       -172.93474657015619    
0.56859999999999999     0.0019893138980092507     -110.30337887867483    1.7667053248180427e-5     162.22218921115555     1.6189280154284652e-5     -115.57444477210012    0.00071211921312067615    -154.60013332975151    
0.60850000000000004     0.0021001536025956839     -157.70797132394159    1.8673518438264418e-5     -144.68023645970661    1.3293558411231956e-5     -146.68400188931784    0.0023467211168567781     174.04343840712394     
0.64839999999999998     0.0017910627305735339     171.43595272731324     2.3603787398541443e-5     -107.22239971998464    1.7517875701138033e-5     -136.48205115266728    0.0036795176199101035     66.645004005731082     
0.68830000000000002     0.0020754636490796104     127.30993939179356     2.9241494811140517e-5     -92.497162428497106    7.3082714312805841e-6     -92.454031674527073    0.0016453546824464356     -9.0824067270614552    
0.72819999999999996     0.0021319339716193287     73.562243034123824     1.4800165314441478e-5     -54.589735365360525    1.6192304146868254e-5     -61.94922423382144     0.00057235170714098208    -23.022797786140476    
0.7681                  0.0015396996645398325     32.297185782516159     2.0588778636573122e-5     -72.955197888811597    4.5470033316882932e-6     155.19863110637482     0.0010443197216252625     -19.520189187880341    
0.80800000000000005     0.0014388955510147743     4.1249956505249781     7.8420891322693063e-6     158.6029294576409      1.4660868492233746e-5     -17.661475163355501    0.0019266422219629765     -87.080877132490471    
0.84789999999999999     0.0011589967690641208     -29.816880911805619    1.9316986270547358e-5     -25.299925597942018    1.3389132814353582e-5     -95.428240806512633    0.0021269411225195585     -159.46288828029051    
0.88780000000000003     0.0010852945891696355     -40.348427744122404    3.7123410350381638e-6     20.071525864538732     1.3794226332103433e-5     23.019795753686427     0.0011981041784698849     132.43309679503287     
0.92769999999999997     0.0012941796671575698     -70.075989248818374    1.9728981261719396e-5     123.14995362533526     6.166452675032187e-6      -11.853004167744002    0.00033855612986125793    67.90778239315587      
0.96760000000000002     0.0010903412686507059     -96.487582707886787    1.9152144585283716e-5     49.717831254275282     7.3115064668042923e-6     55.629799712931764     0.00075798856867372293    -161.96683527887137    
1.0075000000000001      0.0013740573815659025     -100.7204987914145     1.6833910456426488e-5     125.77940582472054     1.6047526723596933e-5     62.935288994058318     0.0017158846689848807     121.77832670738628     
1.0474000000000001      0.0021307320114061501     -127.13275448265561    4.340261722292845e-5      48.263544495176028     8.8443758200347101e-6     21.030580363847651     0.0020473762503225739     53.704082687415628     
1.0872999999999999      0.001943679500043797      -161.43496646927471    1.1460913574231238e-5     43.867403399198757     9.7172538999391121e-6     38.337347087168403     0.0012798666190977609     15.674031134516749     
1.1272                  0.0013451379482149241     -125.26571028383454    2.6785329456409377e-5     121.41747757904369     2.079028945859718e-5      71.292339870737678     0.00083337272426151933    62.400135129886507     
1.1671                  0.0013030326365272957     -137.05406522767581    3.6985834773849294e-5     57.270321612601577     1.9313717164426531e-5     80.541311466469338     0.0012791723019702672     53.824259281147022     
1.2070000000000001      0.0013359282841500218     -162.60287538578206    2.5608352190638181e-5     19.547297269618472     1.2062489986419678e-5     0                      0.0016261738830938182     11.81915195850533      
1.2468999999999999      0.0010504325329797068     171.27194359741873     1.687901367703432e-5      4.3288750671904186     8.7588031743043099e-6     43.552400313143529     0.0015454199923630638     -27.786509496642896    
1.2867999999999999      0.00084544185720748745    148.98471982407341     1.8303195530068737e-5     -38.670735611779548    1.2273802089105833e-5     -10.457278142802723    0.0015722076567278975     -75.413806117057177    
1.3267                  0.00072993070466168626    121.5535183515683      1.6770901105856535e-5     -71.210881158943678    2.0456218620700114e-5     -131.85536635735917    0.0013634570236290169     -114.70905769495052    
1.3666                  0.00085603747412746171    104.34526484386923     2.5025578589687241e-5     -144.27989008018588    1.9381858796073941e-5     -145.00256670897969    0.0013686633719185871     -139.64827272280257    
1.4065000000000001      0.0014382528884514035     62.722131933281972     2.8342796923238789e-5     131.36586829035321     2.1115500122993434e-5     21.159435284793322     0.0015838721692438002     -178.2537725874127     
1.4463999999999999      0.0015027266251828964     -3.6830094479931654    2.2980041342669739e-5     11.160563768086092     1.100614180629945e-5      -123.20598026957636    0.0014163430303636261     129.96190103335368     
1.4863                  0.00091260857508881335    -67.476314884083934    2.0623369938508587e-5     170.24502505174931     1.5809033010280558e-5     169.60096083267322     0.0018428511075685796     96.469912527551841     
1.5262                  0.00053676745619276906    -69.356643943960336    1.9536317397263756e-5     134.35104643080498     1.9490809979940227e-5     142.95488644925067     0.00243499161010329       56.70358905889946      
1.5661                  0.00073838021437799915    -81.020039710030346    2.0876098725594301e-5     118.12902128731479     2.6154943501535625e-5     114.39667770217342     0.0020586413931235619     27.691399037799211     
1.6060000000000001      0.00073419818744175518    -117.98363030526436    3.5845544671953644e-5     71.406879977757342     1.8429926404229963e-5     137.81823844313803     0.0019816666643313941     14.550565492913876     
1.6458999999999999      0.00038510664427885067    -130.95526170058736    1.1903372237626298e-5     43.909508178876507     2.610537147124532e-5      108.43494882292202     0.0020099797236880768     -14.453225459499601    
1.6858                  0.0003619720623004961     -126.61846232172232    1.321672098284612e-5      24.123183029576929     1.9389923793193062e-5     31.582982971427935     0.0016608498277406979     -27.730923408227653    
1.7257                  0.0002580986595890932     -118.99339737636014    3.0829955145013319e-5     55.495755797012961     1.9990878265105227e-5     -100.04509006408288    0.0019575560693785004     -46.21595594397629     
1.7656000000000001      0.00046602582967556015    -118.97452992287715    1.9824589359978008e-5     -58.101895036289676    1.2079103143036772e-5     176.99464240947705     0.0021673511421338469     -72.276488731321862    
1.8055000000000001      0.00052412283473922644    -161.45558779497199    3.1012313896164243e-5     -132.51721173264414    1.2215067264775319e-5     27.893637356452682     0.0018919449875166392     -107.90572583584205    
1.8453999999999999      0.00025686851054035071    148.39238887981568     2.9278601469397784e-6     -130.45896482029497    3.0945590747951922e-5     -38.754600959426135    0.0014388519728283406     -105.10630410298185    
1.8853                  0.0001422931499630732     174.3658270613046      1.9193744050012592e-5     -55.773262896104519    2.1803012484339454e-5     -137.95020895352545    0.0021090420342520801     -111.78378155443197    
1.9252                  0.000118991617685894      107.70886296342364     2.3254455633095816e-5     -128.90062972706338    2.1281269834482895e-5     -52.26752098767227     0.0028918017374172326     -143.27603931940493    
1.9651000000000001      0.00025353715420655049    -86.480485714411444    1.2565578125470062e-5     -106.14605630541115    1.9117118361479882e-5     -85.238212721659906    0.0024690370340097259     170.74969244700259     
2.0049999999999999      0.00052031042327477879    -151.93446272794176    2.2158515211458928e-5     -154.52920048185504    2.3814111635451608e-5     -89.247095048030715    0.0016420683319615392     143.30953323482402     
2.0449000000000002      0.00047722950460976599    158.24825634474504     1.5138234062019564e-5     170.33833249074405     2.9044581244955773e-5     -105.85454643237831    0.0015351754823260931     134.17040824736083     
2.0848                  0.00027945665293992709    132.00662828856667     3.3141267903652501e-6     73.276080582556403     4.4465644266328609e-5     173.03216679022984     0.001958130540606041      109.59259867174563     
2.1246999999999998      0.00044783255720931862    147.00870100631155     4.0922958091847529e-5     -138.14382437887681    4.0194760229351039e-6     -18.36777912390129     0.0022940017153684103     61.828152821616698     
2.1646000000000001      0.00079652523069760151    92.055756947128856     3.4756552812942115e-5     73.550157826240863     3.0502687883072295e-5     178.20834086332695     0.0014884568583352236     24.285139730261481     
2.2044999999999999      0.00081432016890466358    41.997577271551805     1.9313717164426531e-5     -9.4586885335306743    4.5327336179136573e-5     65.591898919945081     0.0013487219849224064     5.9322178880569929     
2.2444000000000002      0.00060977739659649928    7.5094288740052946     8.853036198647566e-6      -14.574216198038739    3.2194675186475926e-5     5.0983918211522994     0.0013894208694903061     -25.792139927847256    
2.2843                  0.0005158343910000977     -3.2466220305377598    1.4161003983578245e-6     26.56505117707799      1.4606651864428983e-5     -1.2567976339240552    0.0014659048431677332     -58.750972546848431    
2.3241999999999998      0.00070987901413715972    -11.48070222411067     8.888542652130127e-6      -90                    1.1057951826521845e-5     50.851835884227448     0.0016769669347270208     -89.186402480668733    
2.3641000000000001      0.0009352556583467086     -46.003806523297101    1.7329603620038491e-5     -76.220659765484157    3.3078494474870179e-5     -21.386820358931114    0.0017086109380638104     -130.43292566418327    
2.4039999999999999      0.00099443908946781831    -87.987149584040878    2.9242254148935626e-5     -131.46745102259368    4.8452445466781758e-5     -79.438255310260075    0.0010010259052134678     -174.10117243186298    
2.4439000000000002      0.00096847290658818674    -124.25805651472709    6.7537982293284945e-6     131.10862704597375     3.7467891998238367e-5     -160.1813990102896     0.00061731036885280337    179.20402675323851     
2.4838                  0.0010230964177093149     -153.19647358483402    6.0681079745233688e-6     174.00940528207522     1.855493764611954e-5      -167.14678585605375    0.00084959521667707372    151.8833853308021      
2.5236999999999998      0.0012982626758522725     164.2334168356854      2.097238918148784e-5      177.41407447060195     2.5347966911617745e-5     -167.69587330711533    0.00084339826097931659    101.70758871777743     
2.5636000000000001      0.0014861298447337271     107.73831359588873     1.9891264206654587e-5     81.730285364812332     2.4399218171371975e-5     128.66527306207706     0.00062581503535394552    67.351275730744206     
2.6034999999999999      0.0014264365875712884     66.059601692682108     1.2381145640393711e-5     -67.385439479988023    2.8288756638520252e-5     87.418679519680239     0.00077757155475898225    57.049505174986351     
2.6434000000000002      0.0012806021063046747     43.573553269899818     2.2187329888173771e-5     146.07513688991315     1.4638447526390955e-5     65.652583931113583     0.00097903342179702876    31.890898752319881     
2.6833                  0.0011531820657619037     29.4378895913215       3.6596992516316861e-5     105.60091075983354     1.1335827611092158e-5     -11.295161713967676    0.00090311133712618391    10.124571943164193     
2.7231999999999998      0.0014351240979615769     96.47871426807319      5.6436481821058996e-5     -50.931457834842199    4.8681363836504277e-5     3.7382451457372796     0.0010636776881325573     73.07941460085496      
2.7631000000000001      0.0018593600796362087     63.027942137251728     4.860144332363656e-5      -118.91469211034841    4.2712054970444036e-5     -55.597514413658509    0.0012867122833740397     42.159314475704761     
2.8029999999999999      0.0024737737565227423     24.242498357625323     6.4205823879097092e-5     177.44604418951138     6.1992593353606116e-5     -133.33449777871309    0.0014350639386272622     11.809665901491282     
2.8429000000000002      0.0029877323710948891     -3.8937583059073746    7.5700776743461106e-5     111.39824921563694     7.2665592010168694e-5     150.40959563740677     0.0020447334053488846     1.6906870399339331     
2.8828                  0.0035170291152261477     -29.159127088209964    3.4311234149383622e-5     -2.1280036635976218    2.2637861790133484e-5     75.378332682749516     0.0029785741714392316     -28.756135670779194    
2.9226999999999999      0.0042335517857683821     -56.480331855937884    4.8554982734701239e-6     -78.672825341874017    3.9696724883998178e-5     120.26108157477944     0.0037026243571019173     -59.503099338281032    
2.9626000000000001      0.0049456290153270304     -38.114050397528899    6.0315659716956702e-6     161.56505117707798     5.8457201236101289e-5     107.05387157358635     0.0039164304989160884     -44.172197529144427    
3.0024999999999999      0.0052011433557042578     -68.614918736048921    3.1217025815359632e-5     -9.3679009351263165    7.2857311082821772e-5     11.305336125747768     0.0038545491447211796     -67.977695477977022    
3.0424000000000002      0.0053401626857368899     -96.36309982686609     4.1636032292845616e-5     -151.28398418380652    9.4817098299101766e-5     -67.553990025945495    0.004496542384126871      -87.672936836838119    
3.0823                  0.0052580337633832703     -123.24289049544647    8.9777925992526761e-5     61.714380292485536     9.7996925799436437e-5     -158.92339503122861    0.0052829533934382463     -117.94040935842617    
3.1221999999999999      0.005893018672253854      -158.62337097497439    0.00011195536883948866    -52.838024603740905    4.1581185682054538e-5     110.10063975958928     0.0059097498001497916     -162.03426423714924    
3.1621000000000001      0.0066764711082536506     169.78504287949301     7.2707733621323433e-5     -153.54785452522935    3.6528848000116633e-5     114.11318268551014     0.0058889858607217805     166.35933600330034     
3.202                   0.0060257336964571889     143.96219388646651     7.4399443792060654e-5     166.67767267623614     4.8074165064560023e-5     53.057288340908585     0.0053844799926477784     146.93585002874357     
3.2418999999999998      0.0062637480978042634     105.37966829907809     3.4963205176405865e-5     103.65719897823469     7.316994702876566e-5      -6.4780673013886414    0.0060241650341767991     107.73683456247652     
3.2818000000000001      0.006601164087886028      78.420905419383317     2.6095213682496414e-5     143.40493153229639     9.2873189431796492e-5     -62.731917959953364    0.0067531075422068891     79.200961498846411     
3.3216999999999999      0.0062011294323810898     45.831925197214368     4.3695378681226934e-5     81.221898637858743     5.7245103651454869e-5     -122.54211278268473    0.0063880289127512284     39.906585649066734     
3.3616000000000001      0.007162859564054525      8.3678492482978708     7.4888427446248297e-5     37.940477083618759     6.7007866831596429e-5     -174.28877295444582    0.0069055171165379571     1.8760856815058922     
3.4015                  0.0084755869000248066     -21.73961519438636     0.00011976963554083647    -36.811444223304157    5.7790715006301915e-5     -157.38240790481754    0.007631152110512609      -24.660571018424037    
3.4413999999999998      0.0083789466623833062     -53.33202830086227     7.436070095690706e-5      -130.14736151218656    0.00014897978152115892    148.95172053426404     0.0078734786552823038     -53.743789619262024    
3.4813000000000001      0.0078299477192496081     -86.899038325138875    5.094294042814687e-5      50.05495029975684      0.00022910616661815205    74.404476148911385     0.0077405488766068113     -88.088883499988839    
