! PocketVna 1.60  pocketvna.com
! Live measurements ((Reflection-S11, Transmission-S21, Transmission-S12, Reflection-S22) Linear 400000000-2000000000/800 non-calibrated)
# Hz S RI R 50
! Hz          ReS11                      ImS11                      ReS21                      ImS21                      ReS12                      ImS12                      ReS22                      ImS22                      
400000000     -0.00013055652379989624    0.00070296227931976318     9.5292925834655762e-06     3.1739473342895508e-06     5.7488679885864258e-05     -2.0973384380340576e-05    0.00044090300798416138     0.00060194730758666992     
402002503     -0.00010990351438522339    0.00072170048952102661     1.4930963516235352e-05     1.3343989849090576e-05     5.1140785217285156e-05     1.8998980522155762e-06     0.00047425180673599243     0.00058924406766891479     
404005006     -7.9728662967681885e-05    0.00073472410440444946     -6.3329935073852539e-07    -1.5944242477416992e-06    5.4948031902313232e-05     -5.7220458984375e-06       0.00048378109931945801     0.00057208538055419922     
406007509     -7.4967741966247559e-05    0.00072614848613739014     2.5093555450439453e-05     1.2740492820739746e-06     6.3531100749969482e-05     -6.67572021484375e-06      0.00052570551633834839     0.00056954473257064819     
408010012     -3.6209821701049805e-05    0.00073313713073730469     1.1123716831207275e-05     8.8959932327270508e-06     5.3681433200836182e-05     -8.58306884765625e-06      0.00053524225950241089     0.00057844072580337524     
410012515     -3.5256147384643555e-05    0.00075156241655349731     2.1286308765411377e-05     7.3090195655822754e-06     5.1461160182952881e-05     9.5367431640625e-07        0.00055429339408874512     0.00055176019668579102     
412015018     -1.8417835235595703e-05    0.00077157467603683472     1.2069940567016602e-05     2.0645558834075928e-05     5.5909156799316406e-05     1.8104910850524902e-05     0.00057526677846908569     0.00054032355546951294     
414017521     1.1116266250610352e-05     0.00076681375503540039     1.9371509552001953e-05     2.3826956748962402e-05     5.6222081184387207e-05     -4.1276216506958008e-06    0.00059622526168823242     0.00052379816770553589     
416020025     3.4309923648834229e-05     0.00075664371252059937     5.4016709327697754e-06     6.3329935073852539e-07     4.7013163566589355e-05     -2.2277235984802246e-06    0.00061401724815368652     0.00050792098045349121     
418022528     5.7488679885864258e-05     0.00076744705438613892     1.3656914234161377e-05     5.7145953178405762e-06     4.9561262130737305e-05     7.6219439506530762e-06     0.00064387917518615723     0.00049711763858795166     
420025031     7.6241791248321533e-05     0.00077348202466964722     1.7471611499786377e-05     -3.814697265625e-06        4.9233436584472656e-05     1.6197562217712402e-05     0.00063593685626983643     0.00047806650400161743     
422027534     9.7192823886871338e-05     0.00077982991933822632     -3.5017728805541992e-06    5.7145953178405762e-06     3.1135976314544678e-05     2.8587877750396729e-05     0.0006515011191368103      0.00047869980335235596     
424030037     0.00011847913265228271     0.00076648592948913574     6.67572021484375e-06       3.1739473342895508e-06     4.6059489250183105e-05     7.9423189163208008e-06     0.00069311261177062988     0.0004459768533706665      
426032540     0.00013817846775054932     0.00078809261322021484     1.9058585166931152e-05     2.8535723686218262e-06     4.7013163566589355e-05     5.4016709327697754e-06     0.00069057196378707886     0.00043613463640213013     
428035043     0.00016961991786956787     0.00077634304761886597     1.0803341865539551e-05     1.0482966899871826e-05     3.9383769035339355e-05     1.9058585166931152e-05     0.00072614103555679321     0.00041802972555160522     
430037546     0.00019662082195281982     0.00078555196523666382     1.4930963516235352e-05     3.2037496566772461e-07     5.0820410251617432e-05     2.0958483219146729e-05     0.00074552744626998901     0.00040753930807113647     
432040050     0.00021854788064956665     0.00078364461660385132     8.8959932327270508e-06     2.0965933799743652e-05     2.3826956748962402e-05     3.684312105178833e-05      0.00075346231460571289     0.00035449862480163574     
434042553     0.0002395138144493103      0.00078332424163818359     1.0482966899871826e-05     1.6517937183380127e-05     3.8437545299530029e-05     3.1448900699615479e-05     0.00077316164970397949     0.00035608559846878052     
436045056     0.00026682764291763306     0.00078427791595458984     5.3942203521728516e-06     7.3090195655822754e-06     3.9391219615936279e-05     3.7804245948791504e-05     0.00077728927135467529     0.00033416599035263062     
438047559     0.00027539581060409546     0.00078459829092025757     7.62939453125e-06          1.3656914234161377e-05     5.1774084568023682e-05     3.4302473068237305e-05     0.00080588459968566895     0.00030717253684997559     
440050062     0.00032654404640197754     0.00076966732740402222     1.3023614883422852e-05     1.3343989849090576e-05     5.3048133850097656e-05     3.4302473068237305e-05     0.00079222023487091064     0.00028842687606811523     
442052565     0.00034592300653457642     0.00076871365308761597     1.5884637832641602e-05     2.1919608116149902e-05     2.6367604732513428e-05     3.4309923648834229e-05     0.00080619752407073975     0.00026968866586685181     
444055068     0.00035449862480163574     0.00076045840978622437     1.1436641216278076e-05     9.8496675491333008e-06     2.9861927032470703e-05     4.8913061618804932e-05     0.00083383172750473022     0.00023124366998672485     
446057571     0.0003853142261505127      0.00074203312397003174     9.8496675491333008e-06     2.3193657398223877e-05     2.6047229766845703e-05     4.0665268898010254e-05     0.0008554309606552124      0.0001855120062828064      
448060075     0.0004097670316696167      0.00075156241655349731     2.5093555450439453e-05     -2.2277235984802246e-06    3.2722949981689453e-05     3.6530196666717529e-05     0.0008433610200881958      0.00018201768398284912     
450062578     0.0004300922155380249      0.00074235349893569946     6.3329935073852539e-07     2.0653009414672852e-05     3.1128525733947754e-05     3.7476420402526855e-05     0.00085447728633880615     0.00017565488815307617     
452065081     0.00044852495193481445     0.00073980540037155151     2.2277235984802246e-06     9.5218420028686523e-06     3.0808150768280029e-05     4.351884126663208e-05      0.00085860490798950195     0.00013405084609985352     
454067584     0.00048981606960296631     0.00071725249290466309     3.4943222999572754e-06     6.3329935073852539e-07     9.2089176177978516e-06     3.0495226383209229e-05     0.00086496025323867798     9.5926225185394287e-05     
456070087     0.00050505995750427246     0.00071788579225540161     -6.6682696342468262e-06    1.0162591934204102e-05     2.0645558834075928e-05     4.7646462917327881e-05     0.0008633732795715332      7.1153044700622559e-05     
458072590     0.00052126497030258179     0.00069851428270339966     3.1813979148864746e-06     1.7151236534118652e-05     3.7170946598052979e-05     2.8595328330993652e-05     0.00088433176279067993     3.6209821701049805e-05     
460075093     0.00055525451898574829     0.00068072229623794556     7.62939453125e-06          1.3023614883422852e-05     2.7641654014587402e-05     3.9070844650268555e-05     0.0008754432201385498      7.3015689849853516e-06     
462077596     0.00058861076831817627     0.00067596137523651123     -7.9423189163208008e-06    3.1761825084686279e-05     1.3656914234161377e-05     4.9874186515808105e-05     0.0008830726146697998      -2.2865831851959229e-05    
464080100     0.0006114766001701355      0.00065340101718902588     8.58306884765625e-06       1.2710690498352051e-05     1.9378960132598877e-05     5.2727758884429932e-05     0.00088847428560256958     -5.3361058235168457e-05    
466082603     0.00062672048807144165     0.0006470605731010437      -1.5884637832641602e-05    3.1441450119018555e-05     1.4290213584899902e-05     3.9391219615936279e-05     0.00088275223970413208     -9.8787248134613037e-05    
468085106     0.00064292550086975098     0.00062131881713867188     1.3343989849090576e-05     1.7471611499786377e-05     0                          4.0978193283081055e-05     0.00088560581207275391     -0.00012546777725219727    
470087609     0.00068199634552001953     0.00061528384685516357     4.76837158203125e-06       1.4297664165496826e-05     1.8738210201263428e-05     5.2094459533691406e-05     0.00088084489107131958     -0.00015056133270263672    
472090112     0.00069914758205413818     0.00058098137378692627     5.0812959671020508e-06     2.0653009414672852e-05     3.4943222999572754e-06     4.6692788600921631e-05     0.00087830424308776855     -0.00019344687461853027    
474092615     0.00069978088140487671     0.00056573748588562012     6.9886445999145508e-06     2.3193657398223877e-05     -6.3329935073852539e-07    2.4773180484771729e-05     0.00087798386812210083     -0.00022108852863311768    
476095118     0.00071661919355392456     0.00055208057165145874     3.4943222999572754e-06     2.2552907466888428e-05     1.1749565601348877e-05     4.7013163566589355e-05     0.00085098296403884888     -0.00024300068616867065    
478097621     0.00074710696935653687     0.00053523480892181396     3.4943222999572754e-06     1.9691884517669678e-05     8.2626938819885254e-06     4.2244791984558105e-05     0.00085637718439102173     -0.00027889758348464966    
480100125     0.00078522413969039917     0.00050633400678634644     2.5413930416107178e-05     2.4139881134033203e-05     -1.1116266250610352e-05    4.1298568248748779e-05     0.0008395463228225708      -0.00032209604978561401    
482102628     0.00078649818897247314     0.00049076974391937256     6.0349702835083008e-06     1.2703239917755127e-05     -8.5756182670593262e-06    3.5576522350311279e-05     0.00084018707275390625     -0.00034115463495254517    
484105131     0.0008115917444229126      0.00046789646148681641     1.4297664165496826e-05     1.2390315532684326e-05     9.5367431640625e-07        4.2885541915893555e-05     0.00082811713218688965     -0.00036021322011947632    
486107634     0.00081985443830490112     0.00045074522495269775     2.2202730178833008e-06     2.7954578399658203e-05     4.7609210014343262e-06     2.8900802135467529e-05     0.00082652270793914795     -0.0004116743803024292     
488110137     0.00083065778017044067     0.00043231993913650513     6.67572021484375e-06       2.4780631065368652e-05     -4.4479966163635254e-06    4.1298568248748779e-05     0.00080461055040359497     -0.00041898339986801147    
490112640     0.00083287805318832397     0.00040564686059951782     3.814697265625e-06         2.2865831851959229e-05     -2.5480985641479492e-06    3.4622848033905029e-05     0.00078935921192169189     -0.00046472251415252686    
492115143     0.00086463987827301025     0.00037832558155059814     6.3553452491760254e-06     1.7791986465454102e-05     -1.3977289199829102e-05    4.0665268898010254e-05     0.00077126175165176392     -0.00049617141485214233    
494117647     0.00087608397006988525     0.00036402791738510132     -1.3977289199829102e-05    2.0653009414672852e-05     -5.4016709327697754e-06    3.4622848033905029e-05     0.00075981765985488892     -0.00053302198648452759    
496120150     0.00087799131870269775     0.00033988803625106812     -1.2665987014770508e-06    -6.6682696342468262e-06    3.4943222999572754e-06     3.3669173717498779e-05     0.00075156241655349731     -0.00054604560136795044    
498122653     0.00089736282825469971     0.00032272934913635254     -4.1350722312927246e-06    1.7158687114715576e-05     -9.8496675491333008e-06    2.7954578399658203e-05     0.00073631107807159424     -0.00059908628463745117    
500125156     0.00091197341680526733     0.00029351562261581421     8.5756182670593262e-06     1.2069940567016602e-05     -3.4868717193603516e-06    3.5256147384643555e-05     0.00069343298673629761     -0.00062227249145507813    
502127659     0.00092373043298721313     0.00025571137666702271     3.2037496566772461e-07     2.2232532501220703e-05     -7.934868335723877e-06     4.7966837882995605e-05     0.00069724023342132568     -0.00064991414546966553    
504130162     0.00092182308435440063     0.00023283064365386963     -1.5884637832641602e-05    2.2232532501220703e-05     -2.1606683731079102e-05    2.3186206817626953e-05     0.00066960602998733521     -0.00068644434213638306    
506132665     0.00093802064657211304     0.00020202994346618652     1.2665987014770508e-06     1.5571713447570801e-05     -2.0332634449005127e-05    3.8757920265197754e-05     0.0006495937705039978      -0.00071503221988677979    
508135168     0.00094532966613769531     0.0001740679144859314      -1.2740492820739746e-06    2.3819506168365479e-05     -4.1350722312927246e-06    3.6217272281646729e-05     0.00062259286642074585     -0.00073218345642089844    
510137672     0.00094214826822280884     0.00015183538198471069     2.5406479835510254e-06     1.2390315532684326e-05     -2.0325183868408203e-05    2.4780631065368652e-05     0.00058860331773757935     -0.00076681375503540039    
512140175     0.00096882879734039307     0.00011181086301803589     4.1276216506958008e-06     1.9058585166931152e-05     -1.2069940567016602e-05    3.6209821701049805e-05     0.00056509673595428467     -0.00079126656055450439    
514142678     0.00096692144870758057     9.3393027782440186e-05     -5.7220458984375e-06       2.9854476451873779e-05     -9.2089176177978516e-06    2.6360154151916504e-05     0.00054667890071868896     -0.00082017481327056885    
516145181     0.00097772479057312012     4.9561262130737305e-05     -4.76837158203125e-06      9.5292925834655762e-06     -1.7784535884857178e-05    4.0978193283081055e-05     0.00051395595073699951     -0.00085669755935668945    
518147684     0.00097455084323883057     2.8587877750396729e-05     -4.4405460357666016e-06    1.0803341865539551e-05     -5.4016709327697754e-06    3.1448900699615479e-05     0.00049553066492080688     -0.00087416917085647583    
520150187     0.00097804516553878784     -1.9699335098266602e-05    7.3015689849853516e-06     7.3090195655822754e-06     -2.6680529117584229e-05    2.6367604732513428e-05     0.0004513859748840332      -0.0008830726146697998     
522152690     0.00097645074129104614     -3.5256147384643555e-05    7.6219439506530762e-06     2.3193657398223877e-05     -1.9058585166931152e-05    1.3343989849090576e-05     0.0004335939884185791      -0.00091642141342163086    
524155193     0.00097994506359100342     -8.6709856986999512e-05    -5.7220458984375e-06       1.3343989849090576e-05     -6.3329935073852539e-07    3.0182301998138428e-05     0.00039484351873397827     -0.00094374269247055054    
526157697     0.00098185986280441284     -0.00010386854410171509    8.2552433013916016e-06     1.3656914234161377e-05     -2.8908252716064453e-05    2.5413930416107178e-05     0.00035545229911804199     -0.00096406787633895874    
528160200     0.00097359716892242432     -0.00013309717178344727    -2.1919608116149902e-05    1.2069940567016602e-05     -1.5884637832641602e-05    2.9534101486206055e-05     0.00032686442136764526     -0.00097582489252090454    
530162703     0.00097136944532394409     -0.00018677860498428345    -4.1276216506958008e-06    1.3336539268493652e-05     -6.0349702835083008e-06    2.8267502784729004e-05     0.00029954314231872559     -0.0010104477405548096     
532165206     0.00096057355403900146     -0.0002077445387840271     -8.2552433013916016e-06    1.3656914234161377e-05     -1.7471611499786377e-05    2.6047229766845703e-05     0.00026396661996841431     -0.0010199770331382751     
534167709     0.00094310194253921509     -0.00024554133415222168    -4.1276216506958008e-06    2.3826956748962402e-05     -2.4452805519104004e-05    2.0653009414672852e-05     0.00021060556173324585     -0.0010364949703216553     
536170212     0.00094342231750488281     -0.00028493255376815796    -6.9886445999145508e-06    1.2703239917755127e-05     -1.7471611499786377e-05    2.4452805519104004e-05     0.0001816973090171814      -0.0010647624731063843     
538172715     0.00094627588987350464     -0.00031797587871551514    -6.3478946685791016e-06    1.4618039131164551e-05     -3.3356249332427979e-05    1.7784535884857178e-05     0.00013976544141769409     -0.0010568201541900635     
540175218     0.00093325972557067871     -0.00035481899976730347    1.5869736671447754e-06     2.1599233150482178e-05     -2.7000904083251953e-05    3.2715499401092529e-05     8.4497034549713135e-05     -0.0010803267359733582     
542177722     0.00091641396284103394     -0.00039642304182052612    -2.1278858184814453e-05    6.0349702835083008e-06     -1.6830861568450928e-05    2.7641654014587402e-05     5.6229531764984131e-05     -0.001084454357624054      
544180225     0.00090308487415313721     -0.00043136626482009888    -1.1436641216278076e-05    2.0004808902740479e-05     -2.3193657398223877e-05    2.6054680347442627e-05     1.7471611499786377e-05     -0.0010914504528045654     
546182728     0.00088592618703842163     -0.00047361105680465698    -6.9886445999145508e-06    1.5251338481903076e-05     -2.3506581783294678e-05    8.888542652130127e-06      -2.8587877750396729e-05    -0.0011063739657402039     
548185231     0.00089418143033981323     -0.00050824135541915894    3.1739473342895508e-06     2.3826956748962402e-05     -1.8745660781860352e-05    1.0482966899871826e-05     -7.2419643402099609e-05    -0.0011079683899879456     
550187734     0.00085670500993728638     -0.00054731220006942749    6.4074993133544922e-07     1.9378960132598877e-05     -2.8587877750396729e-05    2.4780631065368652e-05     -0.00011244416236877441    -0.001120351254940033      
552190237     0.0008411407470703125      -0.00057939440011978149    -2.8535723686218262e-06    2.0973384380340576e-05     -1.9378960132598877e-05    -9.5367431640625e-07       -0.00016486644744873047    -0.0011193975806236267     
554192740     0.00082620233297348022     -0.0006175115704536438     -6.0349702835083008e-06    1.8432736396789551e-05     -1.7784535884857178e-05    8.2626938819885254e-06     -0.00020043551921844482    -0.0011111348867416382     
556195243     0.0007973015308380127      -0.00064451247453689575    -7.62939453125e-06         1.3977289199829102e-05     -1.4610588550567627e-05    2.8908252716064453e-05     -0.00025729835033416748    -0.0011232122778892517     
558197747     0.00078047066926956177     -0.00068834424018859863    -1.3343989849090576e-05    9.5292925834655762e-06     -1.6197562217712402e-05    2.6047229766845703e-05     -0.00030939280986785889    -0.0011187568306922913     
560200250     0.00075473636388778687     -0.00072868913412094116    -1.7784535884857178e-05    2.0332634449005127e-05     -2.7000904083251953e-05    1.7784535884857178e-05     -0.00035481154918670654    -0.0011263862252235413     
562202753     0.00073662400245666504     -0.00076807290315628052    -1.0162591934204102e-05    2.6680529117584229e-05     -3.1448900699615479e-05    1.5251338481903076e-05     -0.00038848817348480225    -0.0010990723967552185     
564205256     0.00071217864751815796     -0.00079222023487091064    -3.814697265625e-06        1.2390315532684326e-05     -1.5877187252044678e-05    1.3023614883422852e-05     -0.0004456639289855957     -0.0010949373245239258     
566207759     0.0006635710597038269      -0.00081858783960342407    -1.6838312149047852e-05    2.0012259483337402e-05     -1.3656914234161377e-05    7.62939453125e-06          -0.00049266964197158813    -0.0010704770684242249     
