! PocketVna 1.60  pocketvna.com
! Live measurements ((Reflection-S11, Transmission-S21, Transmission-S12, Reflection-S22) Linear 400000000-2000000000/800 non-calibrated)
# Hz S RI R 50
! Hz          ReS11                      ImS11                      ReS21                      ImS21                      ReS12                      ImS12                      ReS22                      ImS22                      
400000000     0.0014351382851600647      0.00033194571733474731     1.2710690498352051e-05     2.2552907466888428e-05     4.5746564865112305e-05     4.4479966163635254e-06     0.001256309449672699       -0.0008255690336227417     
402002503     0.0014592856168746948      0.00028651952743530273     2.4139881134033203e-05     1.8425285816192627e-05     3.9711594581604004e-05     7.934868335723877e-06      0.0012286752462387085      -0.00083700567483901978    
404005006     0.0014529302716255188      0.00024490803480148315     2.1919608116149902e-05     1.3023614883422852e-05     3.6850571632385254e-05     1.6830861568450928e-05     0.0011994466185569763      -0.00087480992078781128    
406007509     0.0014519765973091125      0.00020107626914978027     2.7000904083251953e-05     2.6047229766845703e-05     3.9070844650268555e-05     4.76837158203125e-06       0.0011632367968559265      -0.00090561807155609131    
408010012     0.0014615058898925781      0.00018359720706939697     6.3553452491760254e-06     3.4630298614501953e-05     3.3669173717498779e-05     1.8745660781860352e-05     0.0011324211955070496      -0.00094310194253921509    
410012515     0.0014729425311088562      0.00016009062528610229     5.7145953178405762e-06     2.3186206817626953e-05     3.6209821701049805e-05     1.9058585166931152e-05     0.0011086016893386841      -0.00097613036632537842    
412015018     0.0014662742614746094      0.00011847913265228271     1.2069940567016602e-05     1.9699335098266602e-05     5.3048133850097656e-05     1.7791986465454102e-05     0.0010733380913734436      -0.0010066330432891846     
414017521     0.0014738962054252625      6.9566071033477783e-05     2.5413930416107178e-05     2.2232532501220703e-05     4.2885541915893555e-05     7.3090195655822754e-06     0.0010501518845558167      -0.0010444298386573792     
416020025     0.0014678612351417542      3.8757920265197754e-05     3.0808150768280029e-05     2.8587877750396729e-05     4.351884126663208e-05      1.7158687114715576e-05     0.0010142549872398376      -0.0010800138115882874     
418022528     0.0014691352844238281      1.6205012798309326e-05     2.4139881134033203e-05     2.7634203433990479e-05     2.8267502784729004e-05     2.6680529117584229e-05     0.00098979473114013672     -0.0010857284069061279     
420025031     0.0014659538865089417      -2.6054680347442627e-05    9.842216968536377e-06      2.8274953365325928e-05     4.447251558303833e-05      1.2390315532684326e-05     0.00094627588987350464     -0.0011308342218399048     
422027534     0.0014599189162254333      -8.417665958404541e-05     6.6682696342468262e-06     2.2552907466888428e-05     4.0337443351745605e-05     2.9541552066802979e-05     0.00090243667364120483     -0.0011413171887397766     
424030037     0.0014586448669433594      -9.6559524536132813e-05    2.0332634449005127e-05     2.2232532501220703e-05     3.4622848033905029e-05     1.2390315532684326e-05     0.00087258964776992798     -0.001179426908493042      
426032540     0.0014516636729240417      -0.00014707446098327637    1.8104910850524902e-05     1.5243887901306152e-05     1.8425285816192627e-05     2.4452805519104004e-05     0.00083764642477035522     -0.0011896044015884399     
428035043     0.0014310181140899658      -0.00018168985843658447    2.0645558834075928e-05     2.0653009414672852e-05     3.6209821701049805e-05     2.5093555450439453e-05     0.0008150935173034668      -0.0012296214699745178     
430037546     0.0014351382851600647      -0.00021155178546905518    9.5292925834655762e-06     1.6517937183380127e-05     3.1761825084686279e-05     2.3826956748962402e-05     0.00074362009763717651     -0.0012461468577384949     
432040050     0.0014341846108436584      -0.00026111304759979248    5.4016709327697754e-06     2.0012259483337402e-05     1.9371509552001953e-05     2.3819506168365479e-05     0.00071661919355392456     -0.0012734606862068176     
434042553     0.0014154538512229919      -0.00029540807008743286    1.0803341865539551e-05     2.7641654014587402e-05     3.5576522350311279e-05     1.7791986465454102e-05     0.00068390369415283203     -0.0012950599193572998     
436045056     0.0014097318053245544      -0.00033321231603622437    2.0012259483337402e-05     2.5726854801177979e-05     3.2715499401092529e-05     3.7483870983123779e-05     0.00061878561973571777     -0.0013195201754570007     
438047559     0.0014008432626724243      -0.00037895143032073975    3.2037496566772461e-07     3.4943222999572754e-05     2.1286308765411377e-05     3.3669173717498779e-05     0.0005994066596031189      -0.0013433471322059631     
440050062     0.0013792365789413452      -0.00040944665670394897    6.3553452491760254e-06     2.9534101486206055e-05     3.1769275665283203e-05     4.8913061618804932e-05     0.00053365528583526611     -0.0013766884803771973     
442052565     0.0013579577207565308      -0.00045646727085113525    1.9699335098266602e-05     2.3499131202697754e-05     2.4460256099700928e-05     4.0344893932342529e-05     0.00049076974391937256     -0.0013843178749084473     
444055068     0.0013465210795402527      -0.00049998611211776733    1.5884637832641602e-05     3.6530196666717529e-05     1.7151236534118652e-05     1.8425285816192627e-05     0.00044343620538711548     -0.0013967081904411316     
446057571     0.0013106241822242737      -0.00054509192705154419    -1.2740492820739746e-06    2.7000904083251953e-05     6.6682696342468262e-06     3.4630298614501953e-05     0.00039483606815338135     -0.0014211609959602356     
448060075     0.0013026818633079529      -0.00057272613048553467    1.3977289199829102e-05     2.8267502784729004e-05     1.8745660781860352e-05     3.8757920265197754e-05     0.00035100430250167847     -0.0014379993081092834     
450062578     0.0012772753834724426      -0.00061243027448654175    8.2626938819885254e-06     3.2402575016021729e-05     2.3193657398223877e-05     2.9541552066802979e-05     0.00029763579368591309     -0.0014332383871078491     
452065081     0.0012709200382232666      -0.00063784420490264893    8.58306884765625e-06       2.7000904083251953e-05     2.3506581783294678e-05     4.161149263381958e-05      0.00024363398551940918     -0.0014418140053749084     
454067584     0.0012432858347892761      -0.00068961828947067261    1.3656914234161377e-05     1.1436641216278076e-05     1.7471611499786377e-05     4.3831765651702881e-05     0.00020329654216766357     -0.0014646872878074646     
456070087     0.0012223199009895325      -0.00072742253541946411    1.1116266250610352e-05     2.1278858184814453e-05     1.6838312149047852e-05     4.8913061618804932e-05     0.00014167279005050659     -0.0014522969722747803     
458072590     0.001190871000289917       -0.00076140463352203369    -3.5017728805541992e-06    2.3819506168365479e-05     3.1813979148864746e-06     3.6530196666717529e-05     8.1948935985565186e-05     -0.001477070152759552      
460075093     0.001162603497505188       -0.000799521803855896      -9.2089176177978516e-06    2.0645558834075928e-05     4.1276216506958008e-06     4.7966837882995605e-05     4.3198466300964355e-05     -0.0014634132385253906     
462077596     0.0011327415704727173      -0.0008373260498046875     1.3023614883422852e-05     1.3656914234161377e-05     2.2239983081817627e-05     4.2244791984558105e-05     -5.0812959671020508e-06    -0.0014974027872085571     
464080100     0.0011184513568878174      -0.00087226182222366333    -1.5869736671447754e-06    2.8908252716064453e-05     3.1739473342895508e-06     1.7464160919189453e-05     -7.4014067649841309e-05    -0.0014634132385253906     
466082603     0.0010835081338882446      -0.00090053677558898926    -7.9423189163208008e-06    2.2873282432556152e-05     -6.4074993133544922e-07    1.8425285816192627e-05     -0.00012006610631942749    -0.0014688149094581604     
468085106     0.001048557460308075       -0.00093706697225570679    1.9073486328125e-06        2.8587877750396729e-05     -1.2665987014770508e-06    4.2885541915893555e-05     -0.00016422569751739502    -0.0014808923006057739     
470087609     0.0010272786021232605      -0.00097613781690597534    -2.5406479835510254e-06    2.0965933799743652e-05     -6.3329935073852539e-07    1.6517937183380127e-05     -0.00021918118000030518    -0.0014748498797416687     
472090112     0.00097677856683731079     -0.0010018721222877502     -2.5331974029541016e-06    2.9541552066802979e-05     -3.4943222999572754e-06    4.1291117668151855e-05     -0.00027064234018325806    -0.0014678612351417542     
474092615     0.00096057355403900146     -0.001033000648021698      -2.5413930416107178e-05    2.9221177101135254e-05     -1.0162591934204102e-05    3.0174851417541504e-05     -0.00032527744770050049    -0.001468174159526825      
476095118     0.00092912465333938599     -0.0010441094636917114     -9.842216968536377e-06     2.0012259483337402e-05     6.0349702835083008e-06     3.875046968460083e-05      -0.00036022067070007324    -0.0014478489756584167     
478097621     0.00089577585458755493     -0.0010876357555389404     -2.4139881134033203e-05    3.6537647247314453e-05     -9.5292925834655762e-06    3.9070844650268555e-05     -0.0004180222749710083     -0.0014535635709762573     
480100125     0.00087480992078781128     -0.0011219382286071777     -1.8745660781860352e-05    4.0337443351745605e-05     7.3015689849853516e-06     3.2402575016021729e-05     -0.00046122819185256958    -0.00141926109790802       
482102628     0.00082049518823623657     -0.001125432550907135      -5.0812959671020508e-06    2.4147331714630127e-05     -9.8496675491333008e-06    4.3831765651702881e-05     -0.00049236416816711426    -0.0014176741242408752     
484105131     0.00078808516263961792     -0.001158788800239563      -2.0653009414672852e-05    1.9378960132598877e-05     -3.1813979148864746e-06    2.8274953365325928e-05     -0.00054477155208587646    -0.0014036968350410461     
486107634     0.00076203793287277222     -0.0011911839246749878     -2.4147331714630127e-05    4.1291117668151855e-05     6.0349702835083008e-06     3.1128525733947754e-05     -0.00058829039335250854    -0.001378282904624939      
488110137     0.00070676952600479126     -0.0012162849307060242     -1.7151236534118652e-05    2.8587877750396729e-05     -6.0349702835083008e-06    2.9861927032470703e-05     -0.00062386691570281982    -0.0013728886842727661     
490112640     0.00068643689155578613     -0.0012219995260238647     -1.3656914234161377e-05    1.9378960132598877e-05     -4.1276216506958008e-06    2.0325183868408203e-05     -0.00066293776035308838    -0.0013433471322059631     
492115143     0.00065023452043533325     -0.0012699663639068604     -1.2069940567016602e-05    3.1761825084686279e-05     6.4074993133544922e-07     1.8104910850524902e-05     -0.00070454180240631104    -0.0013309568166732788     
494117647     0.00061497092247009277     -0.0012674257159233093     -1.2390315532684326e-05    1.8738210201263428e-05     -1.1749565601348877e-05    3.1769275665283203e-05     -0.00075156241655349731    -0.0013106241822242737     
496120150     0.00057271867990493774     -0.0012817233800888062     -2.0965933799743652e-05    3.2715499401092529e-05     -1.9073486328125e-06       3.3989548683166504e-05     -0.00078522413969039917    -0.0012893453240394592     
498122653     0.00053746253252029419     -0.0013084039092063904     -1.9058585166931152e-05    1.6830861568450928e-05     -4.4479966163635254e-06    2.8274953365325928e-05     -0.00084494799375534058    -0.0012629777193069458     
500125156     0.00049680471420288086     -0.001317925751209259      -1.4938414096832275e-05    8.8959932327270508e-06     -4.7609210014343262e-06    3.8757920265197754e-05     -0.00087004899978637695    -0.0012410581111907959     
502127659     0.0004437565803527832      -0.0013338103890419006     -1.5884637832641602e-05    3.4622848033905029e-05     -8.8959932327270508e-06    3.3348798751831055e-05     -0.00090339779853820801    -0.0012137442827224731     
504130162     0.00040850043296813965     -0.0013636723160743713     -1.9378960132598877e-05    2.8274953365325928e-05     -1.8745660781860352e-05    2.2865831851959229e-05     -0.00093580037355422974    -0.0011873766779899597     
506132665     0.00036212801933288574     -0.0013598576188087463     5.7220458984375e-06        1.2703239917755127e-05     -1.5877187252044678e-05    5.4016709327697754e-06     -0.00098948180675506592    -0.0011616423726081848     
508135168     0.00033321231603622437     -0.0013801902532577515     -7.6219439506530762e-06    2.0332634449005127e-05     -8.2626938819885254e-06    2.0332634449005127e-05     -0.0010180622339248657     -0.0011168643832206726     
510137672     0.00027889013290405273     -0.0013903602957725525     -5.4016709327697754e-06    1.9699335098266602e-05     -1.9058585166931152e-05    2.2560358047485352e-05     -0.0010568201541900635     -0.0010806471109390259     
512140175     0.00024236738681793213     -0.0014049634337425232     -2.1912157535552979e-05    2.4139881134033203e-05     -1.2703239917755127e-05    1.5243887901306152e-05     -0.0010879486799240112     -0.0010488778352737427     
514142678     0.0001896396279335022      -0.0014170408248901367     -2.0645558834075928e-05    2.2239983081817627e-05     -2.1919608116149902e-05    1.4290213584899902e-05     -0.00112924724817276       -0.0010234713554382324     
516145181     0.00015183538198471069     -0.0014322847127914429     -1.7471611499786377e-05    1.5877187252044678e-05     -1.6197562217712402e-05    1.8425285816192627e-05     -0.0011556074023246765     -0.00099837779998779297    
518147684     0.00011181086301803589     -0.001429431140422821      -1.5884637832641602e-05    1.2069940567016602e-05     -5.0812959671020508e-06    2.3826956748962402e-05     -0.0011927783489227295     -0.00094532221555709839    
520150187     6.1944127082824707e-05     -0.0014402270317077637     -1.6205012798309326e-05    1.1436641216278076e-05     -8.2626938819885254e-06    2.5726854801177979e-05     -0.0012143701314926147     -0.00091610848903656006    
522152690     1.3977289199829102e-05     -0.0014415010809898376     -6.9886445999145508e-06    7.62939453125e-06          -2.3819506168365479e-05    2.2865831851959229e-05     -0.0012404248118400574     -0.00087703019380569458    
524155193     -2.7954578399658203e-05    -0.0014392733573913574     -1.9058585166931152e-05    1.4618039131164551e-05     -2.5093555450439453e-05    1.4930963516235352e-05     -0.0012718737125396729     -0.00084432214498519897    
526157697     -8.3856284618377686e-05    -0.0014491230249404907     -2.5413930416107178e-05    1.9691884517669678e-05     -1.9378960132598877e-05    1.6197562217712402e-05     -0.0012852102518081665     -0.00079031288623809814    
528160200     -0.00011562556028366089    -0.0014475360512733459     -2.7321279048919678e-05    2.5734305381774902e-05     -2.5406479835510254e-05    1.5251338481903076e-05     -0.0013350844383239746     -0.00074075907468795776    
530162703     -0.00016676634550094604    -0.0014519840478897095     -2.2552907466888428e-05    1.1444091796875e-05        -1.0482966899871826e-05    2.1919608116149902e-05     -0.0013360381126403809     -0.00069469958543777466    
532165206     -0.00021473318338394165    -0.0014468953013420105     -2.7954578399658203e-05    4.4479966163635254e-06     -1.8104910850524902e-05    1.3343989849090576e-05     -0.0013395324349403381     -0.00066038966178894043    
534167709     -0.00026904791593551636    -0.001438632607460022      -9.5292925834655762e-06    2.2552907466888428e-05     -2.4460256099700928e-05    2.6360154151916504e-05     -0.0013674870133399963     -0.00060512125492095947    
536170212     -0.00029255449771881104    -0.0014386400580406189     -2.0965933799743652e-05    3.0495226383209229e-05     -1.6517937183380127e-05    2.2232532501220703e-05     -0.0014030560851097107     -0.00055906176567077637    
538172715     -0.00034814327955245972    -0.0014332309365272522     -6.6682696342468262e-06    1.5251338481903076e-05     -1.3023614883422852e-05    8.2552433013916016e-06     -0.0014157742261886597     -0.00050951540470123291    
540175218     -0.00041135400533676147    -0.0014214813709259033     -2.8587877750396729e-05    9.2089176177978516e-06     -1.9378960132598877e-05    1.3023614883422852e-05     -0.0014386400580406189     -0.00046344846487045288    
542177722     -0.00043009966611862183    -0.0014170408248901367     -2.8900802135467529e-05    1.3656914234161377e-05     -7.6219439506530762e-06    2.6680529117584229e-05     -0.0014376863837242126     -0.00040500611066818237    
544180225     -0.00048600137233734131    -0.0014005154371261597     -3.2082200050354004e-05    1.2710690498352051e-05     -3.1448900699615479e-05    4.7609210014343262e-06     -0.0014491155743598938     -0.00035481154918670654    
546182728     -0.00053556263446807861    -0.001385912299156189      -2.0012259483337402e-05    7.6219439506530762e-06     -2.3506581783294678e-05    1.2069940567016602e-05     -0.0014507099986076355     -0.00029478222131729126    
548185231     -0.00058416277170181274    -0.0013579577207565308     -2.4773180484771729e-05    2.1286308765411377e-05     -2.8908252716064453e-05    6.67572021484375e-06       -0.0014561042189598083     -0.00024840235710144043    
550187734     -0.00062926113605499268    -0.0013516023755073547     -2.9861927032470703e-05    9.8496675491333008e-06     -2.1912157535552979e-05    1.2665987014770508e-06     -0.0014595985412597656     -0.00019503384828567505    
552190237     -0.00069025158882141113    -0.0013315901160240173     -1.9378960132598877e-05    2.0653009414672852e-05     -1.2077391147613525e-05    3.1739473342895508e-06     -0.0014691352844238281     -0.00013437122106552124    
554192740     -0.00071979314088821411    -0.0013017356395721436     -3.0174851417541504e-05    6.981194019317627e-06      -2.1919608116149902e-05    2.5480985641479492e-06     -0.0014684945344924927     -7.9728662967681885e-05    
556195243     -0.00077220797538757324    -0.0012823492288589478     -3.6530196666717529e-05    1.0482966899871826e-05     -1.9058585166931152e-05    1.3977289199829102e-05     -0.0014599189162254333     -3.5896897315979004e-05    
558197747     -0.00082271546125411987    -0.0012658312916755676     -1.6205012798309326e-05    -4.7609210014343262e-06    -1.4290213584899902e-05    1.8104910850524902e-05     -0.0014726296067237854     3.3035874366760254e-05     
560200250     -0.0008633732795715332     -0.0012566223740577698     -1.3656914234161377e-05    1.9073486328125e-06        -1.8425285816192627e-05    9.8496675491333008e-06     -0.0014592856168746948     9.275972843170166e-05      
562202753     -0.00090467184782028198    -0.0012146905064582825     -9.2163681983947754e-06    6.3329935073852539e-07     -2.8267502784729004e-05    1.1116266250610352e-05     -0.0014526098966598511     0.00014421343803405762     
564205256     -0.00093992799520492554    -0.0011851489543914795     -1.2703239917755127e-05    -6.0349702835083008e-06    -2.5093555450439453e-05    7.6219439506530762e-06     -0.0014446750283241272     0.00019408762454986572     
566207759     -0.00098630040884017944    -0.0011527538299560547     -2.6054680347442627e-05    1.3336539268493652e-05     -1.7784535884857178e-05    -7.9423189163208008e-06    -0.0014186277985572815     0.00025475025177001953     
