!Created with skrf (http://scikit-rf.org).
# Hz S RI R 50.0 
!freq ReS11 ImS11 ReS21 ImS21 ReS12 ImS12 ReS22 ImS22
400000000.0 -0.08146834525751663 -0.4425933506845644 0.19342014628461998 -0.3703660686271622 0.22835766120091372 -0.41997129311483195 0.057267729006119754 -0.5171427941667702
402002503.0 -0.0751624485115681 -0.44718285765923915 0.20972647532486374 -0.36613476337838463 0.21579521923672418 -0.4295300208079849 0.02908072785567104 -0.5316599158449371
404005006.0 -0.09359760307855751 -0.46232656555721496 0.21229927780392482 -0.3823733755886903 0.22618939159496917 -0.42122710971473215 0.014274525487220304 -0.5201901035071965
406007509.0 -0.11134566721399834 -0.45613466902495103 0.21639414758878428 -0.38597136883975847 0.23163641605535784 -0.4301241721645236 0.0031222541756926996 -0.5256097788388994
408010012.0 -0.12917726871651383 -0.4453114635484606 0.21468119036806457 -0.3863510861356875 0.23891079800855033 -0.4407981950715076 0.0035625286476655216 -0.5214500870061469
410012515.0 -0.1328046785994561 -0.42667650062552887 0.22458356370371682 -0.391338020021516 0.23889610558529717 -0.44537579870142624 -0.017942921177164176 -0.5202638397485776
412015018.0 -0.14327367959474133 -0.4292879425421392 0.2289112103567488 -0.40147658287701027 0.24472936594710545 -0.4517215888351004 -0.02736152183690925 -0.5191106793615218
414017521.0 -0.14886514883603758 -0.4266713997797705 0.24111292451571945 -0.4071131111436141 0.24668878443971756 -0.45361983983722837 -0.04548871122745459 -0.5104463374280286
416020025.0 -0.1641627619480876 -0.4169668057591119 0.23795906022176144 -0.416927399468371 0.24921392125232383 -0.4665089790785245 -0.0419418480323894 -0.5077987671758943
418022528.0 -0.17726071021126533 -0.40870785879177995 0.24752470895512718 -0.4226713806675103 0.2401098035700104 -0.46928502521475335 -0.07573359045703351 -0.5002183605742166
420025031.0 -0.187567673599029 -0.401661414572522 0.24841020775450653 -0.4317658874569611 0.2505483683588649 -0.47557738927209614 -0.07584027157991557 -0.49312454256531413
422027534.0 -0.18789339385750764 -0.40343383738151195 0.2600428027729464 -0.44387236110267325 0.24393324168554795 -0.48576380932476315 -0.09796924407160984 -0.49245797177731765
424030037.0 -0.20094098799768614 -0.38877446011255445 0.25341322843976144 -0.45133042011933294 0.24541208896072145 -0.4965200357963322 -0.09910856015609379 -0.4838512947269372
426032540.0 -0.20023394195277808 -0.38455595113543795 0.2719299092866732 -0.4678372946256796 0.24461005890460696 -0.4981913704081082 -0.12473055140902055 -0.47352757609088225
428035043.0 -0.21721174982168295 -0.3897040647442741 0.2645060790914993 -0.4807560364707097 0.24126592932186572 -0.5034923592936934 -0.1275297450989109 -0.45454415070889914
430037546.0 -0.22619733237005013 -0.36450296728701337 0.27452293489213014 -0.4802288566438443 0.2391591785878871 -0.5262241129020422 -0.13465554991693135 -0.46645198640650254
432040050.0 -0.2212346324559161 -0.3574106275796894 0.2797870743122379 -0.49041715028335864 0.22562723576358254 -0.5259508357663273 -0.15369281863871892 -0.4556733513644211
434042553.0 -0.23324983241080066 -0.35358644851573373 0.2722346272494435 -0.5020811455898824 0.2274897658378804 -0.5318149139463074 -0.15531838969936954 -0.4386278765433942
436045056.0 -0.23063050621095113 -0.337248344595894 0.2846894537817521 -0.5153354962820251 0.2215691789642557 -0.5464337765851007 -0.16027308915395375 -0.43991920084439146
438047559.0 -0.23515634979941055 -0.3331783748577892 0.27758065806308313 -0.5306432044167604 0.2138807264858421 -0.5461012191439769 -0.1790465199520901 -0.41872232261636533
440050062.0 -0.2506395054936255 -0.32606436291400265 0.2732181905328496 -0.5312864286738223 0.21404485776135684 -0.5611664470927805 -0.1768592202440073 -0.4150298598725635
442052565.0 -0.2550405966668846 -0.31733321887891686 0.27566885180419054 -0.5432330047885066 0.2045811929323622 -0.569700151427454 -0.1859732138443724 -0.40689186459329363
444055068.0 -0.24818209574475444 -0.31135879795036703 0.2788517522339526 -0.5536174157386767 0.18722419699749196 -0.5790398299203621 -0.20230063850739038 -0.4054815260192432
446057571.0 -0.25850607620655836 -0.31742121505853044 0.26766222529012546 -0.5653203784137285 0.1831860948279102 -0.5817247588778675 -0.2027767556803437 -0.3966411067561441
448060075.0 -0.26251150479617313 -0.29664535377198253 0.2656604885757435 -0.5755949644936122 0.17608381404230095 -0.592244415367769 -0.21307146039538355 -0.3850959908211626
450062578.0 -0.26431817137525976 -0.2901664939445148 0.26364470876990204 -0.5804508355632696 0.1625526163897864 -0.6098010005191747 -0.22535967493635575 -0.3835619894379964
452065081.0 -0.276693210764719 -0.2705244804223252 0.25667393612941036 -0.5846315729603823 0.1435586324582316 -0.6142067656443071 -0.2335611875355126 -0.380516425965795
454067584.0 -0.27018135465528953 -0.2761014154001257 0.24887975308625682 -0.5997678324066729 0.1356942323694368 -0.6195774124852238 -0.23480042186520259 -0.3748513651197451
456070087.0 -0.271095854026454 -0.2653704148474916 0.24315959285030508 -0.6121852916921475 0.11855019280755093 -0.6299085054220221 -0.25586061543036726 -0.37751963689315887
458072590.0 -0.2771592451813972 -0.2572912847655441 0.2295140470156135 -0.6146340090596382 0.10969503804425412 -0.6425296667617476 -0.2445196111774043 -0.3735516242496111
460075093.0 -0.2821920959199873 -0.25827764456694885 0.21922099902599929 -0.6275096584826514 0.09545320061542699 -0.6462259080201465 -0.26513184588435335 -0.370092497255947
462077596.0 -0.2853386836069588 -0.24915069754712613 0.20688461221966006 -0.6282411951439989 0.09644245929669737 -0.6591802873553834 -0.25863836486729924 -0.34970648791679915
464080100.0 -0.29067521740102537 -0.24048396283070203 0.1997495734194305 -0.6401130395318972 0.06664398420286644 -0.6671534272370502 -0.2757182043718411 -0.369224883013179
466082603.0 -0.30054932521534455 -0.2427301543065004 0.18704343037676893 -0.6529988414742237 0.05298227582642734 -0.6731344513388522 -0.28057197533808026 -0.3738802436605899
468085106.0 -0.3035824118303248 -0.23511153984669017 0.16908022858733812 -0.6557469606124965 0.054660519126391784 -0.6766857981230348 -0.2855106662962046 -0.35101009111651377
470087609.0 -0.31105534656443956 -0.22431043066699646 0.1564278342430593 -0.6592583280252526 0.03914200994147418 -0.6844722694088924 -0.29075482389880053 -0.35500682651766946
472090112.0 -0.3139557524207386 -0.23138449081886878 0.1383062130346169 -0.6737256061214435 0.021949956010715563 -0.6908523995695186 -0.30242972187520706 -0.3597126793307943
474092615.0 -0.31863339777846156 -0.21702702731450343 0.124209283166753 -0.6757860652208109 0.01222730453340964 -0.7031273394075099 -0.2968515217154218 -0.3526441797665469
476095118.0 -0.3308805268833701 -0.20956335214668853 0.11017624434639488 -0.6793246575750606 0.002167151046047726 -0.7001293963905298 -0.3172507659167965 -0.35496487775820185
478097621.0 -0.32830089345244784 -0.20230039755514745 0.09187753532466456 -0.6832295254162277 -0.004768403398638967 -0.707056158152871 -0.31644997437940836 -0.3444828004069448
480100125.0 -0.33515747131346296 -0.19362411578697306 0.0808625181206777 -0.6947668318173162 -0.025824800006550918 -0.7052326389524991 -0.3389176677293755 -0.35245169270244187
482102628.0 -0.3584344955369901 -0.20601414455829647 0.04970591517873108 -0.696266619841781 -0.028748380009592654 -0.7100101833267188 -0.34454592124661015 -0.33823082827015427
484105131.0 -0.35889661238549786 -0.19883507429791752 0.03396279235057609 -0.7078563615063104 -0.035905815718423766 -0.7104576982041316 -0.34670184180614516 -0.3377709681520021
486107634.0 -0.3573818992692972 -0.18668779835422222 0.026497595183363813 -0.7143861281909172 -0.05550582470837914 -0.7117241931999542 -0.36231815257019107 -0.3504942426743934
488110137.0 -0.35987870945074496 -0.1921062478357298 -0.00179297817907082 -0.7263483441699651 -0.05653652109393586 -0.7118736710440983 -0.3685497578238667 -0.33185493404389277
490112640.0 -0.37592614168420907 -0.17753555471983293 -0.02046655364469315 -0.7179747695271401 -0.07170678517240478 -0.7122509951970372 -0.37908332267491074 -0.3322014653927982
492115143.0 -0.37453063433112727 -0.1691060593594232 -0.029511228203203503 -0.7253469552420031 -0.07754514666494983 -0.706498904979928 -0.38849820067324414 -0.3250407370050231
494117647.0 -0.3872930902990974 -0.16254597008231306 -0.057840219414871816 -0.7241314485447184 -0.09047959600873663 -0.7040784568785745 -0.3993286508452841 -0.31869542158611874
496120150.0 -0.39140501946613065 -0.1600719034730263 -0.08004690495125197 -0.7191708082775723 -0.09240179095484605 -0.6985929823422902 -0.4132458613730897 -0.3078510210315555
498122653.0 -0.40181247906424716 -0.1495500338231661 -0.0932546130827584 -0.7270976969629678 -0.11342053672343692 -0.7003045583245469 -0.40571878110139203 -0.3133223677686817
500125156.0 -0.4150971886480779 -0.1402924278424198 -0.11598784348046198 -0.7199204738170921 -0.11635856843508655 -0.6874070382572554 -0.4289898273251113 -0.29665462104199697
502127659.0 -0.42026706316487683 -0.14396635833452673 -0.1384358728963489 -0.7202252558580613 -0.12609155414120615 -0.6839339046202967 -0.4385328481330317 -0.29006688882135373
504130162.0 -0.42151637112601326 -0.12256490181466047 -0.15040284834659295 -0.7232124412186646 -0.13804518031030805 -0.6749601818589657 -0.45159549875324345 -0.28631943995223086
506132665.0 -0.4324395698374409 -0.11945560736574143 -0.17240311591658208 -0.7121691487314805 -0.1423249713863915 -0.6705295565069886 -0.44806876734948725 -0.2642142279513931
508135168.0 -0.44074457259624106 -0.09918641592805816 -0.18706907325289354 -0.7058471656624938 -0.15169672886816726 -0.6593023990323925 -0.4607179049753787 -0.2665009775176875
510137672.0 -0.44537659893189024 -0.08663246632376928 -0.2060944205333222 -0.7038394093141069 -0.1643400557984023 -0.6518819183947157 -0.4793660847682878 -0.25887767298235714
512140175.0 -0.4487298814434902 -0.07979513013971114 -0.22014276729084145 -0.6954808324172262 -0.17042431714472864 -0.6401698571940423 -0.48947482618474236 -0.24308509477908172
514142678.0 -0.4438464627242988 -0.06591597501580015 -0.23510141699354573 -0.6858728620843304 -0.17283052670720098 -0.634537094505518 -0.4881310096335546 -0.22243708073340657
516145181.0 -0.44949032010412765 -0.04752158880236421 -0.24941330050994528 -0.6777634085511378 -0.1755140141876034 -0.615577218107932 -0.4993301547697758 -0.2046553662493201
518147684.0 -0.4549671510940228 -0.040245939739065185 -0.2582367333546673 -0.6639007832695495 -0.18849954738866573 -0.6098442356319594 -0.4981330333998475 -0.1984812429693692
520150187.0 -0.45302004798300366 -0.02990666535779106 -0.2763372318774713 -0.658681649716224 -0.1882045262716984 -0.5992775819697751 -0.525805698721262 -0.1806892425734269
522152690.0 -0.45445579515517054 -0.017407183725994774 -0.28744911843666077 -0.6445574245512349 -0.19567220704192653 -0.5840964178799184 -0.5262359167668011 -0.1636193992492601
524155193.0 -0.45473465171848015 -0.003947532308046093 -0.2929205436434562 -0.6304417429083318 -0.19623060097906234 -0.574123675546177 -0.5249060964459458 -0.1494676290743925
526157697.0 -0.44614987341178647 0.007698473670896236 -0.2970012769958039 -0.6194555620599227 -0.20477365822388915 -0.5535359043002085 -0.5367667897539298 -0.12688609874680296
528160200.0 -0.44957510824865166 0.03294155693890341 -0.30454129400449265 -0.6033932369055559 -0.21206552430977366 -0.5491332903264827 -0.5302333432609949 -0.11967278102280189
530162703.0 -0.44709421955586937 0.04873831216607281 -0.3096012606052412 -0.5986236981212227 -0.21155150025179514 -0.5294205329267675 -0.5405221085160533 -0.1117967939990842
532165206.0 -0.4452530576179278 0.06615796825442359 -0.3158353571673396 -0.5863690153867723 -0.2078029139487334 -0.5167148221492787 -0.5559046503459055 -0.09011741705252128
534167709.0 -0.43907569784147193 0.07514608361557354 -0.3203940715874923 -0.5671005695354352 -0.21302964093563323 -0.5049892663102686 -0.5582002634299049 -0.0654994472450897
536170212.0 -0.45063922795083583 0.0957169173512622 -0.3150388278853834 -0.552174021663979 -0.21806441718961023 -0.4959712216493642 -0.5417660363900969 -0.05689511732111857
538172715.0 -0.4316866006527782 0.09919760364900222 -0.317665774572368 -0.5398257232587211 -0.21542777343658062 -0.4847496516619089 -0.551919839156885 -0.036086644722435925
540175218.0 -0.42914346695689776 0.1121968495209235 -0.3221841001984259 -0.5305506184171611 -0.21825386290962254 -0.47617455062762026 -0.555830251339532 -0.01533641290956429
542177722.0 -0.4312824465100573 0.1359633947603983 -0.3136994777419701 -0.5173544809874023 -0.21895107240363015 -0.46078624341381474 -0.5487297169272123 -0.005307719835562876
544180225.0 -0.42130536735445234 0.14596908319736496 -0.310839443949484 -0.5031390197637851 -0.22411859946120474 -0.45175802107594554 -0.5469374682071737 0.020057906496965726
546182728.0 -0.41569466774716285 0.1548297921682412 -0.31314882065823313 -0.4936617206567969 -0.22360018691614497 -0.4408062886969159 -0.5483904363385416 0.026152893378365738
548185231.0 -0.40334394815580693 0.16106788789560755 -0.3125815293333718 -0.47337376592988056 -0.21939787773974112 -0.43368902798104797 -0.5585463014951458 0.04024553556020566
550187734.0 -0.40071480622596467 0.17794321436967764 -0.3018015386026493 -0.46349333596582626 -0.22310304956970142 -0.42356183441846756 -0.5419212363248762 0.06128514437720549
552190237.0 -0.390458427157576 0.1792620311989394 -0.3031845230189997 -0.45453458684396136 -0.2244882846752589 -0.4195356127135881 -0.5419365559768587 0.06963736523139377
554192740.0 -0.39585901858054723 0.1907385029402153 -0.2956952498247198 -0.43938881036314015 -0.2243783016435247 -0.4143442063808295 -0.5393889228746176 0.087833992833043
556195243.0 -0.37731254032117745 0.20643397251302187 -0.29483895870228866 -0.43079757975460115 -0.2215284178866076 -0.4051668713238263 -0.543412141938794 0.10766690031754277
558197747.0 -0.3659899710216187 0.21948436873328872 -0.2867696389279187 -0.4191000026041612 -0.2251314522099739 -0.40546850304130855 -0.5330444126569823 0.12213961486912311
560200250.0 -0.3648793709560332 0.23788336077184358 -0.27920134852913886 -0.42023021363632784 -0.221708907659843 -0.39866795875710015 -0.5306081584318434 0.12548847623094142
562202753.0 -0.357231175397172 0.24007122197551098 -0.27485276757049343 -0.40445366369932767 -0.22439356169703806 -0.39751078656365785 -0.5312300573216756 0.14559202452225897
564205256.0 -0.3562558092374387 0.24764586514404652 -0.266258611803357 -0.3963327816347717 -0.22434386441197546 -0.3956844320938007 -0.5165317113334829 0.16046230652218044
566207759.0 -0.3443830349704005 0.25181130574868593 -0.2662671629896138 -0.3895629002490475 -0.22040781545560484 -0.3907365261690682 -0.5270531724993157 0.16080971046553263
568210262.0 -0.3210765709438721 0.2539413023518463 -0.2660202184652128 -0.3788975738919129 -0.22177251105113094 -0.39329485233746586 -0.5191878806051177 0.16686024336301128
570212765.0 -0.3224412906613321 0.26465954802142505 -0.2561402534604015 -0.37362194936137244 -0.2179724320509518 -0.39473779011147714 -0.5115621703975043 0.18969278235656298
572215269.0 -0.32575559118319813 0.2825318470482008 -0.2526138972853294 -0.37033012934590537 -0.22185179227199942 -0.39440149482682485 -0.5068024745893673 0.20331855359993756
574217772.0 -0.31549407534951945 0.2830093739357095 -0.24706664917555737 -0.36353671964928214 -0.2193987359987086 -0.39353824563301704 -0.4897480924103819 0.20648300436688677
576220275.0 -0.30940049903722816 0.2992654888403554 -0.24865778695886012 -0.3581563498456113 -0.2191717843484523 -0.38672906636429266 -0.4924370584409542 0.20467052338095162
578222778.0 -0.30043344063274763 0.29647836681474476 -0.24078190295450044 -0.35126573646629955 -0.21670878498782756 -0.3932682332289935 -0.4895273648986843 0.22202059597402504
580225281.0 -0.3007839835407783 0.31314433758222904 -0.23941714062825123 -0.3498044113690874 -0.21645977474160152 -0.39761097371462184 -0.48900367366070524 0.24216465669788217
582227784.0 -0.2784225206814538 0.3224172561648139 -0.23882313264863433 -0.3418122178574731 -0.2100575763291243 -0.3974769945299714 -0.4827977150471317 0.24383109477715625
584230287.0 -0.27578296314305817 0.3085184039343347 -0.23331286119344055 -0.33410347062491863 -0.213157951432801 -0.4021725875225169 -0.4705844938439919 0.2563282500989515
586232790.0 -0.27417773432577414 0.3316111532103599 -0.23305781033803313 -0.33544201126284623 -0.2070457169717472 -0.4017879881607705 -0.4827210382784524 0.2545054111624336
588235294.0 -0.26679099006807205 0.33426817833119965 -0.23146268800381523 -0.3341054008635643 -0.2059976806276025 -0.40790610634337926 -0.4730056092744042 0.26735288944955543
590237797.0 -0.24449150996103053 0.3435518064897224 -0.23454612685935244 -0.33487748912564214 -0.2067724127725424 -0.4124865440788086 -0.4675401383121195 0.27679478734587937
592240300.0 -0.2613777166787345 0.34599888076020624 -0.23137157038391484 -0.3334686174562889 -0.20613394140997143 -0.4149774971127267 -0.44792370844364154 0.2856903721095911
594242803.0 -0.2490049026416256 0.3676301114729083 -0.2297776072161117 -0.33355708530272504 -0.19745730756313074 -0.4225984869718253 -0.45993667579626046 0.28572735413669637
596245306.0 -0.24432414850262002 0.3514631520915789 -0.2301343008062709 -0.33454186270214203 -0.20195705622015156 -0.42062115344753626 -0.4369584486092511 0.2963090078428853
598247809.0 -0.24534234435738797 0.3625645332504326 -0.22613014483338487 -0.3372074400107073 -0.1965942965278784 -0.41860631878384946 -0.4272194355472567 0.3117002264275398
600250312.0 -0.2210207312448825 0.3604097152281479 -0.23072676372576592 -0.3387526119464817 -0.19796152920828483 -0.4284496933899663 -0.419664614622228 0.32527502381417506
602252815.0 -0.21717397197033766 0.37470863383415887 -0.23100103064956823 -0.3408151037078428 -0.1848867655712256 -0.42992493031857965 -0.42766932227513205 0.3205265002533471
604255319.0 -0.22421007412000898 0.37464045534661744 -0.22875120239040314 -0.3436976557135504 -0.18865205862674472 -0.42665454462449515 -0.40568143942744456 0.32401492107412333
606257822.0 -0.2191813615461655 0.3791541064163703 -0.22518147555173146 -0.35185846116464764 -0.1877225848557786 -0.43662587378210255 -0.4044426770097373 0.3535371194437145
608260325.0 -0.19791878403416285 0.40410640942593345 -0.23317098012410276 -0.35684412713817415 -0.17924685392831283 -0.4342821125939553 -0.39222921900225366 0.3417974596770704
610262828.0 -0.19958933639494605 0.3911064000117616 -0.2297933858836807 -0.35635497612100697 -0.1781669257120554 -0.43762443555514136 -0.39786210387134213 0.36086433990943123
612265331.0 -0.19939741829047167 0.3927515678819688 -0.22768941924769942 -0.36104832739435005 -0.17506065984925387 -0.4381439371146355 -0.38079767665473047 0.36768713557381544
614267834.0 -0.18513829464917067 0.4061398223637599 -0.23197962441789682 -0.36937806531549566 -0.17868194985734284 -0.44420285693865874 -0.37187817463802886 0.38936763046797895
616270337.0 -0.18238023546856608 0.3940504237976413 -0.23331618622234215 -0.3719920651859705 -0.1823142971353607 -0.43776518279979604 -0.35875108194179317 0.383980631839733
618272840.0 -0.1819022075320003 0.40016671153500205 -0.23065728223630405 -0.37882828192368306 -0.17225521834110938 -0.4402592496547461 -0.36151377669747814 0.3847640797631253
620275344.0 -0.16750429545804202 0.41254072133027364 -0.23754938507201878 -0.3861410977602709 -0.17364443690708714 -0.4392056127344338 -0.35201698480178656 0.3889196458279875
622277847.0 -0.1689532590363214 0.41988536803065646 -0.2356172671967068 -0.3938443906861383 -0.16926207026592158 -0.4393678229493209 -0.3408695015647219 0.4014977893920327
624280350.0 -0.1374706596040686 0.42528577635606396 -0.24033756433065342 -0.40046303752565066 -0.17569874925075285 -0.44457570452445905 -0.3334718982861062 0.41954338241849615
626282853.0 -0.15332257345296424 0.42137243585785444 -0.2409726272705448 -0.40611024017640707 -0.17571922384513392 -0.4445341964468621 -0.30797143708342956 0.41990166046946714
