! PocketVna 1.57  pocketvna.com
! Live measurements ((Reflection-S11) Linear 10000000-1000000000/1000 calibrated)
# Hz S RI R 50
! Hz          ReS11                      ImS11                      ReS21    ImS21    ReS12                      ImS12                      ReS22    ImS22    
10000000      0.97441508694147538        -0.11016852932188066       0                          0                          0        0        0        0        
10990990      0.97150911313298138        -0.11793093785241252       0                          0                          0        0        0        0        
11981981      0.95260611680895801        -0.12207257843999778       0                          0                          0        0        0        0        
12972972      0.95746866778729245        -0.14048255511628871       0                          0                          0        0        0        0        
13963963      0.95401870502914954        -0.15833408367522842       0                          0                          0        0        0        0        
14954954      0.95165261628675102        -0.16228949903409357       0                          0                          0        0        0        0        
15945945      0.94858969710399799        -0.18436245739123863       0                          0                          0        0        0        0        
16936936      0.93771428526934641        -0.19579186771304427       0                          0                          0        0        0        0        
17927927      0.92631181666086937        -0.2021075699193273        0                          0                          0        0        0        0        
18918918      0.92533911813019243        -0.21362662876751473       0                          0                          0        0        0        0        
19909909      0.92725799399918707        -0.22869928607535359       0                          0                          0        0        0        0        
20900900      0.91665097980648791        -0.23537223856180711       0                          0                          0        0        0        0        
21891891      0.91532127709538669        -0.25097773151020353       0                          0                          0        0        0        0        
22882882      0.90525711969246225        -0.26052904244189329       0                          0                          0        0        0        0        
23873873      0.90290236036923688        -0.278690521443404         0                          0                          0        0        0        0        
24864864      0.90473899330089647        -0.29526094185898183       0                          0                          0        0        0        0        
25855855      0.89803624559869399        -0.29716256998306223       0                          0                          0        0        0        0        
26846846      0.89439306803625618        -0.30684534901861743       0                          0                          0        0        0        0        
27837837      0.88056947672259833        -0.32155195482052656       0                          0                          0        0        0        0        
28828828      0.88877943342743282        -0.33045763793081206       0                          0                          0        0        0        0        
29819819      0.87153633541597453        -0.33693825976583863       0                          0                          0        0        0        0        
30810810      0.86530619226747574        -0.35458499970704516       0                          0                          0        0        0        0        
31801801      0.86742177314923608        -0.37384837938884208       0                          0                          0        0        0        0        
32792792      0.86517753202382486        -0.37296977396863318       0                          0                          0        0        0        0        
33783783      0.85866035268404595        -0.38463778382069563       0                          0                          0        0        0        0        
34774774      0.85130960981948267        -0.39359472056501621       0                          0                          0        0        0        0        
35765765      0.84281816785840158        -0.40945052138955956       0                          0                          0        0        0        0        
36756756      0.85016014985669053        -0.42273878180715169       0                          0                          0        0        0        0        
37747747      0.83579719644056027        -0.43522121992250223       0                          0                          0        0        0        0        
38738738      0.8288825939717116         -0.44544721788387848       0                          0                          0        0        0        0        
39729729      0.82774789162298745        -0.4430737134153242        0                          0                          0        0        0        0        
40720720      0.82190208416655108        -0.46265231609740631       0                          0                          0        0        0        0        
41711711      0.82209435595050084        -0.47596343595878521       0                          0                          0        0        0        0        
42702702      0.81847596349259621        -0.48800555822561548       0                          0                          0        0        0        0        
43693693      0.81761987018686544        -0.4958441525776256        0                          0                          0        0        0        0        
44684684      0.81505210083761881        -0.48783257231298932       0                          0                          0        0        0        0        
45675675      0.80159402336122298        -0.50433103176767002       0                          0                          0        0        0        0        
46666666      0.79635348121507821        -0.51233573131322474       0                          0                          0        0        0        0        
47657657      0.79686116646850913        -0.51552894281437422       0                          0                          0        0        0        0        
48648648      0.79575420778702277        -0.53892625978987396       0                          0                          0        0        0        0        
49639639      0.80199902882032525        -0.54217892102049148       0                          0                          0        0        0        0        
50630630      0.79357040183923799        -0.54310819440724378       0                          0                          0        0        0        0        
51621621      0.78238903566233031        -0.55235731525033793       0                          0                          0        0        0        0        
52612612      0.77631796254264984        -0.56067093022891279       0                          0                          0        0        0        0        
53603603      0.77350116948747749        -0.56643598983781596       0                          0                          0        0        0        0        
54594594      0.76845234710412436        -0.56559633933087483       0                          0                          0        0        0        0        
55585585      0.76384962929388567        -0.56921148992848625       0                          0                          0        0        0        0        
56576576      0.75172460497710381        -0.58513016397553608       0                          0                          0        0        0        0        
57567567      0.75167099281886207        -0.58809919487705364       0                          0                          0        0        0        0        
58558558      0.74303900960245095        -0.596123599261            0                          0                          0        0        0        0        
59549549      0.73777699746832481        -0.59399084442707917       0                          0                          0        0        0        0        
60540540      0.72806706060988835        -0.60087847301481079       0                          0                          0        0        0        0        
61531531      0.72510500875792505        -0.60910946078813155       0                          0                          0        0        0        0        
62522522      0.72507502000698965        -0.61957826252052883       0                          0                          0        0        0        0        
63513513      0.70861872124233882        -0.6193676521722763        0                          0                          0        0        0        0        
64504504      0.69632691477208553        -0.62361556147934694       0                          0                          0        0        0        0        
65495495      0.6920520247614852         -0.62404978368347697       0                          0                          0        0        0        0        
66486486      0.69039028524996537        -0.62998189249755498       0                          0                          0        0        0        0        
67477477      0.68348558022367001        -0.63359957476501771       0                          0                          0        0        0        0        
68468468      0.67446147426637548        -0.63346487822072184       0                          0                          0        0        0        0        
69459459      0.67537196071853989        -0.63509877341797749       0                          0                          0        0        0        0        
70450450      0.66296317581614361        -0.64090292893197987       0                          0                          0        0        0        0        
71441441      0.65758553165120026        -0.6425876141567457        0                          0                          0        0        0        0        
72432432      0.64457764861055           -0.6397325199692383        0                          0                          0        0        0        0        
73423423      0.63742799109615889        -0.64144665588016325       0                          0                          0        0        0        0        
74414414      0.6326278428060631         -0.64584439212560496       0                          0                          0        0        0        0        
75405405      0.62214134805579169        -0.64561063856539647       0                          0                          0        0        0        0        
76396396      0.62502671309579838        -0.6506421387298158        0                          0                          0        0        0        0        
77387387      0.61348649708232927        -0.65701801285398231       0                          0                          0        0        0        0        
78378378      0.60276129021089619        -0.65924838169907352       0                          0                          0        0        0        0        
79369369      0.59051896437228035        -0.65840939634986284       0                          0                          0        0        0        0        
80360360      0.58980114899620795        -0.65249876649124994       0                          0                          0        0        0        0        
81351351      0.57601088355365215        -0.65270502590389978       0                          0                          0        0        0        0        
82342342      0.56514455818955422        -0.6632770040409246        0                          0                          0        0        0        0        
83333333      0.55925093235056722        -0.65461533618600021       0                          0                          0        0        0        0        
84324324      0.55078027705342159        -0.64912107047597267       0                          0                          0        0        0        0        
85315315      0.54340385501615718        -0.65137986313440233       0                          0                          0        0        0        0        
86306306      0.53260826067225642        -0.66098402797100031       0                          0                          0        0        0        0        
87297297      0.52829140716522893        -0.65734323396506311       0                          0                          0        0        0        0        
88288288      0.51723323798413234        -0.65172251123157943       0                          0                          0        0        0        0        
89279279      0.50348898024999289        -0.64605833307270788       0                          0                          0        0        0        0        
90270270      0.50068399651821893        -0.65081441594895872       0                          0                          0        0        0        0        
91261261      0.48606083984579207        -0.65677113091389361       0                          0                          0        0        0        0        
92252252      0.47341451873532192        -0.650545603846587         0                          0                          0        0        0        0        
93243243      0.46752046655641616        -0.64623152928531968       0                          0                          0        0        0        0        
94234234      0.46327288015212398        -0.64489315261992064       0                          0                          0        0        0        0        
95225225      0.45220629231631715        -0.647769599801159         0                          0                          0        0        0        0        
96216216      0.4390827996842091         -0.64517509409898477       0                          0                          0        0        0        0        
97207207      0.42874934119467162        -0.64002739939575815       0                          0                          0        0        0        0        
98198198      0.42010126996069402        -0.63572492678579562       0                          0                          0        0        0        0        
99189189      0.40421701609633237        -0.63933528831315634       0                          0                          0        0        0        0        
100180180     0.39803782479653904        -0.64092978065058404       0                          0                          0        0        0        0        
101171171     0.3919575217421411         -0.64442454407109551       0                          0                          0        0        0        0        
102162162     0.38558384493912062        -0.64453234682983918       0                          0                          0        0        0        0        
103153153     0.36889201951132855        -0.64479913208965756       0                          0                          0        0        0        0        
104144144     0.35345148284266154        -0.64269121472442459       0                          0                          0        0        0        0        
105135135     0.34571302864808867        -0.64265334822919462       0                          0                          0        0        0        0        
106126126     0.34092411675858308        -0.64170046205072984       0                          0                          0        0        0        0        
107117117     0.33034955311303893        -0.63745142181739001       0                          0                          0        0        0        0        
108108108     0.31471930533468284        -0.63684357274449088       0                          0                          0        0        0        0        
109099099     0.31230073080775572        -0.6275269814027693        0                          0                          0        0        0        0        
110090089     0.29515040677647031        -0.64041144198687328       0                          0                          0        0        0        0        
111081080     0.28451218869745332        -0.63863395718361382       0                          0                          0        0        0        0        
112072071     0.27617241690900934        -0.63101392254782296       0                          0                          0        0        0        0        
113063062     0.26389222514823379        -0.63068987462593107       0                          0                          0        0        0        0        
114054053     0.25621155414503433        -0.62632837821354981       0                          0                          0        0        0        0        
115045044     0.24011884429094396        -0.62641871374945013       0                          0                          0        0        0        0        
116036035     0.2353085490314856         -0.62397757900068862       0                          0                          0        0        0        0        
117027026     0.22068152062522772        -0.63422337287685226       0                          0                          0        0        0        0        
118018017     0.21644575865029703        -0.62746361313403454       0                          0                          0        0        0        0        
119009008     0.20572142026609089        -0.62378371147614209       0                          0                          0        0        0        0        
119999999     0.19865836188206371        -0.62356829891546917       0                          0                          0        0        0        0        
120990990     0.18383150301589504        -0.62305400945036393       0                          0                          0        0        0        0        
121981981     0.17081590838405095        -0.61888050291027741       0                          0                          0        0        0        0        
122972972     0.15122390030929095        -0.61603039158830897       0                          0                          0        0        0        0        
123963963     0.14663114722772344        -0.60918926731477263       0                          0                          0        0        0        0        
124954954     0.14239111236376981        -0.6122633820053679        0                          0                          0        0        0        0        
125945945     0.13133339488287868        -0.61442990284278964       0                          0                          0        0        0        0        
126936936     0.11593111416189621        -0.61881358361445371       0                          0                          0        0        0        0        
127927927     0.10948403811090206        -0.6149590031981591        0                          0                          0        0        0        0        
128918918     0.10456492582054486        -0.61005423197519815       0                          0                          0        0        0        0        
129909909     0.091930947548901618       -0.60942428224639211       0                          0                          0        0        0        0        
130900900     0.082713426079559296       -0.61149009515995023       0                          0                          0        0        0        0        
