# Hz S RI R 50
! CMT, S5085, 16077402, 21.3.2/1
! Date: 11/17/2021 5:20:22 PM
! Data: Format (Calibration Info)
! Freq	S11:Re/Im(--)	S21:Re/Im(--)	S12:Re/Im(--)	S22:Re/Im(--)
1.00000000000E+06	-1.02291556661E+00	-3.70858108570E-02	2.04832620586E-06	5.20050877562E-06	3.67478949319E-05	5.07396839557E-05	-1.02663979909E+00	1.21906311922E-01
9.49900000000E+06	-1.01439389767E+00	9.56936896061E-02	3.53233631000E-06	3.03758115039E-05	-3.87252393564E-05	1.99222232603E-05	-8.68550375265E-01	5.34660080787E-01
1.79980000000E+07	-1.00211661198E+00	2.21345263409E-01	5.24732998508E-05	3.40048234230E-05	3.47641347010E-05	5.65685470878E-05	-5.44893385964E-01	8.53353113523E-01
2.64970000000E+07	-9.67118864456E-01	3.40432408455E-01	6.84020869441E-05	4.14079558984E-05	7.00353914447E-05	3.26898073420E-05	-1.16312100391E-01	9.85655418494E-01
3.49960000000E+07	-9.14737766848E-01	4.51649282998E-01	5.08847673992E-05	9.96098440208E-06	5.10694483431E-05	1.34356264143E-05	3.05599588778E-01	9.22392522117E-01
4.34950000000E+07	-8.49653946113E-01	5.53938139632E-01	7.89862168861E-05	1.23932989576E-05	9.42275242891E-05	-6.19254894826E-06	6.47015870831E-01	7.02148500410E-01
5.19940000000E+07	-7.73831442102E-01	6.45051598859E-01	1.18021528047E-04	-2.38067724589E-05	8.29885775696E-05	-2.52373348950E-05	8.66624011108E-01	3.77272547808E-01
6.04930000000E+07	-6.89664855670E-01	7.23983130374E-01	1.03536784757E-04	-4.86895806512E-05	8.03533323761E-05	-6.51594194668E-05	9.45346002366E-01	-5.30527913085E-04
6.89920000000E+07	-5.99609009845E-01	7.89563949884E-01	1.12714910943E-04	-8.04094311592E-05	1.31796937764E-04	-7.09537330154E-05	8.74446027203E-01	-3.81952448603E-01
7.74910000000E+07	-5.06938330603E-01	8.42843832350E-01	9.12292338065E-05	-1.29380276571E-04	9.99910015552E-05	-1.19071203952E-04	6.56736139859E-01	-7.13302486775E-01
8.59900000000E+07	-4.13137079546E-01	8.84854822217E-01	7.29168693622E-05	-1.52290652881E-04	6.31185728741E-05	-1.79426994312E-04	3.13110243809E-01	-9.36417226184E-01
9.44890000000E+07	-3.19281104583E-01	9.15579174404E-01	1.55727514060E-05	-1.77034810588E-04	-6.61349091032E-06	-1.96433651962E-04	-1.05844343153E-01	-9.97154832071E-01
1.02988000000E+08	-2.26650621417E-01	9.37520186829E-01	-2.48075426307E-05	-2.10462470390E-04	-4.12603130536E-05	-2.10007992882E-04	-5.18821910106E-01	-8.67031933241E-01
1.11487000000E+08	-1.36303840430E-01	9.49834148130E-01	-9.26534152349E-05	-2.26987990157E-04	-1.17625017088E-04	-1.97977935322E-04	-8.35019120934E-01	-5.67924032257E-01
1.19986000000E+08	-4.83246884405E-02	9.54625507139E-01	-1.69585811383E-04	-2.07844830561E-04	-1.33211373075E-04	-2.03505038054E-04	-9.85470021528E-01	-1.65498281463E-01
1.28485000000E+08	3.70484040855E-02	9.52421990100E-01	-2.23735513876E-04	-1.78723084504E-04	-2.36326646930E-04	-1.50756410528E-04	-9.50235602584E-01	2.50052994500E-01
1.36984000000E+08	1.19968027239E-01	9.44219210296E-01	-2.95748586283E-04	-1.14859966033E-04	-2.74716651102E-04	-8.45003009521E-05	-7.54609893278E-01	5.99630069458E-01
1.45483000000E+08	1.99289355434E-01	9.30860703796E-01	-2.96714300694E-04	-1.68056370750E-05	-3.14255618148E-04	-4.97781752717E-05	-4.48494911693E-01	8.33085658371E-01
1.53982000000E+08	2.76137924560E-01	9.11846989385E-01	-3.18395961347E-04	1.28032406699E-05	-3.41606408422E-04	3.81454898440E-05	-8.99360405907E-02	9.30380870083E-01
1.62481000000E+08	3.50097066311E-01	8.87711720478E-01	-3.27926884793E-04	1.24696414096E-04	-3.35201015982E-04	1.31126745062E-04	2.71651002384E-01	8.89893267433E-01
1.70980000000E+08	4.20512937075E-01	8.58237748182E-01	-3.51604650274E-04	2.15279832912E-04	-3.40559588344E-04	2.23828337190E-04	5.92239450219E-01	7.22272025166E-01
1.79479000000E+08	4.89172847838E-01	8.25413941540E-01	-3.09305857701E-04	3.24729876554E-04	-3.15647147587E-04	3.18921523561E-04	8.30012153898E-01	4.46666273740E-01
1.87978000000E+08	5.54600649123E-01	7.87770026110E-01	-2.70985452160E-04	4.20964274379E-04	-2.48708944161E-04	4.31066304128E-04	9.50454208999E-01	9.55781055180E-02
1.96477000000E+08	6.16868059797E-01	7.45165470522E-01	-1.85517823062E-04	5.46348099130E-04	-1.90382959538E-04	5.49570449150E-04	9.26895610095E-01	-2.83741252720E-01
2.04976000000E+08	6.76216819099E-01	6.98198449373E-01	-4.15064697082E-05	6.40288225418E-04	-2.77922778305E-05	6.32815561405E-04	7.50762271121E-01	-6.31329411103E-01
2.13475000000E+08	7.32024205938E-01	6.46822372651E-01	1.39186774543E-04	6.97648736189E-04	1.38288905695E-04	7.05002400047E-04	4.43658340202E-01	-8.81953938856E-01
2.21974000000E+08	7.84241963882E-01	5.90512804972E-01	3.27515769234E-04	7.12794130358E-04	3.73145157949E-04	7.15131273212E-04	5.93147317666E-02	-9.84834180516E-01
2.30473000000E+08	8.32588839467E-01	5.29342487077E-01	5.91641019245E-04	7.08745773534E-04	5.86716043557E-04	7.00010085139E-04	-3.30809096002E-01	-9.21492527028E-01
2.38972000000E+08	8.75598044590E-01	4.63813020023E-01	8.36732451529E-04	6.00305339057E-04	8.13941785201E-04	5.76762627949E-04	-6.55882514028E-01	-7.09747193055E-01
2.47471000000E+08	9.13808077915E-01	3.93913929549E-01	1.05189410540E-03	4.27815833542E-04	1.07882258122E-03	4.38433154880E-04	-8.65833405473E-01	-3.94861541167E-01
2.55970000000E+08	9.46486182311E-01	3.19595698316E-01	1.26312224633E-03	1.83074059292E-04	1.32049152564E-03	1.71536843008E-04	-9.36792170061E-01	-3.29481838153E-02
2.64469000000E+08	9.72382845874E-01	2.40969662042E-01	1.51289337209E-03	-1.61769953381E-04	1.48825861873E-03	-1.35429987831E-04	-8.69335726008E-01	3.21534710855E-01
2.72968000000E+08	9.91549082959E-01	1.58433498554E-01	1.67632443683E-03	-5.55314109186E-04	1.68000344147E-03	-5.89378797839E-04	-6.78769155964E-01	6.23224432426E-01
2.81467000000E+08	1.00293881658E+00	7.23713858002E-02	1.81346010878E-03	-1.09546212695E-03	1.79628206112E-03	-1.16976113054E-03	-3.90952560135E-01	8.34542770066E-01
2.89966000000E+08	1.00594860232E+00	-1.68473370859E-02	1.81446990240E-03	-1.83951490898E-03	1.78365174951E-03	-1.86249286485E-03	-4.09637699856E-02	9.25996499175E-01
2.98465000000E+08	9.99638994314E-01	-1.08720295930E-01	1.58526726146E-03	-2.72658996307E-03	1.52601345237E-03	-2.77379372090E-03	3.26456470178E-01	8.77692696138E-01
3.06964000000E+08	9.83109980434E-01	-2.02934113058E-01	1.03869654486E-03	-3.77801408996E-03	9.38190290251E-04	-3.77576837008E-03	6.55608493117E-01	6.83879997629E-01
3.15463000000E+08	9.55960838257E-01	-2.98233563581E-01	1.44291699328E-06	-4.90449984741E-03	-6.69833772296E-05	-4.91549534046E-03	8.85516056169E-01	3.62982911761E-01
3.23962000000E+08	9.16422928210E-01	-3.94590565917E-01	-1.73098197435E-03	-5.98644715921E-03	-1.82956896211E-03	-5.99064216983E-03	9.62056429100E-01	-3.55171252139E-02
3.32461000000E+08	8.63632297843E-01	-4.90142755217E-01	-4.31270805436E-03	-6.75155458727E-03	-4.37456316468E-03	-6.68887855171E-03	8.58154946082E-01	-4.35493940597E-01
3.40960000000E+08	7.95237192522E-01	-5.83585415429E-01	-7.88117828883E-03	-6.75236479824E-03	-7.97209583885E-03	-6.69836036962E-03	5.88205663360E-01	-7.53036779640E-01
3.49459000000E+08	7.09735091924E-01	-6.73340176430E-01	-1.25111605836E-02	-5.50921253911E-03	-1.26411346870E-02	-5.43425870893E-03	2.06988488891E-01	-9.20332299921E-01
3.57958000000E+08	6.05488249685E-01	-7.57095738029E-01	-1.83848787849E-02	-2.15913515708E-03	-1.85547603060E-02	-1.93832221390E-03	-2.07581868999E-01	-9.03745952980E-01
3.66457000000E+08	4.78090823220E-01	-8.30553895879E-01	-2.54476794580E-02	4.87180869762E-03	-2.55253579354E-02	5.33279024906E-03	-5.73472827656E-01	-7.08362595972E-01
3.74956000000E+08	3.23302908566E-01	-8.87861032521E-01	-3.30212851662E-02	1.85232732350E-02	-3.27499763068E-02	1.92073487782E-02	-8.20124902696E-01	-3.66390204190E-01
3.83455000000E+08	1.37239161581E-01	-9.18100381988E-01	-3.78445318869E-02	4.43896238552E-02	-3.69210424899E-02	4.49377571092E-02	-8.84950868784E-01	7.04498335717E-02
3.91954000000E+08	-8.49097902648E-02	-9.01789877595E-01	-2.83369226956E-02	9.12984135724E-02	-2.68159286816E-02	9.09114838099E-02	-7.08861792480E-01	5.17264989015E-01
4.00453000000E+08	-3.39870094268E-01	-7.98821779915E-01	3.21966647037E-02	1.64151166994E-01	3.28689806749E-02	1.62064173111E-01	-2.51682996379E-01	8.19332787570E-01
4.08952000000E+08	-5.76045341259E-01	-5.36849457975E-01	2.28435466630E-01	2.03361513077E-01	2.26304135171E-01	2.02884691650E-01	3.81570951922E-01	6.88111445946E-01
4.17451000000E+08	-5.88477305034E-01	-1.10822611032E-01	5.21970895279E-01	-7.67434821190E-02	5.25052266807E-01	-7.49317983287E-02	5.73486338588E-01	5.93056338216E-03
4.25950000000E+08	-2.90071201531E-01	1.21309312391E-01	2.88258005763E-01	-6.59589562740E-01	2.87248235303E-01	-6.64909439119E-01	6.95304083017E-02	-2.22266134768E-01
4.34449000000E+08	-8.55463388618E-02	7.49946936409E-02	-4.01698077871E-01	-6.85556594591E-01	-4.06040843735E-01	-6.84312756268E-01	-3.38834266481E-02	6.17690144130E-03
4.42948000000E+08	-2.47309644790E-02	1.95875685938E-02	-7.98151314551E-01	-1.67349102953E-01	-7.99570760591E-01	-1.63749785383E-01	2.52411618336E-02	2.23836923598E-02
4.51447000000E+08	8.66483820115E-03	1.21795315787E-03	-6.96085974733E-01	4.39146636067E-01	-6.94238518618E-01	4.42495979036E-01	6.06061038627E-03	3.11761250603E-02
4.59946000000E+08	5.04309440149E-02	-2.42459764029E-02	-2.23581440177E-01	7.93282440885E-01	-2.20567141880E-01	7.93887988313E-01	5.17958138364E-02	7.33498668568E-02
4.68445000000E+08	6.69422668321E-02	-8.43555117503E-02	3.44054750676E-01	7.43729081601E-01	3.46342820814E-01	7.43326424336E-01	1.33620266712E-01	1.70178653104E-02
4.76944000000E+08	1.85817436243E-02	-1.41405123881E-01	7.31321454893E-01	3.54030567384E-01	7.34169170729E-01	3.52127039376E-01	1.11757138133E-01	-1.02556175587E-01
4.85443000000E+08	-6.80206959567E-02	-1.33714700014E-01	7.89404267248E-01	-1.78521509193E-01	7.89913003606E-01	-1.82771732866E-01	-5.52299080116E-03	-1.43727292887E-01
4.93942000000E+08	-1.19141084988E-01	-5.96417902804E-02	5.08091642924E-01	-6.31627932237E-01	5.05095926379E-01	-6.35180469950E-01	-9.42037847585E-02	-7.51044303756E-02
5.02441000000E+08	-1.03454991449E-01	1.40759553453E-02	9.74986011700E-04	-8.12907405944E-01	-3.25065416728E-03	-8.12926480062E-01	-9.12722526801E-02	1.79592723287E-02
5.10940000000E+08	-7.03122592698E-02	4.00401372469E-02	-5.11550728992E-01	-6.29929666549E-01	-5.14673079699E-01	-6.27967920543E-01	-3.35512594376E-02	6.56875430546E-02
5.19439000000E+08	-6.81508913753E-02	5.45466661444E-02	-7.89695422748E-01	-1.59665148568E-01	-7.91492416456E-01	-1.56055529656E-01	3.17475254653E-02	6.42987993774E-02
5.27938000000E+08	-6.14167209075E-02	1.03002599134E-01	-7.00328983590E-01	3.79773599813E-01	-6.99182977285E-01	3.84472207226E-01	8.29651235730E-02	2.01403083315E-02
5.36437000000E+08	1.62742636380E-03	1.42827527106E-01	-2.83029580196E-01	7.32886871918E-01	-2.78112088602E-01	7.35669669739E-01	8.58518583257E-02	-5.41096858833E-02
5.44936000000E+08	7.54100233144E-02	1.03076230937E-01	2.66298857893E-01	7.28349152483E-01	2.70942710556E-01	7.26356559551E-01	2.55976625555E-02	-9.85952614654E-02
5.53435000000E+08	6.47159342607E-02	1.97899782978E-02	6.81063461498E-01	3.52709050096E-01	6.82586120401E-01	3.48854449399E-01	-3.18831916087E-02	-6.66735260965E-02
5.61934000000E+08	-1.12558325071E-02	6.95353928640E-03	7.22446779843E-01	-2.21886434996E-01	7.21695317333E-01	-2.25813360182E-01	-1.72991676441E-02	-1.61236477481E-02
5.70433000000E+08	-2.93465983558E-02	5.26929838814E-02	3.25956382875E-01	-6.61852412520E-01	3.22016976042E-01	-6.64396699553E-01	2.29756219247E-02	-1.81847616630E-02
5.78932000000E+08	-1.50446822340E-02	2.52033027114E-02	-2.83608698686E-01	-6.53581404381E-01	-2.88053886831E-01	-6.52396348573E-01	4.47231387561E-02	-2.97910690518E-02
5.87431000000E+08	-1.13866293845E-01	-5.89808235969E-03	-6.56629680777E-01	-1.46312042091E-01	-6.59115860597E-01	-1.40878290661E-01	1.01334210078E-01	-6.24333714938E-02
5.95930000000E+08	-1.55679721877E-01	9.53774596942E-02	-4.11108798381E-01	4.51410273649E-01	-4.06171074976E-01	4.55917693892E-01	1.15654332261E-01	-1.64224106493E-01
6.04429000000E+08	-1.62810270273E-01	-5.37962663091E-02	2.43833734748E-01	4.14212248342E-01	2.49554214677E-01	4.11418036708E-01	1.58365468394E-01	-2.83727452934E-01
6.12928000000E+08	-6.08721193521E-01	1.21328591264E-01	2.23044791002E-01	-5.87371571825E-02	2.20613503849E-01	-6.26938647099E-02	-1.03169498596E-01	-6.37978283741E-01
6.21427000000E+08	-5.62442560318E-01	5.94509486997E-01	3.71847547305E-02	-8.06986921250E-02	3.59048778745E-02	-8.00174356393E-02	-6.25939024758E-01	-4.92633882473E-01
6.29926000000E+08	-3.12452055702E-01	8.27077351569E-01	-6.57019680738E-03	-3.65674336761E-02	-6.47455892631E-03	-3.62030889497E-02	-8.59475591326E-01	-4.17192617145E-02
6.38425000000E+08	-7.35697978439E-02	9.07404174363E-01	-1.04797828670E-02	-1.35422917856E-02	-1.03862106300E-02	-1.35423403921E-02	-7.80847299516E-01	4.35703126176E-01
6.46924000000E+08	1.23258573741E-01	9.13573257849E-01	-7.45911084593E-03	-4.05635773274E-03	-7.44877764757E-03	-4.13169089925E-03	-4.63758452033E-01	7.82992670784E-01
6.55423000000E+08	2.81317594320E-01	8.83236742405E-01	-4.40005323066E-03	-5.73115289968E-04	-4.46189680783E-03	-5.85171189355E-04	-2.80228079930E-02	9.11703845249E-01
6.63922000000E+08	4.07383101118E-01	8.35590068608E-01	-2.43916388878E-03	4.78975220977E-04	-2.42289386731E-03	5.20283239961E-04	3.93626306149E-01	8.14584160655E-01
6.72421000000E+08	5.08905553148E-01	7.79392169011E-01	-1.25100228735E-03	6.64262900932E-04	-1.23808919734E-03	6.95767804482E-04	7.04088266176E-01	5.50550521499E-01
6.80920000000E+08	5.90646461777E-01	7.20012095756E-01	-5.92897790420E-04	5.99137384964E-04	-5.81981224821E-04	5.83519195192E-04	8.60566665379E-01	2.03104376355E-01
6.89419000000E+08	6.56632783369E-01	6.60708894667E-01	-2.62553413022E-04	4.06318080350E-04	-2.45757467710E-04	4.26863599604E-04	8.64972345800E-01	-1.54474398579E-01
6.97918000000E+08	7.10168242898E-01	6.02310003909E-01	-9.56241730500E-05	3.41080971060E-04	-5.81569362763E-05	2.98764640671E-04	7.42231950496E-01	-4.70396144981E-01
7.06417000000E+08	7.54079479516E-01	5.46224234636E-01	-2.18178752204E-05	1.92273260115E-04	-1.56237238559E-05	1.84253734119E-04	5.23079753549E-01	-7.12817829073E-01
7.14916000000E+08	7.90366939318E-01	4.92580529258E-01	2.66233989553E-05	1.20277870749E-04	4.87632333949E-05	1.38801830273E-04	2.39076359512E-01	-8.61353320365E-01
7.23415000000E+08	8.20498945887E-01	4.41598319478E-01	4.15226903021E-05	9.57246957594E-05	2.64192691925E-05	9.92935158747E-05	-7.84006146434E-02	-9.03657380345E-01
7.31914000000E+08	8.45827754808E-01	3.93285276356E-01	3.60379963532E-05	4.95955588605E-05	2.30284846638E-05	6.54588785979E-05	-3.96180628639E-01	-8.31911747335E-01
7.40413000000E+08	8.66707215587E-01	3.47314828790E-01	3.37968702803E-05	4.36429563255E-05	8.54362942645E-06	3.77510379173E-05	-6.75173263428E-01	-6.47714833231E-01
7.48912000000E+08	8.84419293882E-01	3.03362526651E-01	3.04655912140E-05	2.90977971852E-05	1.01892396028E-05	2.54769593395E-05	-8.73436165462E-01	-3.65262901894E-01
7.57411000000E+08	8.99445170426E-01	2.61879817329E-01	2.59588759412E-05	3.42329521232E-05	3.71412514754E-05	2.15207020186E-05	-9.52442286642E-01	-1.86229055480E-02
7.65910000000E+08	9.12102003553E-01	2.22304585116E-01	-1.27438350116E-05	-1.05430605390E-05	6.54366102511E-06	-2.13886679583E-05	-8.89542209166E-01	3.38525895794E-01
7.74409000000E+08	9.22614719876E-01	1.84597286491E-01	2.01186043045E-05	8.60657421836E-06	1.24887807373E-05	-6.65906203824E-06	-6.90598846879E-01	6.43792356437E-01
7.82908000000E+08	9.31636168697E-01	1.48551767605E-01	2.97427854268E-05	-1.07260191800E-05	-4.99207908394E-06	-1.83202354413E-05	-3.91999721286E-01	8.45083116152E-01
7.91407000000E+08	9.39414896175E-01	1.13900345016E-01	-3.47872084126E-06	-5.57768556457E-06	2.68005893115E-06	-6.53919063225E-07	-4.81571145525E-02	9.15548827339E-01
7.99906000000E+08	9.45820624363E-01	8.01753942912E-02	6.93934991450E-06	7.30551237058E-06	5.62346669981E-06	-2.89024618060E-07	2.85087927226E-01	8.56576160362E-01
8.08405000000E+08	9.51180296600E-01	4.74567028640E-02	2.84832758213E-05	8.31247595822E-06	3.21944856060E-06	-1.94043944328E-05	5.64735538380E-01	6.90635154339E-01
8.16904000000E+08	9.55647013042E-01	1.55021843620E-02	-6.34918711768E-06	3.30654068569E-06	3.09036061537E-05	2.29709543911E-06	7.64326621778E-01	4.48799489647E-01
8.25403000000E+08	9.59197995724E-01	-1.57366194876E-02	-2.15876490305E-05	2.92670240882E-06	-4.37062106914E-06	-4.76642876949E-06	8.71204981386E-01	1.63376339717E-01
8.33902000000E+08	9.61536629491E-01	-4.66940611862E-02	1.20822920960E-05	-1.36333063827E-05	6.64037215612E-06	-7.47643994953E-06	8.80848599557E-01	-1.36554804750E-01
8.42401000000E+08	9.63451740362E-01	-7.70761591208E-02	-1.39282757251E-05	-2.04119068799E-05	1.08321560404E-05	-1.49470332250E-06	7.95073064341E-01	-4.23309043004E-01
8.50900000000E+08	9.64412078872E-01	-1.07393734370E-01	-2.23398293692E-06	6.11449692011E-06	1.35128998591E-05	-2.09987790143E-05	6.20207498350E-01	-6.70402762976E-01
8.59399000000E+08	9.64798591110E-01	-1.37350899846E-01	6.12747806885E-06	-1.97457070965E-05	4.65446653911E-05	-1.02889921276E-05	3.68331842396E-01	-8.50528467800E-01
8.67898000000E+08	9.64437414530E-01	-1.67096647872E-01	5.16702105727E-06	-2.33195256402E-05	1.79455138211E-05	-5.02836595330E-06	6.19523221177E-02	-9.37691502275E-01
8.76397000000E+08	9.63186132033E-01	-1.96591454825E-01	-8.13580267024E-07	-3.63140694378E-05	-2.28607159938E-05	-7.40704135098E-07	-2.65089400169E-01	-9.12185504791E-01
8.84896000000E+08	9.60639776611E-01	-2.25908708578E-01	-1.30476751789E-05	3.71727068623E-05	3.45055849085E-05	-3.66670627374E-06	-5.68887808105E-01	-7.67407582951E-01
8.93395000000E+08	9.57114285472E-01	-2.55084430953E-01	2.42753161602E-05	-6.87801945121E-06	8.73226513286E-06	4.08030358070E-06	-8.01784773005E-01	-5.17641969241E-01
9.01894000000E+08	9.52807938335E-01	-2.84033729206E-01	2.74695901572E-05	1.06128674925E-05	-1.25938092480E-05	6.75330619441E-06	-9.26031073047E-01	-1.98956191060E-01
9.10393000000E+08	9.47359981835E-01	-3.13228323751E-01	-2.17643362749E-05	1.95743756978E-05	-8.86498109708E-06	-1.12367094794E-05	-9.24888174854E-01	1.39019173769E-01
9.18892000000E+08	9.40654646116E-01	-3.41972040813E-01	-1.34051224626E-05	3.48821425274E-05	2.96635574738E-05	1.08765147048E-05	-8.05577161235E-01	4.46854956119E-01
9.27391000000E+08	9.32743445534E-01	-3.70834554025E-01	-4.11177965515E-06	1.48806599122E-05	-4.03137371030E-06	8.60544294001E-07	-5.93593486667E-01	6.87059692895E-01
9.35890000000E+08	9.23927015177E-01	-3.99539442226E-01	1.91653364520E-05	1.36758447058E-05	-1.82561551813E-05	-5.77236693849E-06	-3.21808776920E-01	8.37408207128E-01
9.44389000000E+08	9.13941177675E-01	-4.27822028898E-01	-2.33656471236E-05	8.18941895663E-06	-1.28304433044E-05	1.01059074997E-05	-2.41085700025E-02	8.90238649212E-01
9.52888000000E+08	9.02707724216E-01	-4.55976366927E-01	-6.86892974042E-06	1.29482531361E-05	4.35328081165E-06	2.68140347627E-05	2.69738246752E-01	8.47013404995E-01
9.61387000000E+08	8.90146250592E-01	-4.84043827074E-01	7.86275892934E-06	-4.86548016737E-06	8.48228169534E-06	-9.50731104724E-06	5.33975295392E-01	7.15015400854E-01
9.69886000000E+08	8.76231158280E-01	-5.11154255425E-01	-7.94649589447E-06	-4.26971283740E-06	-8.18914951927E-06	2.91686106134E-07	7.44821142279E-01	5.05306573919E-01
9.78385000000E+08	8.61147837575E-01	-5.37560793402E-01	8.39710128670E-06	-3.95278477650E-06	3.41184278787E-06	2.01209578609E-05	8.80707089565E-01	2.34344244151E-01
9.86884000000E+08	8.45241497970E-01	-5.63403752100E-01	1.95325238869E-05	-5.25881138824E-06	2.57515492929E-05	-1.17581744030E-05	9.21138202762E-01	-7.46936826247E-02
9.95383000000E+08	8.28195667341E-01	-5.88239066382E-01	-1.65114232303E-06	-9.65207496826E-06	1.12486304693E-05	4.16430948801E-06	8.52110402643E-01	-3.88508974957E-01
