# Hz S RI R 50
! CMT, S5085, 16077402, 21.3.2/1
! Date: 11/17/2021 5:12:46 PM
! Data: Format (Calibration Info)
! Freq	S11:Re/Im(--)
1.00000000000E+06	1.69487117432E-03	2.63800016675E-03
9.49900000000E+06	-1.30614794495E-03	-2.19331289281E-03
1.79980000000E+07	-2.15008654915E-03	-2.51695280929E-03
2.64970000000E+07	-2.51782548649E-03	-2.68837439424E-03
3.49960000000E+07	-2.70587785356E-03	-2.94818679008E-03
4.34950000000E+07	-2.80406833533E-03	-3.21752191152E-03
5.19940000000E+07	-2.81667789489E-03	-3.42025220358E-03
6.04930000000E+07	-2.77200170829E-03	-3.66426435658E-03
6.89920000000E+07	-2.77764333982E-03	-3.87767205985E-03
7.74910000000E+07	-2.66578171126E-03	-4.08490945678E-03
8.59900000000E+07	-2.60948329800E-03	-4.29137738721E-03
9.44890000000E+07	-2.45612666296E-03	-4.44734383585E-03
1.02988000000E+08	-2.35542097876E-03	-4.60503653311E-03
1.11487000000E+08	-2.21279692205E-03	-4.77326437171E-03
1.19986000000E+08	-2.01462571851E-03	-4.90696987158E-03
1.28485000000E+08	-1.87825752597E-03	-4.97922936147E-03
1.36984000000E+08	-1.73176804249E-03	-5.04965927799E-03
1.45483000000E+08	-1.58790889866E-03	-5.13420338733E-03
1.53982000000E+08	-1.45831544861E-03	-5.13031536850E-03
1.62481000000E+08	-1.37941574835E-03	-5.15307636433E-03
1.70980000000E+08	-1.28132124127E-03	-5.15070055821E-03
1.79479000000E+08	-1.21726908714E-03	-5.08052952919E-03
1.87978000000E+08	-1.12259902180E-03	-5.07210433913E-03
1.96477000000E+08	-1.12256185091E-03	-4.96232751197E-03
2.04976000000E+08	-1.10809306325E-03	-4.85575027862E-03
2.13475000000E+08	-1.10309632201E-03	-4.73749756954E-03
2.21974000000E+08	-1.10548380846E-03	-4.56857070921E-03
2.30473000000E+08	-1.10331781397E-03	-4.47979974272E-03
2.38972000000E+08	-1.15346677675E-03	-4.36471255736E-03
2.47471000000E+08	-1.22230648428E-03	-4.25895121528E-03
2.55970000000E+08	-1.32444793107E-03	-4.20274331563E-03
2.64469000000E+08	-1.45775754387E-03	-4.09597234927E-03
2.72968000000E+08	-1.57998170215E-03	-4.04698280820E-03
2.81467000000E+08	-1.78908051992E-03	-3.98275502637E-03
2.89966000000E+08	-2.00416974956E-03	-3.93040827610E-03
2.98465000000E+08	-2.26644298161E-03	-3.92034953266E-03
3.06964000000E+08	-2.52751971502E-03	-3.91233495873E-03
3.15463000000E+08	-2.79360951821E-03	-3.93843698516E-03
3.23962000000E+08	-3.09176255192E-03	-3.94352040357E-03
3.32461000000E+08	-3.43495656312E-03	-4.03392350133E-03
3.40960000000E+08	-3.72823084055E-03	-4.13180156776E-03
3.49459000000E+08	-4.06623465170E-03	-4.25148155365E-03
3.57958000000E+08	-4.42215998706E-03	-4.41874761627E-03
3.66457000000E+08	-4.71812240806E-03	-4.57728446998E-03
3.74956000000E+08	-5.06499463633E-03	-4.82412716535E-03
3.83455000000E+08	-5.38147489231E-03	-5.06803060436E-03
3.91954000000E+08	-5.68694825676E-03	-5.37165281464E-03
4.00453000000E+08	-5.97087138695E-03	-5.73309014052E-03
4.08952000000E+08	-6.23527899554E-03	-6.10497051353E-03
4.17451000000E+08	-6.48494834591E-03	-6.53952128379E-03
4.25950000000E+08	-6.70500511268E-03	-7.00554610896E-03
4.34449000000E+08	-6.88366091802E-03	-7.48853173178E-03
4.42948000000E+08	-7.01129603843E-03	-8.04235915675E-03
4.51447000000E+08	-7.08794319510E-03	-8.64377256850E-03
4.59946000000E+08	-7.10253991941E-03	-9.33822987565E-03
4.68445000000E+08	-7.19339828815E-03	-1.01279316609E-02
4.76944000000E+08	-7.34147336705E-03	-1.09604678665E-02
4.85443000000E+08	-7.57055105419E-03	-1.16476898322E-02
4.93942000000E+08	-7.65300607646E-03	-1.21842789008E-02
5.02441000000E+08	-7.64488962656E-03	-1.27494960151E-02
5.10940000000E+08	-7.47054238095E-03	-1.32782402064E-02
5.19439000000E+08	-7.24379411855E-03	-1.38943805854E-02
5.27938000000E+08	-6.95826057272E-03	-1.44655723132E-02
5.36437000000E+08	-6.58738847519E-03	-1.50804747890E-02
5.44936000000E+08	-6.20782756504E-03	-1.57035166766E-02
5.53435000000E+08	-5.73855865806E-03	-1.62605210550E-02
5.61934000000E+08	-5.23962704985E-03	-1.68121718609E-02
5.70433000000E+08	-4.69739299206E-03	-1.73577000284E-02
5.78932000000E+08	-4.04386810559E-03	-1.78868422106E-02
5.87431000000E+08	-3.42379441391E-03	-1.83438833203E-02
5.95930000000E+08	-2.70797888326E-03	-1.88103176841E-02
6.04429000000E+08	-1.93959660529E-03	-1.92278874711E-02
6.12928000000E+08	-1.16766028522E-03	-1.95689524761E-02
6.21427000000E+08	-3.35919653120E-04	-1.98723129564E-02
6.29926000000E+08	4.83600676558E-04	-2.00988497036E-02
6.38425000000E+08	1.40616562077E-03	-2.02925591048E-02
6.46924000000E+08	2.31237430144E-03	-2.03533992886E-02
6.55423000000E+08	3.21734074342E-03	-2.03909110434E-02
6.63922000000E+08	4.11938605351E-03	-2.03609909815E-02
6.72421000000E+08	5.00936617691E-03	-2.02343686940E-02
6.80920000000E+08	5.93302064576E-03	-2.00975235507E-02
6.89419000000E+08	6.80883977927E-03	-1.98474729246E-02
6.97918000000E+08	7.72379770870E-03	-1.95849958079E-02
7.06417000000E+08	8.60488241042E-03	-1.92036651085E-02
7.14916000000E+08	9.43802105783E-03	-1.88031717727E-02
7.23415000000E+08	1.02527886527E-02	-1.83534346759E-02
7.31914000000E+08	1.10667135501E-02	-1.77730445067E-02
7.40413000000E+08	1.18047613869E-02	-1.71619562809E-02
7.48912000000E+08	1.25023774515E-02	-1.64742596986E-02
7.57411000000E+08	1.31648033675E-02	-1.57526063604E-02
7.65910000000E+08	1.37317394175E-02	-1.49697992524E-02
7.74409000000E+08	1.42944725744E-02	-1.41822527623E-02
7.82908000000E+08	1.47378348124E-02	-1.33035290397E-02
7.91407000000E+08	1.51276032062E-02	-1.23655976986E-02
7.99906000000E+08	1.54548036799E-02	-1.14310381735E-02
8.08405000000E+08	1.56879140655E-02	-1.04499875245E-02
8.16904000000E+08	1.58300241724E-02	-9.44475895244E-03
8.25403000000E+08	1.58931085709E-02	-8.43656491022E-03
8.33902000000E+08	1.58730155444E-02	-7.44413544985E-03
8.42401000000E+08	1.57701897346E-02	-6.43489375924E-03
8.50900000000E+08	1.55865207629E-02	-5.47570492636E-03
8.59399000000E+08	1.53390039392E-02	-4.50172044696E-03
8.67898000000E+08	1.49850546323E-02	-3.58107868022E-03
8.76397000000E+08	1.45342621746E-02	-2.65557225295E-03
8.84896000000E+08	1.40927528527E-02	-1.73801716452E-03
8.93395000000E+08	1.35243102124E-02	-9.10544344084E-04
9.01894000000E+08	1.28848885028E-02	-1.61434647883E-04
9.10393000000E+08	1.22011308899E-02	6.13501284735E-04
9.18892000000E+08	1.14378998026E-02	1.27190297051E-03
9.27391000000E+08	1.06496091357E-02	1.90211571765E-03
9.35890000000E+08	9.77500486640E-03	2.45932421486E-03
9.44389000000E+08	8.91259198351E-03	2.89529765446E-03
9.52888000000E+08	7.97742215344E-03	3.24668880889E-03
9.61387000000E+08	7.02609552974E-03	3.58615653866E-03
9.69886000000E+08	6.01188413378E-03	3.79229964032E-03
9.78385000000E+08	4.97621458591E-03	3.91722552986E-03
9.86884000000E+08	3.97937370836E-03	3.97890362767E-03
9.95383000000E+08	2.95148069339E-03	3.94638466030E-03
1.00388200000E+09	1.93163259433E-03	3.83052837612E-03
1.01238100000E+09	9.19544098812E-04	3.62034914673E-03
1.02088000000E+09	-6.41800342729E-05	3.31313577814E-03
1.02937900000E+09	-1.03331639354E-03	2.88041557716E-03
1.03787800000E+09	-1.91860050445E-03	2.39682659732E-03
1.04637700000E+09	-2.80652013454E-03	1.80202777033E-03
1.05487600000E+09	-3.66900349190E-03	1.15559403183E-03
1.06337500000E+09	-4.40131233380E-03	4.70135812997E-04
1.07187400000E+09	-5.13661890969E-03	-3.40553757288E-04
1.08037300000E+09	-5.77140772519E-03	-1.19306986309E-03
1.08887200000E+09	-6.35357412836E-03	-2.12228876601E-03
1.09737100000E+09	-6.83432921065E-03	-3.06653146668E-03
1.10587000000E+09	-7.24556817505E-03	-4.13213368047E-03
1.11436900000E+09	-7.56788860752E-03	-5.18458789631E-03
1.12286800000E+09	-7.82461865517E-03	-6.25779256923E-03
1.13136700000E+09	-7.95517783255E-03	-7.37074174069E-03
1.13986600000E+09	-7.98206436771E-03	-8.49599326680E-03
1.14836500000E+09	-7.93908382193E-03	-9.62963269398E-03
1.15686400000E+09	-7.76134857636E-03	-1.07723132709E-02
1.16536300000E+09	-7.50464152331E-03	-1.18896478911E-02
1.17386200000E+09	-7.11829116558E-03	-1.29779397269E-02
1.18236100000E+09	-6.70021558582E-03	-1.40603166170E-02
1.19086000000E+09	-6.17769753404E-03	-1.50971734863E-02
1.19935900000E+09	-5.52568044049E-03	-1.61040446992E-02
1.20785800000E+09	-4.83876001300E-03	-1.70528668814E-02
1.21635700000E+09	-4.04542860528E-03	-1.79680207127E-02
1.22485600000E+09	-3.17148069477E-03	-1.87735880328E-02
1.23335500000E+09	-2.20897626510E-03	-1.95363587093E-02
1.24185400000E+09	-1.19701565300E-03	-2.02144468057E-02
1.25035300000E+09	-1.49797407139E-04	-2.07795562750E-02
1.25885200000E+09	9.49789643606E-04	-2.13149280496E-02
1.26735100000E+09	2.08473456412E-03	-2.17040115491E-02
1.27585000000E+09	3.24966437603E-03	-2.20054023503E-02
1.28434900000E+09	4.41722483470E-03	-2.22430511998E-02
1.29284800000E+09	5.62601907968E-03	-2.23756668241E-02
1.30134700000E+09	6.85148036106E-03	-2.24004395072E-02
1.30984600000E+09	8.03709900789E-03	-2.23455873852E-02
1.31834500000E+09	9.26180700774E-03	-2.21802595786E-02
1.32684400000E+09	1.04325343385E-02	-2.19038835882E-02
1.33534300000E+09	1.16199045084E-02	-2.15379166160E-02
1.34384200000E+09	1.27575383947E-02	-2.11187102081E-02
1.35234100000E+09	1.38570339393E-02	-2.05700858021E-02
1.36084000000E+09	1.48742727715E-02	-1.99495883382E-02
1.36933900000E+09	1.58623263074E-02	-1.92299256572E-02
1.37783800000E+09	1.67890534971E-02	-1.85114734260E-02
1.38633700000E+09	1.76140400197E-02	-1.76886392379E-02
1.39483600000E+09	1.84479697487E-02	-1.67849495442E-02
1.40333500000E+09	1.91449993257E-02	-1.57985007122E-02
1.41183400000E+09	1.98282139000E-02	-1.48380177519E-02
1.42033300000E+09	2.03486571312E-02	-1.37991794004E-02
1.42883200000E+09	2.07988107633E-02	-1.27407832352E-02
1.43733100000E+09	2.11245533187E-02	-1.16483262447E-02
1.44583000000E+09	2.14256667883E-02	-1.05367150532E-02
1.45432900000E+09	2.15659455818E-02	-9.48112179496E-03
1.46282800000E+09	2.16167436585E-02	-8.38640328685E-03
1.47132700000E+09	2.15425562378E-02	-7.28432992115E-03
1.47982600000E+09	2.14378704758E-02	-6.20557797818E-03
1.48832500000E+09	2.11927505595E-02	-5.17014250803E-03
1.49682400000E+09	2.08682566344E-02	-4.15592078464E-03
1.50532300000E+09	2.04751845389E-02	-3.20949755307E-03
1.51382200000E+09	1.99985144317E-02	-2.31467575061E-03
1.52232100000E+09	1.94937848111E-02	-1.41273644570E-03
1.53082000000E+09	1.89018499330E-02	-6.50406890590E-04
1.53931900000E+09	1.82177106768E-02	5.77111432808E-05
1.54781800000E+09	1.75271960530E-02	6.96240972525E-04
1.55631700000E+09	1.67866149916E-02	1.25988400455E-03
1.56481600000E+09	1.60218671960E-02	1.71709361775E-03
1.57331500000E+09	1.52182794111E-02	2.09331887922E-03
1.58181400000E+09	1.43862697019E-02	2.41442920838E-03
1.59031300000E+09	1.35479496170E-02	2.64454146250E-03
1.59881200000E+09	1.27145330616E-02	2.74915841087E-03
1.60731100000E+09	1.18537912358E-02	2.79877045789E-03
1.61581000000E+09	1.10262040374E-02	2.77435301017E-03
1.62430900000E+09	1.01478736088E-02	2.67437953493E-03
1.63280800000E+09	9.32507253523E-03	2.46131432603E-03
1.64130700000E+09	8.51965500455E-03	2.17359324555E-03
1.64980600000E+09	7.74976236052E-03	1.79567136626E-03
1.65830500000E+09	7.03962378657E-03	1.32529828556E-03
1.66680400000E+09	6.40964818752E-03	7.84207396756E-04
1.67530300000E+09	5.81259591535E-03	1.96217551565E-04
1.68380200000E+09	5.33746235003E-03	-4.90483753070E-04
1.69230100000E+09	4.88193723150E-03	-1.19628149676E-03
1.70080000000E+09	4.54844367915E-03	-1.95908444847E-03
1.70929900000E+09	4.36060289223E-03	-2.78920592990E-03
1.71779800000E+09	4.15564867522E-03	-3.64032597118E-03
1.72629700000E+09	4.09796861010E-03	-4.47474949273E-03
1.73479600000E+09	4.14777351852E-03	-5.36556279154E-03
1.74329500000E+09	4.28213067952E-03	-6.21106756229E-03
1.75179400000E+09	4.47723637778E-03	-7.09477507332E-03
1.76029300000E+09	4.79245723829E-03	-7.94975827895E-03
1.76879200000E+09	5.17931253599E-03	-8.82812568076E-03
1.77729100000E+09	5.69430555315E-03	-9.65192989910E-03
1.78579000000E+09	6.27190361815E-03	-1.04719471232E-02
1.79428900000E+09	6.96497093395E-03	-1.12211273410E-02
1.80278800000E+09	7.69898528279E-03	-1.19481253231E-02
1.81128700000E+09	8.56033970426E-03	-1.25921122502E-02
1.81978600000E+09	9.50100612365E-03	-1.31220645235E-02
1.82828500000E+09	1.05172311490E-02	-1.36117688542E-02
1.83678400000E+09	1.15827668048E-02	-1.39684040264E-02
1.84528300000E+09	1.27377900812E-02	-1.42178723828E-02
1.85378200000E+09	1.38835535888E-02	-1.43185842743E-02
1.86228100000E+09	1.50834380745E-02	-1.43615242933E-02
1.87078000000E+09	1.62692399819E-02	-1.42626793983E-02
1.87927900000E+09	1.75241893686E-02	-1.40598125886E-02
1.88777800000E+09	1.87174257340E-02	-1.37165597919E-02
1.89627700000E+09	1.99172083561E-02	-1.33337193078E-02
1.90477600000E+09	2.10859826788E-02	-1.27710832071E-02
1.91327500000E+09	2.22198753590E-02	-1.21191525618E-02
1.92177400000E+09	2.33509653601E-02	-1.13769638144E-02
1.93027300000E+09	2.43869728168E-02	-1.05194676127E-02
1.93877200000E+09	2.53886072107E-02	-9.58328601765E-03
1.94727100000E+09	2.62940694824E-02	-8.57431821537E-03
1.95577000000E+09	2.71530483320E-02	-7.46938285511E-03
1.96426900000E+09	2.79433669674E-02	-6.25133627807E-03
1.97276800000E+09	2.86234171917E-02	-4.96390529057E-03
1.98126700000E+09	2.92125684211E-02	-3.60199789622E-03
1.98976600000E+09	2.96306031465E-02	-2.19215755279E-03
1.99826500000E+09	2.99828986085E-02	-7.13868113046E-04
2.00676400000E+09	3.02062447256E-02	7.86351369984E-04
2.01526300000E+09	3.02776586817E-02	2.26923301156E-03
2.02376200000E+09	3.02164052891E-02	3.83384276955E-03
2.03226100000E+09	3.00373068754E-02	5.36105265818E-03
2.04076000000E+09	2.97131138286E-02	6.91671409314E-03
2.04925900000E+09	2.92545305049E-02	8.39156152173E-03
2.05775800000E+09	2.87112264652E-02	9.88596798301E-03
2.06625700000E+09	2.79888913072E-02	1.13265710328E-02
2.07475600000E+09	2.71721515242E-02	1.27059126714E-02
2.08325500000E+09	2.62436110122E-02	1.39974796195E-02
2.09175400000E+09	2.51804765021E-02	1.52393557091E-02
2.10025300000E+09	2.40506508294E-02	1.63853163438E-02
2.10875200000E+09	2.27663720983E-02	1.74791822243E-02
2.11725100000E+09	2.14162134458E-02	1.84445919444E-02
2.12575000000E+09	1.99756098221E-02	1.92573499396E-02
2.13424900000E+09	1.84568120196E-02	1.99600897769E-02
2.14274800000E+09	1.68860833274E-02	2.05489452810E-02
2.15124700000E+09	1.52692528298E-02	2.09959644192E-02
2.15974600000E+09	1.35726566919E-02	2.12978149620E-02
2.16824500000E+09	1.18366422138E-02	2.14549995868E-02
2.17674400000E+09	1.00945374530E-02	2.14644664922E-02
2.18524300000E+09	8.32522919343E-03	2.12829472669E-02
2.19374200000E+09	6.57392966141E-03	2.09771968989E-02
2.20224100000E+09	4.86658914577E-03	2.05680044245E-02
2.21074000000E+09	3.17399889575E-03	1.99437597503E-02
2.21923900000E+09	1.56784195018E-03	1.91928196303E-02
2.22773800000E+09	-2.82601458037E-05	1.82636276522E-02
2.23623700000E+09	-1.53096283722E-03	1.71925432743E-02
2.24473600000E+09	-2.94276285968E-03	1.59910479066E-02
2.25323500000E+09	-4.24073870193E-03	1.46947600817E-02
2.26173400000E+09	-5.42816047191E-03	1.32347273974E-02
2.27023300000E+09	-6.56002849100E-03	1.17174607274E-02
2.27873200000E+09	-7.50853937853E-03	1.00431730826E-02
2.28723100000E+09	-8.30775600566E-03	8.30586792945E-03
2.29573000000E+09	-8.96061612032E-03	6.47018222093E-03
2.30422900000E+09	-9.44829067528E-03	4.53396616433E-03
2.31272800000E+09	-9.77649916611E-03	2.54917504051E-03
2.32122700000E+09	-9.89924914871E-03	5.33767591854E-04
2.32972600000E+09	-9.89353661320E-03	-1.47212368297E-03
2.33822500000E+09	-9.72385358950E-03	-3.53665499553E-03
2.34672400000E+09	-9.40296216563E-03	-5.60725444979E-03
2.35522300000E+09	-8.86486125021E-03	-7.66761398190E-03
2.36372200000E+09	-8.16286687470E-03	-9.66554262093E-03
2.37222100000E+09	-7.29972965588E-03	-1.16306245875E-02
2.38072000000E+09	-6.18741980721E-03	-1.35512640295E-02
2.38921900000E+09	-4.97871508316E-03	-1.54055341853E-02
2.39771800000E+09	-3.52415809745E-03	-1.71866806491E-02
2.40621700000E+09	-1.95238762179E-03	-1.87861747005E-02
2.41471600000E+09	-2.38297219524E-04	-2.03275025444E-02
2.42321500000E+09	1.63466937337E-03	-2.17332058738E-02
2.43171400000E+09	3.62584215502E-03	-2.30332974860E-02
2.44021300000E+09	5.70175398974E-03	-2.41363566398E-02
2.44871200000E+09	7.92923150848E-03	-2.51149384979E-02
2.45721100000E+09	1.02556530061E-02	-2.59150390675E-02
2.46571000000E+09	1.26394938662E-02	-2.65511689779E-02
2.47420900000E+09	1.51187031411E-02	-2.69549554579E-02
2.48270800000E+09	1.76163159258E-02	-2.71634990674E-02
2.49120700000E+09	2.01425783914E-02	-2.71597035729E-02
2.49970600000E+09	2.26972017494E-02	-2.69828020779E-02
2.50820500000E+09	2.52500640528E-02	-2.65777107804E-02
2.51670400000E+09	2.77879046545E-02	-2.59810095611E-02
2.52520300000E+09	3.02704340266E-02	-2.52404747548E-02
2.53370200000E+09	3.27158996240E-02	-2.42444599313E-02
2.54220100000E+09	3.50960889746E-02	-2.31069555141E-02
2.55070000000E+09	3.74020408094E-02	-2.17818843671E-02
2.55919900000E+09	3.95817860660E-02	-2.02782450586E-02
2.56769800000E+09	4.16813092523E-02	-1.85662815575E-02
2.57619700000E+09	4.36718112475E-02	-1.67080267520E-02
2.58469600000E+09	4.55344870655E-02	-1.47071449343E-02
2.59319500000E+09	4.72599016511E-02	-1.25241978812E-02
2.60169400000E+09	4.88164181416E-02	-1.02518770426E-02
2.61019300000E+09	5.02685635598E-02	-7.78633499679E-03
2.61869200000E+09	5.14866654070E-02	-5.22261680037E-03
2.62719100000E+09	5.25668523246E-02	-2.57436336441E-03
2.63569000000E+09	5.34265401044E-02	1.42156666212E-04
2.64418900000E+09	5.40535970635E-02	2.94203658736E-03
2.65268800000E+09	5.44753266852E-02	5.80812069190E-03
2.66118700000E+09	5.46774945469E-02	8.68657702332E-03
2.66968600000E+09	5.46773691407E-02	1.15924375318E-02
2.67818500000E+09	5.44399544224E-02	1.45188888530E-02
2.68668400000E+09	5.39869544294E-02	1.74366354173E-02
2.69518300000E+09	5.33277451237E-02	2.03453853347E-02
2.70368200000E+09	5.24246316406E-02	2.31589801279E-02
2.71218100000E+09	5.13208365377E-02	2.59022639094E-02
2.72068000000E+09	5.00092018298E-02	2.85527692118E-02
2.72917900000E+09	4.84675371169E-02	3.10869776025E-02
2.73767800000E+09	4.67546885883E-02	3.35345950906E-02
2.74617700000E+09	4.48829502302E-02	3.58127489300E-02
2.75467600000E+09	4.28295359447E-02	3.79225531069E-02
2.76317500000E+09	4.06541801009E-02	3.99670422468E-02
2.77167400000E+09	3.82938701404E-02	4.17647086057E-02
2.78017300000E+09	3.57665551255E-02	4.34228613299E-02
2.78867200000E+09	3.31594902745E-02	4.48916172737E-02
2.79717100000E+09	3.04156143201E-02	4.61637664724E-02
2.80567000000E+09	2.76138878842E-02	4.72345116178E-02
2.81416900000E+09	2.47090024021E-02	4.80452356711E-02
2.82266800000E+09	2.18506407789E-02	4.86876094778E-02
2.83116700000E+09	1.88831973999E-02	4.90948187527E-02
2.83966600000E+09	1.59436603975E-02	4.92469806971E-02
2.84816500000E+09	1.29921405225E-02	4.91379169275E-02
2.85666400000E+09	1.00834129323E-02	4.88050757032E-02
2.86516300000E+09	7.19775778468E-03	4.83046297781E-02
2.87366200000E+09	4.36109708030E-03	4.75794126540E-02
2.88216100000E+09	1.60149382877E-03	4.66004302636E-02
2.89066000000E+09	-1.08514665916E-03	4.54308865392E-02
2.89915900000E+09	-3.65142733029E-03	4.40358192063E-02
2.90765800000E+09	-6.14174792886E-03	4.24537587077E-02
2.91615700000E+09	-8.46657993847E-03	4.06582650564E-02
2.92465600000E+09	-1.06871586948E-02	3.86735569050E-02
2.93315500000E+09	-1.27284481481E-02	3.65355041384E-02
2.94165400000E+09	-1.45309979740E-02	3.42658871510E-02
2.95015300000E+09	-1.61521233482E-02	3.18312895163E-02
2.95865200000E+09	-1.75569530702E-02	2.92972160323E-02
2.96715100000E+09	-1.87425672394E-02	2.65968466757E-02
2.97565000000E+09	-1.97011350061E-02	2.38681864169E-02
2.98414900000E+09	-2.04456167537E-02	2.10073462618E-02
2.99264800000E+09	-2.09129878744E-02	1.81123932207E-02
3.00114700000E+09	-2.11244093224E-02	1.52333792114E-02
