# Hz S RI R 50
! CMT, S5085, 16077402, 21.3.2/1
! Date: 11/17/2021 5:16:04 PM
! Data: Format (Calibration Info)
! Freq	S22:Re/Im(--)
1.00000000000E+06	-1.02858153971E+00	1.07886102147E-01
9.49900000000E+06	-9.33529480261E-01	4.15248242550E-01
1.79980000000E+07	-7.45353643977E-01	6.99366703444E-01
2.64970000000E+07	-4.62282757910E-01	8.97608004892E-01
3.49960000000E+07	-1.41190709196E-01	9.83523089655E-01
4.34950000000E+07	1.76551837749E-01	9.61040435159E-01
5.19940000000E+07	4.60261793767E-01	8.45289229670E-01
6.04930000000E+07	6.90085751358E-01	6.56526348017E-01
6.89920000000E+07	8.53150664237E-01	4.14183191457E-01
7.74910000000E+07	9.40307556436E-01	1.36905806578E-01
8.59900000000E+07	9.44376752381E-01	-1.56818843956E-01
9.44890000000E+07	8.60962577308E-01	-4.44357358403E-01
1.02988000000E+08	6.88992586475E-01	-6.99629795060E-01
1.11487000000E+08	4.38582836629E-01	-8.95176630516E-01
1.19986000000E+08	1.28869397572E-01	-1.00082215002E+00
1.28485000000E+08	-2.06005041589E-01	-9.96199634829E-01
1.36984000000E+08	-5.22460413639E-01	-8.75772017338E-01
1.45483000000E+08	-7.77259348655E-01	-6.51821039979E-01
1.53982000000E+08	-9.38542247448E-01	-3.58668475186E-01
1.62481000000E+08	-9.90890797928E-01	-3.52697132247E-02
1.70980000000E+08	-9.37069922264E-01	2.79514932188E-01
1.79479000000E+08	-7.90063092520E-01	5.52719289772E-01
1.87978000000E+08	-5.72202218341E-01	7.62987449276E-01
1.96477000000E+08	-3.06486740078E-01	8.96609314278E-01
2.04976000000E+08	-1.57975260297E-02	9.45880921838E-01
2.13475000000E+08	2.76874954839E-01	9.07579223822E-01
2.21974000000E+08	5.47666476805E-01	7.83339164798E-01
2.30473000000E+08	7.72244031921E-01	5.80202936438E-01
2.38972000000E+08	9.26482410283E-01	3.11202982482E-01
2.47471000000E+08	9.88529047273E-01	1.38303839952E-04
2.55970000000E+08	9.44212566271E-01	-3.20599397291E-01
2.64469000000E+08	7.93704341034E-01	-6.11872030058E-01
2.72968000000E+08	5.52616839830E-01	-8.36953263506E-01
2.81467000000E+08	2.50948376175E-01	-9.66473813625E-01
2.89966000000E+08	-7.22454980164E-02	-9.87826002364E-01
2.98465000000E+08	-3.78561473538E-01	-9.03935906544E-01
3.06964000000E+08	-6.36206672296E-01	-7.30640048914E-01
3.15463000000E+08	-8.22978186252E-01	-4.91130310599E-01
3.23962000000E+08	-9.26620620643E-01	-2.11769082400E-01
3.32461000000E+08	-9.42306217026E-01	8.20542454165E-02
3.40960000000E+08	-8.71177409745E-01	3.66530157638E-01
3.49459000000E+08	-7.18718275232E-01	6.18617054937E-01
3.57958000000E+08	-4.94581921827E-01	8.16201957068E-01
3.66457000000E+08	-2.15888695757E-01	9.38586705774E-01
3.74956000000E+08	9.38397465724E-02	9.68495048385E-01
3.83455000000E+08	4.04700178212E-01	8.94709147015E-01
3.91954000000E+08	6.79605537245E-01	7.18459871347E-01
4.00453000000E+08	8.82313134171E-01	4.55570334765E-01
4.08952000000E+08	9.83154010033E-01	1.37541074717E-01
4.17451000000E+08	9.69249951104E-01	-1.93684491193E-01
4.25950000000E+08	8.45666939529E-01	-4.95717659822E-01
4.34449000000E+08	6.34868697951E-01	-7.33950617004E-01
4.42948000000E+08	3.66498315889E-01	-8.87353644094E-01
4.51447000000E+08	7.24003334662E-02	-9.47979531345E-01
4.59946000000E+08	-2.18534529242E-01	-9.18145080216E-01
4.68445000000E+08	-4.83428390715E-01	-8.06725575591E-01
4.76944000000E+08	-7.02835108604E-01	-6.25034917398E-01
4.85443000000E+08	-8.60764354424E-01	-3.87496440528E-01
4.93942000000E+08	-9.43837069413E-01	-1.11628971898E-01
5.02441000000E+08	-9.41765855699E-01	1.81828695087E-01
5.10940000000E+08	-8.48101304404E-01	4.68879535445E-01
5.19439000000E+08	-6.62608205701E-01	7.20455312590E-01
5.27938000000E+08	-3.96619777701E-01	9.03621728995E-01
5.36437000000E+08	-7.55667092037E-02	9.88581595302E-01
5.44936000000E+08	2.61317286776E-01	9.56653679777E-01
5.53435000000E+08	5.66732663038E-01	8.08013022145E-01
5.61934000000E+08	7.99051209738E-01	5.63471518576E-01
5.70433000000E+08	9.29907163666E-01	2.60409415537E-01
5.78932000000E+08	9.51409272687E-01	-5.87022148488E-02
5.87431000000E+08	8.72011900638E-01	-3.57086002829E-01
5.95930000000E+08	7.10338903736E-01	-6.06651608806E-01
6.04429000000E+08	4.88196241931E-01	-7.91262709856E-01
6.12928000000E+08	2.28807615217E-01	-9.00184380973E-01
6.21427000000E+08	-4.75333914910E-02	-9.30903302414E-01
6.29926000000E+08	-3.21775494936E-01	-8.82495216512E-01
6.38425000000E+08	-5.73914819680E-01	-7.56176298777E-01
6.46924000000E+08	-7.83451469999E-01	-5.56487104686E-01
6.55423000000E+08	-9.27563078429E-01	-2.94359537876E-01
6.63922000000E+08	-9.83352230768E-01	1.01235409654E-02
6.72421000000E+08	-9.34792753476E-01	3.27582498198E-01
6.80920000000E+08	-7.77079616133E-01	6.18629317323E-01
6.89419000000E+08	-5.22815230014E-01	8.40590708800E-01
6.97918000000E+08	-2.05298951713E-01	9.59800765283E-01
7.06417000000E+08	1.30636787508E-01	9.60333775656E-01
7.14916000000E+08	4.38974298705E-01	8.48006319630E-01
7.23415000000E+08	6.84055981699E-01	6.46046889949E-01
7.31914000000E+08	8.45591337341E-01	3.86114003026E-01
7.40413000000E+08	9.16935547987E-01	9.96327363406E-02
7.48912000000E+08	9.00518926705E-01	-1.86562345227E-01
7.57411000000E+08	8.04036928872E-01	-4.50549817894E-01
7.65910000000E+08	6.37366653451E-01	-6.74181871887E-01
7.74409000000E+08	4.12523424934E-01	-8.41924623885E-01
7.82908000000E+08	1.44532710310E-01	-9.38917543441E-01
7.91407000000E+08	-1.48299284927E-01	-9.51663488243E-01
7.99906000000E+08	-4.40398626709E-01	-8.70668033726E-01
8.08405000000E+08	-6.99503424224E-01	-6.94143180570E-01
8.16904000000E+08	-8.90801434696E-01	-4.33760697924E-01
8.25403000000E+08	-9.83346383206E-01	-1.16981286423E-01
8.33902000000E+08	-9.60298876258E-01	2.15349777648E-01
8.42401000000E+08	-8.23430355593E-01	5.17637585510E-01
8.50900000000E+08	-5.95866287658E-01	7.50487136063E-01
8.59399000000E+08	-3.11203904259E-01	8.90471100979E-01
8.67898000000E+08	-6.70633110340E-03	9.29820038356E-01
8.76397000000E+08	2.85865907183E-01	8.74780612720E-01
8.84896000000E+08	5.41747432028E-01	7.38273564031E-01
8.93395000000E+08	7.42743558305E-01	5.35834372947E-01
9.01894000000E+08	8.75737283021E-01	2.85062969507E-01
9.10393000000E+08	9.29803125720E-01	4.99576832427E-03
9.18892000000E+08	8.97848728494E-01	-2.83767182931E-01
9.27391000000E+08	7.76440858290E-01	-5.55872861120E-01
9.35890000000E+08	5.69458176819E-01	-7.82219240166E-01
9.44389000000E+08	2.92151782516E-01	-9.32884503123E-01
9.52888000000E+08	-2.65066289866E-02	-9.82333687341E-01
9.61387000000E+08	-3.46765122676E-01	-9.19119304274E-01
9.69886000000E+08	-6.25620712144E-01	-7.49549057562E-01
9.78385000000E+08	-8.27406527766E-01	-4.98248367086E-01
9.86884000000E+08	-9.31243504784E-01	-2.01172578776E-01
9.95383000000E+08	-9.33682415464E-01	1.04203852986E-01
1.00388200000E+09	-8.43978163076E-01	3.85983174093E-01
1.01238100000E+09	-6.78715711458E-01	6.21692404104E-01
1.02088000000E+09	-4.55876083380E-01	7.95030404811E-01
1.02937900000E+09	-1.94446879378E-01	8.95863501808E-01
1.03787800000E+09	8.62047025524E-02	9.17527169070E-01
1.04637700000E+09	3.66198924121E-01	8.55364904466E-01
1.05487600000E+09	6.22015968198E-01	7.07264396536E-01
1.06337500000E+09	8.25813954695E-01	4.78252729287E-01
1.07187400000E+09	9.47864713620E-01	1.84216373000E-01
1.08037300000E+09	9.63124901173E-01	-1.44314781500E-01
1.08887200000E+09	8.59695431969E-01	-4.63917892606E-01
1.09737100000E+09	6.47427363288E-01	-7.27360308285E-01
1.10587000000E+09	3.59029813778E-01	-8.95877460171E-01
1.11436900000E+09	3.86938618623E-02	-9.52213101112E-01
1.12286800000E+09	-2.69677635099E-01	-9.00311384158E-01
1.13136700000E+09	-5.33546142816E-01	-7.59067794706E-01
1.13986600000E+09	-7.33488339232E-01	-5.53245897913E-01
1.14836500000E+09	-8.60712665330E-01	-3.07121042151E-01
1.15686400000E+09	-9.12740704081E-01	-4.15040139526E-02
1.16536300000E+09	-8.89298015027E-01	2.26296943086E-01
1.17386200000E+09	-7.91737752703E-01	4.79251227290E-01
1.18236100000E+09	-6.22103032632E-01	6.99953962277E-01
1.19086000000E+09	-3.86020381521E-01	8.67173916622E-01
1.19935900000E+09	-9.68660582068E-02	9.57041946755E-01
1.20785800000E+09	2.21074725966E-01	9.46844298632E-01
1.21635700000E+09	5.29237774210E-01	8.22814129160E-01
1.22485600000E+09	7.79889500600E-01	5.89565600337E-01
1.23335500000E+09	9.29582623798E-01	2.77132428964E-01
1.24185400000E+09	9.55012947003E-01	-6.52350732487E-02
1.25035300000E+09	8.59181551471E-01	-3.84978775829E-01
1.25885200000E+09	6.67726449174E-01	-6.41920013035E-01
1.26735100000E+09	4.15637680964E-01	-8.13858166141E-01
1.27585000000E+09	1.36878383997E-01	-8.95607528614E-01
1.28434900000E+09	-1.41931142404E-01	-8.92346746860E-01
1.29284800000E+09	-4.00750403113E-01	-8.12739842750E-01
1.30134700000E+09	-6.25090115882E-01	-6.66600221350E-01
1.30984600000E+09	-8.00775345758E-01	-4.63212552420E-01
1.31834500000E+09	-9.14239484684E-01	-2.13178324639E-01
1.32684400000E+09	-9.51203524507E-01	6.81407029901E-02
1.33534300000E+09	-8.98238671483E-01	3.59352624083E-01
1.34384200000E+09	-7.47994076793E-01	6.30008720063E-01
1.35234100000E+09	-5.05773783455E-01	8.42925107942E-01
1.36084000000E+09	-1.95087915604E-01	9.61492465379E-01
1.36933900000E+09	1.42092706198E-01	9.61081734818E-01
1.37783800000E+09	4.55815025199E-01	8.40224289865E-01
1.38633700000E+09	7.02483150325E-01	6.21505094466E-01
1.39483600000E+09	8.55498410892E-01	3.41535717693E-01
1.40333500000E+09	9.06874010317E-01	3.84754562974E-02
1.41183400000E+09	8.62738601981E-01	-2.54027803051E-01
1.42033300000E+09	7.36696926787E-01	-5.11600972496E-01
1.42883200000E+09	5.45450284446E-01	-7.16924756855E-01
1.43733100000E+09	3.04724862003E-01	-8.56928770529E-01
1.44583000000E+09	3.21916772877E-02	-9.21326730839E-01
1.45432900000E+09	-2.52058588035E-01	-9.01838793422E-01
1.46282800000E+09	-5.24662533747E-01	-7.94880878806E-01
1.47132700000E+09	-7.56723205987E-01	-6.01145794554E-01
1.47982600000E+09	-9.17042813906E-01	-3.33777175451E-01
1.48832500000E+09	-9.78825289229E-01	-2.06063016422E-02
1.49682400000E+09	-9.28550285879E-01	2.98797724635E-01
1.50532300000E+09	-7.71079859854E-01	5.81138693193E-01
1.51382200000E+09	-5.29373264120E-01	7.90111307382E-01
1.52232100000E+09	-2.38520306515E-01	9.03459985911E-01
1.53082000000E+09	6.43590918851E-02	9.16986650719E-01
1.53931900000E+09	3.47733139644E-01	8.38233194194E-01
1.54781800000E+09	5.88161947598E-01	6.81647501692E-01
1.55631700000E+09	7.68641537939E-01	4.64767085728E-01
1.56481600000E+09	8.77315577738E-01	2.06119692245E-01
1.57331500000E+09	9.06030958696E-01	-7.48515727589E-02
1.58181400000E+09	8.48373819213E-01	-3.56919986610E-01
1.59031300000E+09	7.03312690002E-01	-6.14470126884E-01
1.59881200000E+09	4.76480680991E-01	-8.18908614997E-01
1.60731100000E+09	1.85638246627E-01	-9.39663505097E-01
1.61581000000E+09	-1.36157280974E-01	-9.53861757490E-01
1.62430900000E+09	-4.46772650365E-01	-8.54286749164E-01
1.63280800000E+09	-7.02456419648E-01	-6.52419070552E-01
1.64130700000E+09	-8.69515450962E-01	-3.78372972370E-01
1.64980600000E+09	-9.32904120880E-01	-7.24235477316E-02
1.65830500000E+09	-8.94962704221E-01	2.27174186137E-01
1.66680400000E+09	-7.70601408316E-01	4.90502445743E-01
1.67530300000E+09	-5.79467649226E-01	6.97343429254E-01
1.68380200000E+09	-3.42201135124E-01	8.36660500619E-01
1.69230100000E+09	-7.84344392330E-02	9.02094928943E-01
1.70080000000E+09	1.93470000614E-01	8.89922042343E-01
1.70929900000E+09	4.54203884029E-01	7.98978132403E-01
1.71779800000E+09	6.83033414533E-01	6.30663610081E-01
1.72629700000E+09	8.55615952279E-01	3.91695050189E-01
1.73479600000E+09	9.45246129928E-01	9.80601292772E-02
1.74329500000E+09	9.30602849218E-01	-2.20395907603E-01
1.75179400000E+09	8.02986902258E-01	-5.22153746111E-01
1.76029300000E+09	5.73004318397E-01	-7.62414341926E-01
1.76879200000E+09	2.73061992400E-01	-9.04548970754E-01
1.77729100000E+09	-5.16247140970E-02	-9.31524346938E-01
1.78579000000E+09	-3.56416787997E-01	-8.49142262602E-01
1.79428900000E+09	-6.07456902539E-01	-6.78859709591E-01
1.80278800000E+09	-7.85462334007E-01	-4.48718000834E-01
1.81128700000E+09	-8.83258971638E-01	-1.86109291657E-01
1.81978600000E+09	-9.00659884180E-01	8.54994065651E-02
1.82828500000E+09	-8.41617787427E-01	3.46919432788E-01
1.83678400000E+09	-7.11826461377E-01	5.80552843317E-01
1.84528300000E+09	-5.18574208732E-01	7.70690683503E-01
1.85378200000E+09	-2.72122332412E-01	8.99288690778E-01
1.86228100000E+09	1.17189305074E-02	9.49191264907E-01
1.87078000000E+09	3.08507733040E-01	9.05341154682E-01
1.87927900000E+09	5.84391230814E-01	7.60552058824E-01
1.88777800000E+09	8.01067339769E-01	5.22366452520E-01
1.89627700000E+09	9.23078606101E-01	2.17291778426E-01
1.90477600000E+09	9.29227126087E-01	-1.12858724198E-01
1.91327500000E+09	8.20233579056E-01	-4.21568867838E-01
1.92177400000E+09	6.16722631705E-01	-6.68504337966E-01
1.93027300000E+09	3.51515105565E-01	-8.28970949381E-01
1.93877200000E+09	5.95536760070E-02	-8.93940930131E-01
1.94727100000E+09	-2.28148136531E-01	-8.67083011163E-01
1.95577000000E+09	-4.87474271215E-01	-7.58517099916E-01
1.96426900000E+09	-6.99751733517E-01	-5.82007901125E-01
1.97276800000E+09	-8.50587029497E-01	-3.53136633275E-01
1.98126700000E+09	-9.28282993181E-01	-8.84139603823E-02
1.98976600000E+09	-9.23924802591E-01	1.91898809110E-01
1.99826500000E+09	-8.31654551228E-01	4.63646676812E-01
2.00676400000E+09	-6.54453234166E-01	6.99165578022E-01
2.01526300000E+09	-4.03593841826E-01	8.69422701137E-01
2.02376200000E+09	-1.03777515959E-01	9.48545787422E-01
2.03226100000E+09	2.10193366733E-01	9.20900404036E-01
2.04076000000E+09	4.97900779242E-01	7.87483935285E-01
2.04925900000E+09	7.22277000417E-01	5.65457865159E-01
2.05775800000E+09	8.58432767660E-01	2.85463787155E-01
2.06625700000E+09	8.95619641443E-01	-1.70784805575E-02
2.07475600000E+09	8.36894898588E-01	-3.08483155782E-01
2.08325500000E+09	6.94882513938E-01	-5.61624211728E-01
2.09175400000E+09	4.86467758595E-01	-7.56311834827E-01
2.10025300000E+09	2.32493850471E-01	-8.78088069410E-01
2.10875200000E+09	-4.56888497278E-02	-9.18257954031E-01
2.11725100000E+09	-3.24764468851E-01	-8.72268164931E-01
2.12575000000E+09	-5.79673375886E-01	-7.41337988338E-01
2.13424900000E+09	-7.84504429436E-01	-5.33436498990E-01
2.14274800000E+09	-9.14577547356E-01	-2.66020909762E-01
2.15124700000E+09	-9.50717822976E-01	3.45870734534E-02
2.15974600000E+09	-8.84393236277E-01	3.34075456864E-01
2.16824500000E+09	-7.20539713833E-01	5.96057886488E-01
2.17674400000E+09	-4.78791201882E-01	7.87929074568E-01
2.18524300000E+09	-1.90145917439E-01	8.88407047123E-01
2.19374200000E+09	1.10633444136E-01	8.90462199030E-01
2.20224100000E+09	3.90921887335E-01	7.99500167473E-01
2.21074000000E+09	6.24471098903E-01	6.30767953605E-01
2.21923900000E+09	7.93316603143E-01	4.03188140578E-01
2.22773800000E+09	8.85664153259E-01	1.39387977720E-01
2.23623700000E+09	8.95063175687E-01	-1.38654628376E-01
2.24473600000E+09	8.20829623859E-01	-4.08277431430E-01
2.25323500000E+09	6.65948663934E-01	-6.45267247875E-01
2.26173400000E+09	4.41177593162E-01	-8.26004642416E-01
2.27023300000E+09	1.64741713661E-01	-9.28253917018E-01
2.27873200000E+09	-1.36506438814E-01	-9.34719932230E-01
2.28723100000E+09	-4.27801829943E-01	-8.38972712058E-01
2.29573000000E+09	-6.72336451769E-01	-6.48807204731E-01
2.30422900000E+09	-8.38487343912E-01	-3.86329487016E-01
2.31272800000E+09	-9.06136770429E-01	-8.52550556709E-02
2.32122700000E+09	-8.71419050587E-01	2.16637725474E-01
2.32972600000E+09	-7.44451139468E-01	4.85655299749E-01
2.33822500000E+09	-5.44874094959E-01	6.96811115735E-01
2.34672400000E+09	-2.96481227822E-01	8.34228791454E-01
2.35522300000E+09	-2.38538728038E-02	8.90685451266E-01
2.36372200000E+09	2.49647997967E-01	8.64520637490E-01
2.37222100000E+09	5.02577106847E-01	7.59692486288E-01
2.38072000000E+09	7.14190522599E-01	5.83978171807E-01
2.38921900000E+09	8.64734238271E-01	3.49563242512E-01
2.39771800000E+09	9.37621211150E-01	7.50439601320E-02
2.40621700000E+09	9.20576024609E-01	-2.15996946553E-01
2.41471600000E+09	8.07349286129E-01	-4.91519162935E-01
2.42321500000E+09	6.05770073821E-01	-7.18871516677E-01
2.43171400000E+09	3.35885931624E-01	-8.67348735259E-01
2.44021300000E+09	3.00802045828E-02	-9.16292366001E-01
2.44871200000E+09	-2.72990521605E-01	-8.60153786718E-01
2.45721100000E+09	-5.37130696282E-01	-7.09016738299E-01
2.46571000000E+09	-7.35690813560E-01	-4.85408567703E-01
2.47420900000E+09	-8.51304173737E-01	-2.17117849703E-01
2.48270800000E+09	-8.78745748623E-01	6.80965220659E-02
2.49120700000E+09	-8.20491679614E-01	3.43337531401E-01
2.49970600000E+09	-6.83944545479E-01	5.85425802134E-01
2.50820500000E+09	-4.82162082224E-01	7.75093359688E-01
2.51670400000E+09	-2.31484066936E-01	8.96056492276E-01
2.52520300000E+09	4.72526571479E-02	9.35442472980E-01
2.53370200000E+09	3.29468675236E-01	8.85177218047E-01
2.54220100000E+09	5.85451647275E-01	7.45503071111E-01
2.55070000000E+09	7.85900357992E-01	5.26326091736E-01
2.55919900000E+09	9.04195640235E-01	2.49507886139E-01
2.56769800000E+09	9.23833466305E-01	-5.30266042654E-02
2.57619700000E+09	8.41810572604E-01	-3.44491725958E-01
2.58469600000E+09	6.69939016429E-01	-5.91179858482E-01
2.59319500000E+09	4.31574087319E-01	-7.67439571269E-01
2.60169400000E+09	1.55261604956E-01	-8.58775807378E-01
2.61019300000E+09	-1.30835271494E-01	-8.61393360982E-01
2.61869200000E+09	-4.00583407397E-01	-7.79070738846E-01
2.62719100000E+09	-6.30772012607E-01	-6.21986522275E-01
2.63569000000E+09	-8.03311806208E-01	-4.04069911600E-01
2.64418900000E+09	-9.03411541834E-01	-1.43345429584E-01
2.65268800000E+09	-9.19351282686E-01	1.38936279533E-01
2.66118700000E+09	-8.45102739538E-01	4.16117468808E-01
2.66968600000E+09	-6.83220250040E-01	6.59738953825E-01
2.67818500000E+09	-4.46656825100E-01	8.39932659888E-01
2.68668400000E+09	-1.60131167504E-01	9.32489947947E-01
2.69518300000E+09	1.42381496939E-01	9.23486471652E-01
2.70368200000E+09	4.23645249359E-01	8.13767722647E-01
2.71218100000E+09	6.50847429724E-01	6.19373059291E-01
2.72068000000E+09	8.01427861595E-01	3.65856157938E-01
2.72917900000E+09	8.63862490507E-01	8.31740460346E-02
2.73767800000E+09	8.38044191972E-01	-1.99749510896E-01
2.74617700000E+09	7.31137196596E-01	-4.58006594465E-01
2.75467600000E+09	5.54863288267E-01	-6.70486559608E-01
2.76317500000E+09	3.25200386990E-01	-8.21195701415E-01
2.77167400000E+09	6.00097457448E-02	-8.98023931873E-01
2.78017300000E+09	-2.19170841989E-01	-8.91590058017E-01
2.78867200000E+09	-4.87386148531E-01	-7.97577540442E-01
2.79717100000E+09	-7.16456589557E-01	-6.19451650504E-01
2.80567000000E+09	-8.78360114722E-01	-3.71121815138E-01
2.81416900000E+09	-9.49104326485E-01	-7.81934504231E-02
2.82266800000E+09	-9.15900896713E-01	2.24661539118E-01
2.83116700000E+09	-7.81212741912E-01	4.97920660902E-01
2.83966600000E+09	-5.63695063208E-01	7.08338908972E-01
2.84816500000E+09	-2.92630456897E-01	8.33347423113E-01
2.85666400000E+09	-1.17359334084E-03	8.64122664949E-01
2.86516300000E+09	2.79367904761E-01	8.04449409633E-01
2.87366200000E+09	5.23523524226E-01	6.65894967674E-01
2.88216100000E+09	7.13235799297E-01	4.64622224349E-01
2.89066000000E+09	8.34932429388E-01	2.19359640006E-01
2.89915900000E+09	8.79489287133E-01	-5.04551464636E-02
2.90765800000E+09	8.41948299161E-01	-3.22777788311E-01
2.91615700000E+09	7.22317075962E-01	-5.75074557161E-01
2.92465600000E+09	5.26298308692E-01	-7.80884567891E-01
2.93315500000E+09	2.69908311088E-01	-9.15977807137E-01
2.94165400000E+09	-2.13988276469E-02	-9.60097827753E-01
2.95015300000E+09	-3.14353085492E-01	-9.03943810604E-01
2.95865200000E+09	-5.72162330630E-01	-7.51194134889E-01
2.96715100000E+09	-7.63305725673E-01	-5.20915244198E-01
2.97565000000E+09	-8.66483455084E-01	-2.42679582442E-01
2.98414900000E+09	-8.74058344999E-01	5.03039138650E-02
2.99264800000E+09	-7.90140862294E-01	3.27249727982E-01
3.00114700000E+09	-6.29128716362E-01	5.60847719052E-01
