# Hz S RI R 50
! CMT, S5085, 16077402, 21.3.2/1
! Date: 11/17/2021 5:11:32 PM
! Data: Format (Calibration Info)
! Freq	S11:Re/Im(--)
1.00000000000E+06	-1.02360522251E+00	-5.09402590539E-02
9.49900000000E+06	-1.01648654138E+00	-4.66396150373E-02
1.79980000000E+07	-1.02886994691E+00	-4.90084670297E-02
2.64970000000E+07	-1.03246130083E+00	-4.98838449994E-02
3.49960000000E+07	-1.03264143869E+00	-5.01395841972E-02
4.34950000000E+07	-1.03244530511E+00	-4.88886074673E-02
5.19940000000E+07	-1.03225557701E+00	-4.67226578257E-02
6.04930000000E+07	-1.03119273520E+00	-4.37541795010E-02
6.89920000000E+07	-1.02975633098E+00	-4.05192701505E-02
7.74910000000E+07	-1.02743959214E+00	-3.73112900492E-02
8.59900000000E+07	-1.02532235181E+00	-3.44967311538E-02
9.44890000000E+07	-1.02269459074E+00	-3.15838338453E-02
1.02988000000E+08	-1.02038605791E+00	-2.85666357504E-02
1.11487000000E+08	-1.01727563030E+00	-2.64750161867E-02
1.19986000000E+08	-1.01404209610E+00	-2.43423750220E-02
1.28485000000E+08	-1.01062031436E+00	-2.25476638033E-02
1.36984000000E+08	-1.00731275213E+00	-2.04504716429E-02
1.45483000000E+08	-1.00441026726E+00	-1.97974544466E-02
1.53982000000E+08	-1.00131931731E+00	-1.86429681882E-02
1.62481000000E+08	-9.97962131065E-01	-1.82593729302E-02
1.70980000000E+08	-9.93904241875E-01	-1.81253881412E-02
1.79479000000E+08	-9.91620379688E-01	-1.79667496024E-02
1.87978000000E+08	-9.88882479187E-01	-1.79947181264E-02
1.96477000000E+08	-9.86213160966E-01	-1.83351437128E-02
2.04976000000E+08	-9.83859413189E-01	-1.86666843078E-02
2.13475000000E+08	-9.81710354698E-01	-1.91888159299E-02
2.21974000000E+08	-9.79700514640E-01	-1.94444180106E-02
2.30473000000E+08	-9.78127888757E-01	-1.99192764122E-02
2.38972000000E+08	-9.76467577694E-01	-2.10051722614E-02
2.47471000000E+08	-9.74863616114E-01	-2.19629247943E-02
2.55970000000E+08	-9.73928224713E-01	-2.30450744306E-02
2.64469000000E+08	-9.72731200684E-01	-2.41364463443E-02
2.72968000000E+08	-9.71787921225E-01	-2.53998663268E-02
2.81467000000E+08	-9.71062074640E-01	-2.68280221852E-02
2.89966000000E+08	-9.70540845209E-01	-2.82192447031E-02
2.98465000000E+08	-9.69863919692E-01	-2.96270228670E-02
3.06964000000E+08	-9.69628893054E-01	-3.11522448485E-02
3.15463000000E+08	-9.69562867838E-01	-3.26757024463E-02
3.23962000000E+08	-9.69890918498E-01	-3.43392718332E-02
3.32461000000E+08	-9.70266182999E-01	-3.58340643517E-02
3.40960000000E+08	-9.70340654001E-01	-3.74536252571E-02
3.49459000000E+08	-9.70704280217E-01	-3.89889359823E-02
3.57958000000E+08	-9.71695492495E-01	-4.09152762985E-02
3.66457000000E+08	-9.72593362501E-01	-4.24236789984E-02
3.74956000000E+08	-9.73245173600E-01	-4.31871356429E-02
3.83455000000E+08	-9.74557673614E-01	-4.44295576513E-02
3.91954000000E+08	-9.76203814474E-01	-4.56910065393E-02
4.00453000000E+08	-9.77249036444E-01	-4.76569162462E-02
4.08952000000E+08	-9.78847059680E-01	-4.91864714901E-02
4.17451000000E+08	-9.80437196189E-01	-5.07482358190E-02
4.25950000000E+08	-9.81942590743E-01	-5.19868276182E-02
4.34449000000E+08	-9.83348489003E-01	-5.34342253244E-02
4.42948000000E+08	-9.85130998500E-01	-5.44683026542E-02
4.51447000000E+08	-9.87251960059E-01	-5.54746602140E-02
4.59946000000E+08	-9.89218304825E-01	-5.68304672607E-02
4.68445000000E+08	-9.91124904922E-01	-5.82323522133E-02
4.76944000000E+08	-9.93266805561E-01	-6.07919761199E-02
4.85443000000E+08	-9.95520779580E-01	-6.27146012272E-02
4.93942000000E+08	-9.97891549476E-01	-6.40488147943E-02
5.02441000000E+08	-1.00058939937E+00	-6.46301445041E-02
5.10940000000E+08	-1.00286003120E+00	-6.48174989994E-02
5.19439000000E+08	-1.00526849934E+00	-6.49141538888E-02
5.27938000000E+08	-1.00756535896E+00	-6.49653122622E-02
5.36437000000E+08	-1.00956798958E+00	-6.47580489138E-02
5.44936000000E+08	-1.01167189421E+00	-6.44350540800E-02
5.53435000000E+08	-1.01381547211E+00	-6.36964348280E-02
5.61934000000E+08	-1.01610461937E+00	-6.29883450304E-02
5.70433000000E+08	-1.01843515231E+00	-6.23113787774E-02
5.78932000000E+08	-1.02034826962E+00	-6.15371476629E-02
5.87431000000E+08	-1.02237195705E+00	-6.05746981901E-02
5.95930000000E+08	-1.02406884115E+00	-5.92315381878E-02
6.04429000000E+08	-1.02604294443E+00	-5.82693939006E-02
6.12928000000E+08	-1.02818296172E+00	-5.63736773787E-02
6.21427000000E+08	-1.03005470797E+00	-5.41155638738E-02
6.29926000000E+08	-1.03123697327E+00	-5.23471839143E-02
6.38425000000E+08	-1.03234787035E+00	-5.12296287375E-02
6.46924000000E+08	-1.03319651171E+00	-4.96214022568E-02
6.55423000000E+08	-1.03397607165E+00	-4.70305751364E-02
6.63922000000E+08	-1.03518191171E+00	-4.39148434218E-02
6.72421000000E+08	-1.03634479894E+00	-3.96972049954E-02
6.80920000000E+08	-1.03722906748E+00	-3.54684092518E-02
6.89419000000E+08	-1.03793418958E+00	-3.19444015977E-02
6.97918000000E+08	-1.03787338415E+00	-2.77119337166E-02
7.06417000000E+08	-1.03786632598E+00	-2.34943562572E-02
7.14916000000E+08	-1.03748772770E+00	-1.92246791891E-02
7.23415000000E+08	-1.03697266298E+00	-1.47055257720E-02
7.31914000000E+08	-1.03638147329E+00	-1.02512433549E-02
7.40413000000E+08	-1.03534501826E+00	-5.84822216871E-03
7.48912000000E+08	-1.03419967274E+00	-1.02617386059E-03
7.57411000000E+08	-1.03311851260E+00	3.41726601578E-03
7.65910000000E+08	-1.03166358229E+00	7.77684807858E-03
7.74409000000E+08	-1.03007952176E+00	1.19177804936E-02
7.82908000000E+08	-1.02823951931E+00	1.57752402668E-02
7.91407000000E+08	-1.02639347992E+00	1.98579034884E-02
7.99906000000E+08	-1.02409839944E+00	2.36244372524E-02
8.08405000000E+08	-1.02168011947E+00	2.73949091757E-02
8.16904000000E+08	-1.01936495554E+00	3.09346713085E-02
8.25403000000E+08	-1.01657984458E+00	3.43792425010E-02
8.33902000000E+08	-1.01379489407E+00	3.78664660453E-02
8.42401000000E+08	-1.01099834574E+00	4.09992376345E-02
8.50900000000E+08	-1.00801213859E+00	4.40395128346E-02
8.59399000000E+08	-1.00525865564E+00	4.67712702425E-02
8.67898000000E+08	-1.00280702668E+00	4.91524291901E-02
8.76397000000E+08	-9.99905569768E-01	5.11409319760E-02
8.84896000000E+08	-9.96796280624E-01	5.24478856653E-02
8.93395000000E+08	-9.93546656264E-01	5.37433682029E-02
9.01894000000E+08	-9.90528454008E-01	5.43758345224E-02
9.10393000000E+08	-9.87681228483E-01	5.50819786676E-02
9.18892000000E+08	-9.84865549872E-01	5.51961790527E-02
9.27391000000E+08	-9.81909916191E-01	5.49602322279E-02
9.35890000000E+08	-9.79477049884E-01	5.45803942161E-02
9.44389000000E+08	-9.76970288504E-01	5.36374772596E-02
9.52888000000E+08	-9.74667078995E-01	5.25667192907E-02
9.61387000000E+08	-9.72701741872E-01	5.12037052076E-02
9.69886000000E+08	-9.70661029654E-01	4.94134858266E-02
9.78385000000E+08	-9.68881878496E-01	4.72871411893E-02
9.86884000000E+08	-9.67404374911E-01	4.44699836465E-02
9.95383000000E+08	-9.66358884848E-01	4.15672800138E-02
1.00388200000E+09	-9.65154883793E-01	3.83004370090E-02
1.01238100000E+09	-9.63945427331E-01	3.50930703681E-02
1.02088000000E+09	-9.63222096315E-01	3.14416791156E-02
1.02937900000E+09	-9.62840094668E-01	2.74893926023E-02
1.03787800000E+09	-9.62901924100E-01	2.34358987524E-02
1.04637700000E+09	-9.62861358587E-01	1.90478384750E-02
1.05487600000E+09	-9.62920452779E-01	1.42254550075E-02
1.06337500000E+09	-9.63568959680E-01	9.22747362728E-03
1.07187400000E+09	-9.64314982234E-01	3.97046091021E-03
1.08037300000E+09	-9.64863678135E-01	-1.41606885382E-03
1.08887200000E+09	-9.65764220068E-01	-7.02032656574E-03
1.09737100000E+09	-9.67077356320E-01	-1.24948108038E-02
1.10587000000E+09	-9.68665931842E-01	-1.80696726928E-02
1.11436900000E+09	-9.70313645383E-01	-2.37039516490E-02
1.12286800000E+09	-9.72289944893E-01	-2.94392649383E-02
1.13136700000E+09	-9.74441488205E-01	-3.46817160323E-02
1.13986600000E+09	-9.76871207969E-01	-3.98151603821E-02
1.14836500000E+09	-9.79337343888E-01	-4.50320715727E-02
1.15686400000E+09	-9.81709003699E-01	-5.00318646383E-02
1.16536300000E+09	-9.84209147845E-01	-5.48538407186E-02
1.17386200000E+09	-9.87061918063E-01	-5.93578104113E-02
1.18236100000E+09	-9.90135180834E-01	-6.35944667949E-02
1.19086000000E+09	-9.93427966551E-01	-6.76142692770E-02
1.19935900000E+09	-9.97056010839E-01	-7.13323020637E-02
1.20785800000E+09	-1.00087506306E+00	-7.46999225155E-02
1.21635700000E+09	-1.00420385672E+00	-7.77278036495E-02
1.22485600000E+09	-1.00826168539E+00	-8.01419876717E-02
1.23335500000E+09	-1.01212648263E+00	-8.22242950042E-02
1.24185400000E+09	-1.01574073748E+00	-8.40369230952E-02
1.25035300000E+09	-1.01902491001E+00	-8.51791160317E-02
1.25885200000E+09	-1.02273299617E+00	-8.60193209316E-02
1.26735100000E+09	-1.02642111131E+00	-8.64199470485E-02
1.27585000000E+09	-1.02995051197E+00	-8.59742044383E-02
1.28434900000E+09	-1.03347595772E+00	-8.49586376709E-02
1.29284800000E+09	-1.03687850441E+00	-8.35746568500E-02
1.30134700000E+09	-1.03982920353E+00	-8.15729061306E-02
1.30984600000E+09	-1.04276739083E+00	-7.89227544852E-02
1.31834500000E+09	-1.04559289112E+00	-7.60871805670E-02
1.32684400000E+09	-1.04829769259E+00	-7.27588175174E-02
1.33534300000E+09	-1.05036968557E+00	-6.89367365579E-02
1.34384200000E+09	-1.05246079799E+00	-6.47371703947E-02
1.35234100000E+09	-1.05357864806E+00	-6.01091328676E-02
1.36084000000E+09	-1.05436389738E+00	-5.53520132371E-02
1.36933900000E+09	-1.05506429890E+00	-5.03234001535E-02
1.37783800000E+09	-1.05542023279E+00	-4.51829114915E-02
1.38633700000E+09	-1.05511645757E+00	-3.95492246973E-02
1.39483600000E+09	-1.05411993616E+00	-3.38026274211E-02
1.40333500000E+09	-1.05262639760E+00	-2.80613895261E-02
1.41183400000E+09	-1.05076790634E+00	-2.25482134137E-02
1.42033300000E+09	-1.04862683019E+00	-1.68432529275E-02
1.42883200000E+09	-1.04591048121E+00	-1.14383364932E-02
1.43733100000E+09	-1.04296294258E+00	-6.22052811851E-03
1.44583000000E+09	-1.04036463762E+00	-1.25973334479E-03
1.45432900000E+09	-1.03716726322E+00	3.15365337882E-03
1.46282800000E+09	-1.03303627657E+00	7.04532407390E-03
1.47132700000E+09	-1.02844921462E+00	1.05145209080E-02
1.47982600000E+09	-1.02422806842E+00	1.33780420119E-02
1.48832500000E+09	-1.01996823174E+00	1.61076782578E-02
1.49682400000E+09	-1.01532356560E+00	1.82815124209E-02
1.50532300000E+09	-1.01045698008E+00	1.98572341441E-02
1.51382200000E+09	-1.00595655015E+00	2.07986078890E-02
1.52232100000E+09	-1.00166222719E+00	2.11407338662E-02
1.53082000000E+09	-9.97274134805E-01	2.11819963724E-02
1.53931900000E+09	-9.92794696368E-01	2.07113608851E-02
1.54781800000E+09	-9.88514567743E-01	1.98317589648E-02
1.55631700000E+09	-9.84480191541E-01	1.81296515362E-02
1.56481600000E+09	-9.80752669622E-01	1.60788460802E-02
1.57331500000E+09	-9.76947490387E-01	1.34952353056E-02
1.58181400000E+09	-9.73505642639E-01	1.03042877146E-02
1.59031300000E+09	-9.69989654637E-01	6.99854336585E-03
1.59881200000E+09	-9.66509512852E-01	3.13524395077E-03
1.60731100000E+09	-9.63978809622E-01	-6.68373541559E-04
1.61581000000E+09	-9.61691825827E-01	-5.07373394598E-03
1.62430900000E+09	-9.59493815698E-01	-9.62973369575E-03
1.63280800000E+09	-9.57206762621E-01	-1.43323265156E-02
1.64130700000E+09	-9.55611268619E-01	-1.91456477152E-02
1.64980600000E+09	-9.53986320528E-01	-2.44108965593E-02
1.65830500000E+09	-9.52814015096E-01	-2.96537474045E-02
1.66680400000E+09	-9.51873241805E-01	-3.51353126761E-02
1.67530300000E+09	-9.51150907074E-01	-4.06614335851E-02
1.68380200000E+09	-9.51113210634E-01	-4.63267942538E-02
1.69230100000E+09	-9.51343455939E-01	-5.18481395992E-02
1.70080000000E+09	-9.51988109964E-01	-5.74096397353E-02
1.70929900000E+09	-9.52789725684E-01	-6.29321353169E-02
1.71779800000E+09	-9.53597849822E-01	-6.81662161177E-02
1.72629700000E+09	-9.54520236146E-01	-7.38690567228E-02
1.73479600000E+09	-9.56330506528E-01	-7.91041819158E-02
1.74329500000E+09	-9.58301139510E-01	-8.43526469003E-02
1.75179400000E+09	-9.60278351336E-01	-8.97441759769E-02
1.76029300000E+09	-9.62525223237E-01	-9.50721246149E-02
1.76879200000E+09	-9.65103596313E-01	-1.00215371307E-01
1.77729100000E+09	-9.68053623218E-01	-1.04768789700E-01
1.78579000000E+09	-9.71182287415E-01	-1.08974939609E-01
1.79428900000E+09	-9.74657078190E-01	-1.13093031308E-01
1.80278800000E+09	-9.78234356084E-01	-1.16613524135E-01
1.81128700000E+09	-9.81939662757E-01	-1.19727533818E-01
1.81978600000E+09	-9.85789322160E-01	-1.22578295872E-01
1.82828500000E+09	-9.89695295103E-01	-1.24560165767E-01
1.83678400000E+09	-9.93690172343E-01	-1.26199797471E-01
1.84528300000E+09	-9.97642318464E-01	-1.26778566952E-01
1.85378200000E+09	-1.00172097025E+00	-1.27202938300E-01
1.86228100000E+09	-1.00579276491E+00	-1.26975425682E-01
1.87078000000E+09	-1.00978731247E+00	-1.26239528610E-01
1.87927900000E+09	-1.01408361359E+00	-1.25018565541E-01
1.88777800000E+09	-1.01848640693E+00	-1.23346740724E-01
1.89627700000E+09	-1.02256321646E+00	-1.20908622757E-01
1.90477600000E+09	-1.02654609138E+00	-1.18000048919E-01
1.91327500000E+09	-1.03009763005E+00	-1.14375430335E-01
1.92177400000E+09	-1.03363396763E+00	-1.10318407717E-01
1.93027300000E+09	-1.03647775946E+00	-1.05642770237E-01
1.93877200000E+09	-1.03943793995E+00	-1.00587231333E-01
1.94727100000E+09	-1.04173497884E+00	-9.48845182796E-02
1.95577000000E+09	-1.04384539622E+00	-8.92668277018E-02
1.96426900000E+09	-1.04532670005E+00	-8.31159516379E-02
1.97276800000E+09	-1.04644689714E+00	-7.67764944533E-02
1.98126700000E+09	-1.04707697248E+00	-7.00867950164E-02
1.98976600000E+09	-1.04695500812E+00	-6.31856754095E-02
1.99826500000E+09	-1.04655348312E+00	-5.60541942945E-02
2.00676400000E+09	-1.04578894338E+00	-4.88528692395E-02
2.01526300000E+09	-1.04439623045E+00	-4.16071602311E-02
2.02376200000E+09	-1.04220160722E+00	-3.45131592867E-02
2.03226100000E+09	-1.03970656560E+00	-2.73701173648E-02
2.04076000000E+09	-1.03684756973E+00	-2.06897336871E-02
2.04925900000E+09	-1.03375993566E+00	-1.42615951734E-02
2.05775800000E+09	-1.03032556818E+00	-8.20793480583E-03
2.06625700000E+09	-1.02676348594E+00	-2.53281799484E-03
2.07475600000E+09	-1.02279273253E+00	2.60291645777E-03
2.08325500000E+09	-1.01851004592E+00	7.25264404424E-03
2.09175400000E+09	-1.01429706067E+00	1.14001044717E-02
2.10025300000E+09	-1.01022514795E+00	1.49101406271E-02
2.10875200000E+09	-1.00612217898E+00	1.81235224589E-02
2.11725100000E+09	-1.00171723619E+00	2.02234913066E-02
2.12575000000E+09	-9.97640576140E-01	2.17955023597E-02
2.13424900000E+09	-9.93805217395E-01	2.32764336056E-02
2.14274800000E+09	-9.90185665457E-01	2.37985757712E-02
2.15124700000E+09	-9.86528034715E-01	2.40280824604E-02
2.15974600000E+09	-9.83117364747E-01	2.39067215767E-02
2.16824500000E+09	-9.79888554908E-01	2.29478860951E-02
2.17674400000E+09	-9.76749194596E-01	2.14630162826E-02
2.18524300000E+09	-9.74003508133E-01	1.91934752091E-02
2.19374200000E+09	-9.71607790855E-01	1.60913621859E-02
2.20224100000E+09	-9.69774463468E-01	1.29554535337E-02
2.21074000000E+09	-9.68127346382E-01	9.27752453687E-03
2.21923900000E+09	-9.66671894032E-01	5.61844141608E-03
2.22773800000E+09	-9.65605143396E-01	1.22058208298E-03
2.23623700000E+09	-9.64951321175E-01	-3.12390106727E-03
2.24473600000E+09	-9.64061940911E-01	-8.10726145068E-03
2.25323500000E+09	-9.63548400327E-01	-1.30247543734E-02
2.26173400000E+09	-9.63634043760E-01	-1.84010366381E-02
2.27023300000E+09	-9.63915881499E-01	-2.36702396115E-02
2.27873200000E+09	-9.64278597757E-01	-2.93061348224E-02
2.28723100000E+09	-9.65246275396E-01	-3.50061149375E-02
2.29573000000E+09	-9.66502153270E-01	-4.09325846225E-02
2.30422900000E+09	-9.67751941901E-01	-4.64514916979E-02
2.31272800000E+09	-9.69324965631E-01	-5.21383103440E-02
2.32122700000E+09	-9.71203792280E-01	-5.78007539994E-02
2.32972600000E+09	-9.73117073978E-01	-6.36934309853E-02
2.33822500000E+09	-9.75359188455E-01	-6.90031847830E-02
2.34672400000E+09	-9.77724872828E-01	-7.44210418288E-02
2.35522300000E+09	-9.80508371996E-01	-7.96047963858E-02
2.36372200000E+09	-9.83219142699E-01	-8.47450539746E-02
2.37222100000E+09	-9.86244189024E-01	-8.92278926125E-02
2.38072000000E+09	-9.89313781592E-01	-9.34017295925E-02
2.38921900000E+09	-9.92842526639E-01	-9.69561917290E-02
2.39771800000E+09	-9.96698762739E-01	-1.00242081269E-01
2.40621700000E+09	-9.99687398020E-01	-1.02952501238E-01
2.41471600000E+09	-1.00347089457E+00	-1.04811649959E-01
2.42321500000E+09	-1.00728732664E+00	-1.05948199166E-01
2.43171400000E+09	-1.01085021238E+00	-1.06475370876E-01
2.44021300000E+09	-1.01432288640E+00	-1.06420995961E-01
2.44871200000E+09	-1.01796614339E+00	-1.05322663261E-01
2.45721100000E+09	-1.02161498284E+00	-1.03653003704E-01
2.46571000000E+09	-1.02476954645E+00	-1.00955775761E-01
2.47420900000E+09	-1.02767158004E+00	-9.77705267354E-02
2.48270800000E+09	-1.03010985974E+00	-9.37420315403E-02
2.49120700000E+09	-1.03272224951E+00	-8.91190981054E-02
2.49970600000E+09	-1.03530190487E+00	-8.33956214310E-02
2.50820500000E+09	-1.03723771754E+00	-7.71275794732E-02
2.51670400000E+09	-1.03869560497E+00	-6.99425054518E-02
2.52520300000E+09	-1.03994653075E+00	-6.22139246453E-02
2.53370200000E+09	-1.04054085631E+00	-5.34960160237E-02
2.54220100000E+09	-1.04051313430E+00	-4.40093998316E-02
2.55070000000E+09	-1.03990884849E+00	-3.41779425446E-02
2.55919900000E+09	-1.03855964914E+00	-2.41877326853E-02
2.56769800000E+09	-1.03696899018E+00	-1.37557212795E-02
2.57619700000E+09	-1.03461327519E+00	-3.26673446761E-03
2.58469600000E+09	-1.03196450360E+00	7.31608727071E-03
2.59319500000E+09	-1.02862208478E+00	1.77697801630E-02
2.60169400000E+09	-1.02496123295E+00	2.79918540752E-02
2.61019300000E+09	-1.02076526681E+00	3.78237454529E-02
2.61869200000E+09	-1.01629262803E+00	4.75796870779E-02
2.62719100000E+09	-1.01191586492E+00	5.64841691500E-02
2.63569000000E+09	-1.00728562573E+00	6.53091964441E-02
2.64418900000E+09	-1.00215857722E+00	7.32452130545E-02
2.65268800000E+09	-9.96593062188E-01	8.12536874687E-02
2.66118700000E+09	-9.91584840228E-01	8.86685119089E-02
2.66968600000E+09	-9.86413248034E-01	9.54341116810E-02
2.67818500000E+09	-9.81469587548E-01	1.01507040857E-01
2.68668400000E+09	-9.76594584702E-01	1.07285718277E-01
2.69518300000E+09	-9.71907374626E-01	1.12462671508E-01
2.70368200000E+09	-9.67753649008E-01	1.16913324552E-01
2.71218100000E+09	-9.63663463107E-01	1.20663728835E-01
2.72068000000E+09	-9.59384738094E-01	1.24115815988E-01
2.72917900000E+09	-9.56090461288E-01	1.26995182848E-01
2.73767800000E+09	-9.53198652647E-01	1.28804076927E-01
2.74617700000E+09	-9.50605815450E-01	1.30723543402E-01
2.75467600000E+09	-9.49258478143E-01	1.31816868050E-01
2.76317500000E+09	-9.48357237372E-01	1.32262696103E-01
2.77167400000E+09	-9.47132809776E-01	1.32478930556E-01
2.78017300000E+09	-9.46890024441E-01	1.31876409888E-01
2.78867200000E+09	-9.47037210829E-01	1.31036780074E-01
2.79717100000E+09	-9.47599251068E-01	1.29726163273E-01
2.80567000000E+09	-9.48619354190E-01	1.27898547454E-01
2.81416900000E+09	-9.49972288956E-01	1.25947394437E-01
2.82266800000E+09	-9.51918158672E-01	1.24007660520E-01
2.83116700000E+09	-9.54685750377E-01	1.21747736715E-01
2.83966600000E+09	-9.57400645951E-01	1.19100542361E-01
2.84816500000E+09	-9.60507295273E-01	1.16319005162E-01
2.85666400000E+09	-9.63813504550E-01	1.13865860671E-01
2.86516300000E+09	-9.68045554998E-01	1.11034553908E-01
2.87366200000E+09	-9.72347380937E-01	1.07989006961E-01
2.88216100000E+09	-9.76804697326E-01	1.05221798266E-01
2.89066000000E+09	-9.81653113616E-01	1.02110392815E-01
2.89915900000E+09	-9.86503628118E-01	9.91841027852E-02
2.90765800000E+09	-9.91575924283E-01	9.60260784852E-02
2.91615700000E+09	-9.96860026465E-01	9.27637018356E-02
2.92465600000E+09	-1.00254959223E+00	8.89368884409E-02
2.93315500000E+09	-1.00830751718E+00	8.56676444585E-02
2.94165400000E+09	-1.01402072115E+00	8.28463880047E-02
2.95015300000E+09	-1.01985451424E+00	8.03735194367E-02
2.95865200000E+09	-1.02523799114E+00	7.83276382848E-02
2.96715100000E+09	-1.03060421614E+00	7.64975409510E-02
