! PocketVna 1.78  pocketvna.com
! Live measurements ((Reflection-S11, Transmission-S21, Transmission-S12, Reflection-S22) Linear 500000-4000000000/201 calibrated)
# Hz S RI R 50
! Hz          ReS11                     ImS11                      ReS21                      ImS21                     ReS12                     ImS12                      ReS22                      ImS22                     
500000        1.1059268661558714        -0.24481433184237303       0.47285730487747929       0.10526175338408066        1.329770199396995          -2.5754541538929288       -0.26096663648938567       0.49559432314974655       
20497500      0.89520052375948689       -0.52459522333076214       0.97963351766308793       0.056922141171382855       0.98025680245377089        0.044796360732617904      0.90610751948659973        -0.57297579265009058      
40495000      0.2844183347462434        -0.71025182339465287       0.99524794512067316       0.04326866468027632        0.99091830942267634        0.039985260069886557      0.31619262698627659        -0.75239758877879492      
60492500      0.067219827384883718      -0.36268505111443711       0.99351048231171413       0.051276298807302757       0.99052250109662332        0.049746115345412269      0.089600531729054175       -0.36953169303935468      
80490000      0.003187110856248886      -0.12362370048271037       0.99704967369370823       0.04690533160965734        0.9940290153568655         0.042242862114472098      0.013464137264244651       -0.11799259801876164      
100487500     0.055799513720499481      -0.020175533089328724      0.99691294703057753       0.052228219624337845       0.99095898474826649        0.049927237414308462      0.049897493496437656       0.0080126227594484057     
120485000     0.075725837968107321      -0.051011354531411729      0.98765031511841561       0.04860401185776686        0.98687304101071083        0.045021576302244064      0.045125815630582752       0.0011745044694350031     
140482500     0.022022623659276069      -0.13950824194862768       0.99140051921742078       0.044356347940633256       0.9940843241418631         0.04648004335847062       -0.010521148304395919      -0.10592925086315677      
160480000     -0.064849308439602016     -0.29856301635750709       0.99867846541173899       0.047952933952116222       0.99623231920488797        0.05424093514455431       -0.081449489360298666      -0.2379124825960991       
180477500     -0.15012450184430506      -0.33080172670673758       0.99148815068137852       0.052710242315856706       0.98792451721942875        0.047615189979320682      -0.19483070407377803       -0.28448549486151803      
200475000     -0.30994049260889039      -0.29680646138717665       0.98999687723588803       0.045256866005308878       0.98988362930899232        0.04701097548924011       -0.33533332941440452       -0.3035020461752872       
220472500     -0.41158927727350159      -0.23666578497715862       0.99195320981466417       0.040914485550600461       0.99732895110171371        0.047927915448020629      -0.40600398497815776       -0.28185692359638692      
240470000     -0.39999112940238107      -0.07948809470974337       0.99482113497572322       0.049052010889052665       0.98649704736285992        0.049372973720689287      -0.36490702512092599       -0.11987142165371024      
260467500     -0.34329299164520777      0.094985818430413996       0.98682926897951506       0.045248247482898449       0.98672084449629982        0.04225505652049754       -0.28755759437349099       0.058117164986796761      
280465000     -0.18911679127511619      0.25972466535856042        0.99418440962507992       0.040152184354259705       0.99753597959511975        0.048817832628203092      -0.14619435803373809       0.25368496397833279       
300462500     -0.044865068640001421     0.41801974574270978        0.99362270994083435       0.048442781122064675       0.98902308072948997        0.053931867044335766      -0.033726935731024803      0.3865764117420572        
320460000     0.049016954932044152      0.42935925018912113        0.99225007201196802       0.047836598726190872       0.98884209917729426        0.050368619726762674      0.10440566898563852        0.40217683223316586       
340457500     0.13933563153022521       0.33908705047534898        0.98887111153738561       0.050253167098966746       0.9880035983577603         0.0446421458039949        0.21858845006310842        0.35294638907150555       
360455000     0.20226137369531405       0.2301039834108487         0.9840767867947191        0.047484391920151511       0.98774181632444147        0.04503234438538551       0.25604494582295323        0.28768265571052631       
380452500     0.18675078844674708       0.12770413744021392        0.99218794723424486       0.043522593044374412       0.99755794924483643        0.050007680366180605      0.20305850537672512        0.15355416762259297       
400450000     0.11871125710539923       -0.011571453088023433      0.99355644214344319       0.042347448742472794       0.99445082359129022        0.050868097421668146      0.15578039583165734        0.016617505842343016      
420447500     0.054205485025850979      -0.087663191728708151      0.98970261862239617       0.042055327139374529       0.99045911218805194        0.043266097464976283      0.069684452684240908       -0.06178308004968         
440445000     0.00042671239951762004    -0.10287515823618573       0.9896789486239006        0.037271069970280603       0.98585912618999572        0.041318933525246133      0.013021508039258686       -0.11495441627384127      
460442500     -0.019756532138656857     -0.073356866521525996      0.99116097594212726       0.037557218563537262       0.99761497257260157        0.046305211717088617      -0.00033654123808643456    -0.09227522209621461      
480440000     0.0060948957877446112     0.0042967407599451531      0.99401045094679341       0.042673051993202239       0.99390444084019491        0.048543185513970355      0.007780292884465633       -0.037380038649811792     
500437500     0.039166559149585667      0.085862999570832266       0.9875204037191333        0.048650803150104074       0.99035648172874102        0.038607274723967515      0.04840123080606229        0.06063216922942307       
520435000     0.138478134268542         0.13005334456899434        0.98797735031190437       0.041986649659967012       0.98905966224942998        0.035997648772527792      0.11203109374750954        0.16599886239819023       
540432500     0.22734590778339545       0.1858047929238659         0.98412234262420861       0.035749024761165892       1.0030116615384912         0.046092313374857148      0.177920699332968          0.20168375456972829       
560430000     0.27785682378931975       0.13119292679426389        0.99020079276218098       0.046973034736037804       0.99019666631605585        0.045148233344271586      0.234560694350059          0.15834313667328728       
580427500     0.29094913421313306       0.018497326558537915       0.98371546953114752       0.045783995142879119       0.99354701021464842        0.038211452004935448      0.26978109876006912        0.10855238934259627       
600425000     0.23460004433475579       -0.12378851963467868       0.98734419359746872       0.046576353733245819       0.99499535837465813        0.051644689990327265      0.23267635064323663        -0.034937396457458574     
620422500     0.15386630623497405       -0.30797276796693102       0.99528837601717113       0.041126028733066047       0.99781363647772436        0.051336099777671201      0.1550306735604956         -0.19116121636825931      
640420000     0.064613522727105313      -0.39714724458600581       0.99614586271937056       0.041741571265493944       0.98891333079735433        0.045573022795657468      -0.0038983432999763583     -0.31170095357854566      
660417500     -0.078691090761318971     -0.40321176337228687       0.98454849081334839       0.046577652288854535       1.0005780600316649         0.040904420920862515      -0.12482502167729485       -0.46042965136683411      
680415000     -0.2375015301668329       -0.4143968954845203        0.98659658769119674       0.042562768390274307       0.99723551201013749        0.041725436518399682      -0.16791601206249046       -0.48916475484954558      
700412500     -0.29126824397170292      -0.36573078904784095       0.98989857904225764       0.04383796126018831        0.9946334913882281         0.056236875812314117      -0.27526248507556189       -0.37741648237138203      
720410000     -0.30731324938662158      -0.1684723900889108        0.99385928997936801       0.05040644859574963        0.98595502771590959        0.042970675600459134      -0.34053396215757092       -0.25695715638591637      
740407500     -0.27568888682210507      0.01351021881496042        0.98522216498623671       0.045151987571771302       0.99141599702338334        0.044124458695372917      -0.29072030745904603       -0.097484047527126916     
760405000     -0.1728424533301029       0.18547397828593326        0.99207317107223958       0.044300363883495467       0.99312689083645855        0.05177552048878116       -0.19743301615359188       0.10645764531180131       
780402500     -0.079933137959824596     0.28909154283382854        0.99744944063675933       0.049183639608076674       0.98305142392542866        0.046766759943029521      -0.038279651539876662      0.23584228750540043       
800400000     0.041774781241331445      0.26520198500744541        0.98609484899618094       0.050814590598294462       0.99330939251734918        0.044475215704839678      0.087425645001980967       0.29955449112956378       
820397500     0.10015062483397412       0.20774099622300224        0.98820506046576351       0.041839636209161514       1.0004075559715564         0.048375790439081287      0.15412065869060801        0.27568754084529085       
840395000     0.088485568826589991      0.10838306789455471        0.99592058170549314       0.047595128957976879       0.99246879552342604        0.050545866661720618      0.18346175821118904        0.17413375976007869       
860392500     0.08567415187171247       -0.00039456295781783703    0.99247108791081928       0.046544580263793121       0.98388894590137299        0.049336225534256907      0.16650257404799665        0.065615505706022814      
880390000     0.023921240035333788      -0.079080486799405936      0.98609205895946817       0.056509917146475082       0.99431687010733039        0.040901139265889341      0.080622472834890699       -0.031413223736435798     
900387500     -0.01400099247882786      -0.10943714312078022       0.98379815033671747       0.042798760749219844       0.99327183832097898        0.049473565655046084      0.0070067401997346065      -0.078428677646503825     
920385000     -0.02393778911989965      -0.088919005734659121      0.99348502333254507       0.039769851316339248       0.98730736194594826        0.052568219604630179      -0.048557792087320722      -0.076150959844733482     
940382500     -0.0062078299987996287    0.0073617045663448722      0.99227301871301476       0.037944223755048509       0.98862137780092629        0.038631516470265546      -0.049935378902153306      -0.038363292012144577     
960380000     0.040788462359092899      0.10956820013633876        0.98521867111214434       0.054705127459113469       0.98940268481575433        0.044422955130103518      -0.028306820904896224      0.026608761215269217      
980377500     0.14415445938080398       0.2144496760068276         0.98599136264905063       0.040270310275301056       0.99896927337934927        0.047214255022544789      0.039489139214648319       0.13346108318495448       
1000375000    0.22762564463288687       0.30708153609852668        0.98785499104092789       0.03687679082142125        0.98835417196981123        0.047726986859727101      0.17688317257942465        0.22454019987122448       
1020372500    0.27322703305600649       0.27633552086137875        0.99348077249025613       0.05202198384559352        0.98425165133668113        0.041076794237625384      0.3170933099274697         0.27989203578467209       
1040370000    0.33908816076839188       0.16993265668712448        0.99026790503556772       0.055228498771728439       0.98698380518897733        0.044502809263769677      0.38981648497349269        0.28718804808884058       
1060367500    0.34839033801353703       0.033956164396173549       0.98597498864804278       0.054836094653451767       0.99058201100126364        0.043813010898312695      0.36648046236137694        0.18409554922506088       
1080365000    0.26997082226887947       -0.14763907037580637       0.98683331665399965       0.045289446550787184       0.99317605745424831        0.051858712704602426      0.33297196663461054        0.038535170261858764      
1100362500    0.2058158175646021        -0.29468396542087405       0.98827955955499347       0.036409326265192679       0.98521359511307749        0.040242314789532288      0.1966020828742682         -0.10464062770103932      
1120360000    0.087499965165612203      -0.34542110231762541       0.98754209165398632       0.04671972218349478        0.98718288955528066        0.044371515786990834      0.06625845765738933        -0.26561203944808776      
1140357500    -0.029105442440955115     -0.39384990649749496       0.99522328138814797       0.046764970077853615       0.98734000596913207        0.041106218527380993      -0.1428622279318032        -0.37692090233644354      
1160355000    -0.14107534743689137      -0.30062414645646829       0.99484293746890196       0.049849406331953242       0.9915970805196539         0.042045239081100624      -0.21014679240809056       -0.39576849339287162      
1180352500    -0.24386858126966532      -0.19843612386570908       0.98267622636732288       0.048429329237269725       0.99377559379114011        0.049499540255569935      -0.31539730203835392       -0.30475853871576986      
1200350000    -0.25026313082988833      -0.053760541690084852      0.98715353484081358       0.039087259096222453       0.99917113671910496        0.050591019735503215      -0.36610891781533139       -0.21675319247143571      
1220347500    -0.21279087294892612      0.11560164174617062        0.99605767786875599       0.03869954138239011        0.98577016263849804        0.039388991261070039      -0.28840786583694678       -0.072958802964405031     
1240345000    -0.12249430255144064      0.2099217859212188         0.99420254735680025       0.042501449442095128       0.99621071755560109        0.041316022739696666      -0.15263651202217476       0.087342429272203884      
1260342500    -0.0044948329677516382    0.23584777508306273        0.98059784590956656       0.046760515834874339       0.98598001099160415        0.044291480283607257      0.01129966481192806        0.17580957117911691       
1280340000    0.064324910716997266      0.19027926211280899        0.98126442445997231       0.031736632260341492       0.98789096825805467        0.036891643209332296      0.16974229606554969        0.20239541401163041       
1300337500    0.08312033812336847       0.10209325146359161        0.98570428423215684       0.032562743021797284       0.99206675291992141        0.034908857033148694      0.20780067431966454        0.21877701383228856       
1320335000    0.067338922204549748      -0.019040940630495284      0.99548248337705048       0.037631782457779227       0.99037248039086156        0.033218078870959004      0.14064584609058495        0.088441316758428992      
1340332500    0.031974544331944847      -0.099867004521713695      0.97960755215437856       0.045028902283691545       0.98814881820051226        0.041880473459833943      0.039206402864241402       -0.0045890304131841805    
1360330000    -0.007126697790033506     -0.15027168604111132       0.98484002633597256       0.03481315682766848        0.98336627072638472        0.038770924750294013      -0.063606884631338997      -0.13011472316788428      
1380327500    -0.028199470900045036     -0.13460275143063594       0.99115791691029964       0.032038502330035898       0.99029753570832013        0.032754904730246746      -0.10374563782876056       -0.219247406655211        
1400325000    -0.061755336780890763     -0.077089324986273383      0.99660893230439951       0.041302854575745306       0.99301475632815939        0.036899109887755244      -0.14129456675065863       -0.20985332058248329      
1420322500    -0.037977059527448634     -0.034693944001419542      0.98634131742848319       0.038272260000751686       0.98654948069989612        0.046920239235023684      -0.12570641753586839       -0.20308333893482119      
1440320000    -0.0018972028054009128    0.091891621050305156       0.98589654000345406       0.040102365905619414       0.99242153074448491        0.036335452792991753      -0.056357601143995649      -0.12424590553482852      
1460317500    0.063999512692090033      0.14329434875353048        1.0006490580415608        0.042144196745458953       0.99592404096697873        0.035324241189458372      0.10018573417973001        -0.019883455816344594     
1480315000    0.17428200479531961       0.17774722728174516        0.98895245496557183       0.039191994874139061       0.99418840709766154        0.043668011837141953      0.28829573556313898        0.098508455652911886      
1500312500    0.22156854605335444       0.11425661985142203        0.98048627777270814       0.041702274097711954       0.97845385120429818        0.035014128485928421      0.41497075587691118        0.17331759551078676       
1520310000    0.28951434507362722       0.0032746709048363546      0.99410563462113055       0.035104622451295898       0.99219405935642135        0.035320396600595362      0.47984473692291268        0.16800430269837394       
1540307500    0.28628517119516383       -0.14825417513597983       0.99335959079487768       0.046026802125871576       1.0006039724021611         0.040835790451234304      0.43546959316656542        0.10693636507742459       
1560305000    0.22658731726000436       -0.27059082880951862       0.98682099365561371       0.050051441247191235       0.98819462087883059        0.041907304313262596      0.27818352979147237        -0.0096604300597364218    
1580302500    0.16932812754203191       -0.34812591835935702       0.9838238327162796        0.040480489079371032       0.98675994971835701        0.041123823680410627      0.10191059615057782        -0.16229381712122884      
1600300000    0.090316483235333617      -0.36768965552498367       0.98297893053364405       0.03777552094759342        0.99367574436694306        0.036294660139744646      -0.021941592472574115      -0.31730889113586791      
1620297500    -0.029830670708003104     -0.28255876897677235       0.989379370046093         0.046147424471569921       0.99534891305662021        0.042379017064102402      -0.13960534443994649       -0.38075353332581291      
1640295000    -0.14024055292395815      -0.21927609634248987       0.99215540303346894       0.046735333922317164       0.98476676386327211        0.044534565589139471      -0.24533100497479698       -0.38337871326462208      
1660292500    -0.18315709139031527      -0.069921235937088017      0.98157201930942206       0.040927363750307665       0.9875309072598405         0.040901900631315602      -0.21712247171076904       -0.33322578266435654      
1680290000    -0.1619202710573604       0.074193486547752402       0.99346419576346257       0.044777335206512177       0.99206598750668773        0.039329948523298408      -0.20053922671071836       -0.10091922253212525      
1700287500    -0.11883420450604661      0.19176416153906251        0.99165487626056426       0.035175445486940272       0.98969684222505627        0.03788711545470904       -0.076749381499670963      0.1007952602685845        
