! PocketVna 1.78  pocketvna.com
! Live measurements ((Reflection-S11, Transmission-S21, Transmission-S12, Reflection-S22) Linear 500000-4000000000/201 calibrated)
# Hz S RI R 50
! Hz          ReS11                      ImS11                      ReS21                      ImS21                      ReS12                      ImS12                      ReS22                      ImS22                      
500000        1.4981721450883998         -0.22479957085603389       0.15187126817129556        -0.32420913585023992       -0.85392839950340771       2.132726950264765          -0.17975835491585049       0.49528227359760352        
20497500      0.99348395242822152        -0.22790060775320309       -0.014886193909617268      -0.0063840502520923249     0.0026913126921781052      0.00067566276286855234     1.0264053303098883         0.016518393738473101       
40495000      0.90382975414790523        -0.57121792260816828       0.004403907945521905       0.0057767460034184315      0.0015301342209307529      0.00074648108250171283     1.0444003628326042         0.0097170715419350878      
60492500      0.769452395181491          -0.67364490549143907       0.0011197348289582539      0.0024671989070653736      0.0029788389262661655      -0.0019574007137831027     1.018722687366818          0.047614416335503965       
80490000      0.36405524854002624        -0.8339934741083026        -0.0018391673810313047     0.0035222998553054398      3.6611340897787367e-05     -0.0059004819977242495     1.0440808265550678         0.059924135530426768       
100487500     0.1358160152579149         -0.96719649555719223       0.0016706428691574604      0.0021925661540930655      -0.0042449576394600463     -0.0011552038897878817     1.016976914138318          0.08657781359878218        
120485000     -0.12764644837101749       -0.78515639294290474       0.0025153399517147566      -0.0044763362317735873     0.0020601087786643432      0.00065618949813317582     0.98495412197783927        0.065786819154561249       
140482500     -0.49208504345656245       -0.69555222994541188       -7.1673943761169057e-05    -0.00070912453769569027    0.0017574908138438979      -0.00078663912388430744    0.96686401424632207        0.057325463856337612       
160480000     -0.68409510994357503       -0.6917296653471644        -0.0017199483967397689     -6.7579191166360964e-05    -0.00039678588099104555    -0.0022690637147646455     0.93473031756391123        0.038678758320812724       
180477500     -0.74617795890038408       -0.44058832700299216       0.0025118500342953057      5.6063569358939547e-06     0.0011335339917975826      -0.00034301067701872541    0.93373380339490653        0.014538226113532253       
200475000     -0.84087856165668118       -0.17991537586121814       0.00068852124016673816     -0.00032480425877253383    0.0022274506476583711      -0.00016632464211076135    0.94538039302341403        -0.018027019036579654      
220472500     -0.812850819244329         0.046638006927967782       -0.0032073157132070048     0.00070746125853551206     -0.00079836083420043369    -0.0019027080202996434     0.9688712296693397         -0.03256960051625566       
240470000     -0.7329684171449472        0.28422840604264865        -0.00054809678944327538    -0.0018282567180299975     0.00014883694640434691     0.0015252044428660488      0.99962109239995045        -0.036720381771399607      
260467500     -0.53908898099335245       0.41665127395934837        0.00077966253186061152     -0.00082888697940162559    0.001280584473050641       -0.0017464902823011671     1.0252210500390946         -0.020184760092814481      
280465000     -0.29177463428728451       0.60860318809038749        0.00031454956963889721     -0.0011978870920595313     0.0021889112915205785      0.0018633381494849032      1.0365318586254992         -0.0019667866542521983     
300462500     -0.13208479675768206       0.77277489564420865        0.00052896809072684194     0.0035676135014761344      6.7387854534024796e-05     -0.00031852686186185518    1.0545024902169173         0.027633369219593137       
320460000     -0.046292329636385875      0.77510553246817293        -0.0017195284621860135     -0.0042821540025660592     2.3927620766920448e-06     0.0017808245174430188      1.0462378828224455         0.024936051489591247       
340457500     0.15713965636656518        0.65584618190719979        -0.0031559303008624451     -0.0020700568745917443     -0.0078885320987639677     0.0055124081803689731      1.0342050456056704         0.032926919280355772       
360455000     0.35544892096977243        0.53909793421886287        -0.0021014621824779634     0.0013156319763677059      0.0011139897656631819      -0.0014725778589736054     1.007157070843961          0.036587270506358738       
380452500     0.48697904506369633        0.45203012617815541        0.0010760905384885786      0.00095423369998049281     0.0060666075361013325      0.0014582756332383441      0.99037045769347198        0.045941091717701298       
400450000     0.50419292045565323        0.28242653297113696        0.0039242966826219007      0.0018850299581532814      -0.0021277663857964062     0.00062629963812528631     0.97221337706119348        0.034177632998090089       
420447500     0.52707273211725802        0.094708005916985707       -0.0017433624567433387     -0.00010645462557592085    -0.0046334144556149717     -0.010046922496552734      0.97343572250121269        0.029748043567387826       
440445000     0.51707222681306475        -0.071652284566093113      0.0065881965658439005      0.00080353852148053412     0.00020007312302611682     -0.0031576134390523952     0.97114562734891252        0.014993332456838388       
460442500     0.48884524611690766        -0.1985050631592592        9.585956697873541e-05      -0.00023691079860548541    -0.0080440499185904773     0.00083822387775002601     0.99718045965935631        0.016144859432245997       
480440000     0.42163016161302286        -0.33474141764486381       0.0079082492173273358      -0.001804703809335824      -0.0020287435250044613     -0.000174008740485077      0.99177345828437702        0.010796688619647617       
500437500     0.34873359791408337        -0.37672715929754552       -0.0069913401079536603     0.0030386956683982661      9.8536084905942418e-05     0.0011174771189678078      1.0289409838693171         0.00054300478986558747     
520435000     0.20836042727656695        -0.40962678326089952       -0.0016512315049044869     -0.0029062392026025763     0.0016987587413283458      0.00061230121874847679     1.0289937301481435         0.01796777187232753        
540432500     0.073147081409233899       -0.42988206831225378       -0.0022402078507727163     -0.0015741565626672873     -0.0038784808119307983     -0.0039533027265453114     1.0305674970592311         0.027661394470601931       
560430000     -0.0088880664934793286     -0.40879210897691054       -0.0040911067899638389     -0.001098902805270022      0.0015860149140238852      0.0038522694655001729      1.014156939942797          0.019174917402906656       
580427500     -0.1503178621699689        -0.33521988408035774       -0.0019864680612789194     0.0026843569705056057      0.0026259485257644462      -0.00099816296536121233    1.0086749146245912         0.032212203854063988       
600425000     -0.27479402804680081       -0.31759280690996816       -0.00080158594703612688    0.0019109329984684615      0.00047401261588408982     -0.0014672908747160442     0.98588514633007074        0.039755173174017          
620422500     -0.34156376832103469       -0.30513811144231801       0.00076452746601321574     0.0012075418034068585      -0.0047869468173624965     0.0054021716813614003      0.96462063375278218        0.029372846599977541       
640420000     -0.35581915829703642       -0.2212073931348098        0.0024414527554981794      0.0049332640819405088      -0.0022283267874351601     0.0021365693373894953      0.95425220427666235        0.0094082814761915299      
660417500     -0.37888942479104237       -0.12493627998126948       -0.00079181833476800131    0.00055821841063456886     -0.0012916168200922085     -0.0017575206465396511     0.94802745158987711        -0.0039116184408624945     
680415000     -0.37230476856517647       -0.063314154853779253      0.0039701785899781562      0.0012159237581316892      -0.00199631481932025       -0.0020115421662782774     0.96918409435885955        -0.0042000147963470536     
700412500     -0.32344627056092246       0.034549885390253707       -0.0026146479604426138     0.00087408430077918803     0.0031989691023337776      -2.7884995909016007e-05    1.0061194997435683         -0.021521344877663974      
720410000     -0.2598520339962504        0.12970370575621054        -0.0017753193281442343     0.00043782478995170996     -0.0038748220759468716     -0.0008483555396964045     1.0114232702561308         -0.0078661372390149992     
740407500     -0.15415338311020232       0.20390559075857839        -0.00097895860881872551    -0.00073379286063860567    -0.0028341959316280974     -0.00021166243246903931    1.0192938085814069         -0.023239188731692329      
760405000     -0.071785027958149672      0.28861969740739457        -0.0029097553023884636     0.00097090040546520928     0.0030454789340051288      -0.00098896565112428       1.0426718192596671         0.0057579515160266761      
780402500     -0.0065838081252438656     0.29791648809997195        -0.0037871777674695121     -0.0043734759700422721     0.0018029005326667188      -0.0038006691088846973     1.0432996761223645         0.015777608120179608       
800400000     0.087038782389991201       0.29457551595224846        -0.00041620754830555057    0.0033473353230442041      -0.0018255948521874587     0.0010820156840439142      1.0503319479098758         0.012106527522518272       
820397500     0.15528454260627697        0.27814972893404355        -0.0034428431549383726     -0.0038676281119490535     0.0046671031313840162      -0.0027718560284276136     1.0355175916549209         0.043397645938459961       
840395000     0.18263590343931022        0.23478506450461181        -0.00015610000094760823    -0.0023340343032369777     0.0073777651069094905      0.0017722948161937202      1.0061120725552559         0.047170000365339165       
860392500     0.23358836325326343        0.14517984423408684        0.0027275627766524917      -0.00069375778570318636    0.00048275902992011611     0.0023226642278927519      1.0101534045916947         0.04424623313297503        
880390000     0.25007115192782886        0.049265970957456585       -0.0017244909533786353     0.0015353667247846707      0.0031722376082053078      -0.002090691241355698      0.98364326848144845        0.055139473630501326       
900387500     0.27152587991981214        -0.01914062967473773       0.0020297313002842123      0.0012122024280993744      0.0076636476513483485      -0.0059490331848011538     0.97037057229298773        0.037097735691478624       
920385000     0.26846195357997632        -0.088414200618435926      -0.001845679396855002      0.006269469210203253       -0.0010423561276378557     -0.0037320532994183091     0.97789630002615413        0.050734708970817582       
940382500     0.29505989579121061        -0.14314768164228131       -0.002201790864712182      0.00051913926984824418     0.00024926052416327508     0.0038128725337702625      0.98753713721915348        0.0053182647052428022      
960380000     0.25810214199158205        -0.14792593136918936       -0.0042627860173717969     0.0064292793160648232      0.0015440569765783868      -0.0017956183222567182     0.99872765603244773        0.0090241666225179765      
980377500     0.20355737107572353        -0.16385692396959084       -0.0041303300402873496     0.0022222400111376376      0.0022751118553104984      0.0059696733180065733      0.99460222449400038        0.013039324417920243       
1000375000    0.15815489392502305        -0.1804732054667634        -0.00016330684707186428    0.0042287572410173785      0.0047181830772192604      -0.0025203169288082025     1.0100427450715344         -0.00036807245520444613    
1020372500    0.10989002062043809        -0.17957731541644195       0.00062208114264720505     -0.0030513249151449999     -0.0067518995126618787     0.0015103019360176201      1.030165876267358          0.012362131006558441       
1040370000    0.024529804380617283       -0.15351253108329807       -0.0034144618828309162     0.0015265787858091565      -0.0019178079614400967     0.0026438187047086175      1.0287969855698611         0.028498918318920499       
1060367500    -0.062367215941576674      -0.13944688949598547       -0.0048659951473646983     0.0014060638266020994      0.00040315676444915323     0.0001087080417778641      1.0225617033485752         0.048418097780518109       
1080365000    -0.12734228486427657       -0.14695728679018441       -0.0034002707160757624     0.0016582552697843572      -0.0029561395664726795     1.1031578258795802e-05     0.98603950427828047        0.042481346118621033       
1100362500    -0.14464362023329147       -0.11506550494168515       -8.4267807830456864e-05    0.003261722712600613       -0.0030088441565459213     0.0023770159726513016      0.97990364485855619        0.041814431864231658       
1120360000    -0.17115262690530492       -0.095022006208435927      -0.002231970921967022      -0.00037688271628957522    -0.0049685443152362964     0.0059595559705199084      0.95549974196599774        0.03555599284863676        
1140357500    -0.17177457223581039       -0.056353529922749543      -0.0060714291407560116     0.0017379413255059666      -0.0010465602077352519     0.009575893299135517       0.95018627831455527        0.0076788678928748806      
1160355000    -0.14158389124123349       -0.012912053582932993      -0.0019389352066595334     0.00094626616670394684     -0.0070186083927117103     -0.0047097482835204282     0.93597974397888284        0.00036584486097070119     
1180352500    -0.11975277949184693       0.049583097996331621       -0.0036308777767561423     0.0068770538763427008      -0.0020862970425640573     0.0018496829567576237      0.95219109610359964        -0.0058340292850112456     
1200350000    -0.090569109797385208      0.095910292310096096       -0.0026113343424491327     0.0021409796142885739      0.0027432606668258024      -0.00030808397520986101    0.96920529722945137        -0.051295723864949523      
1220347500    -0.060104210415235143      0.13268974626703184        -0.0032871166772210979     -0.0012080465418135477     -0.00023823355539818195    -0.00032229125031826887    1.0162580384442919         -0.049682310137125235      
1240345000    -0.033592660789048566      0.15492140299178114        -0.0032706999058843894     0.0017611804037130016      -0.00088320040306043648    0.007341722358883483       1.0289928314315029         -0.046383381080493336      
1260342500    0.013078395600908574       0.16565664148266041        -0.007675076145901372      -0.0042878997883747331     0.0022384766742039376      0.0065968509911960675      1.0733285314236007         -0.026628490530131423      
1280340000    0.043243161734919898       0.15944482227488979        0.0036473802921631448      -0.002581861880262379      -0.0025980961879330747     -0.0019595508489061038     1.0734782773429186         0.009834957224821762       
1300337500    0.070945546125960657       0.14008567684022749        -0.0058875646761412668     0.00018593427649427164     0.00084138293977481732     -0.0012715066964906394     1.0782538365121064         0.0029722435192881631      
1320335000    0.089597588234559281       0.072695500535601282       0.0015008831369739066      0.0062305143600312977      -0.0004137008067693548     0.0027112434704075813      1.0625471425393831         0.084918065711247118       
1340332500    0.11899237742509269        0.015886637218345639       0.0042675540056407741      -0.0012291414886003008     -0.0046712299574832626     0.0043897664547118583      1.0098341106796045         0.075182403156579966       
1360330000    0.12253844839182366        -0.032404798092981683      0.0013016378152999864      0.00080964685119706056     -0.0085478906717561965     0.0012226580234592035      0.97134402402349018        0.058917490642780838       
1380327500    0.14480100935073864        -0.080926671598047964      -0.0066485320206371348     0.0043899027484184906      0.0027747401259372757      -3.9975849933985492e-05    0.96332102324927904        0.052738340460021182       
1400325000    0.14722349518662903        -0.10070576686390577       -0.011055575077875714      -0.0031572915700669789     -0.00011052909887240482    0.0016746836001348404      0.94180087259933742        0.016224574464492301       
1420322500    0.14448564573743705        -0.1666758792918755        -0.004423092231579614      -0.006549575301666782      -0.0061699986156665589     -0.0039117957809034548     0.93930674634512235        -0.011171854266689903      
1440320000    0.14669043027487494        -0.15368122595121933       -0.0034000734246921959     -0.0060212831251542868     -0.0054166227632480111     -0.0028818891133688134     0.96331876927520343        -0.051585793305606552      
1460317500    0.10537747421166298        -0.17900822900289456       -0.0097251709286102321     0.004988862008663766       -0.0050029766238494731     0.0070855750778638813      1.0109653638316904         -0.062171761145957155      
1480315000    0.071757971760745165       -0.17269304938742788       -0.0081861286464063841     -0.0054143756884756965     -0.0033243402772815977     0.00076635535839511147     1.0391059077056697         -0.042806915416332754      
1500312500    0.026102030305282874       -0.19820317247516625       -0.011688649128409461      0.0027962704473765069      -0.0067684093245839218     0.0058070172161149196      1.0224074632699167         -0.016029655472492261      
1520310000    0.019956426678583446       -0.18125969631787184       -0.0057881028186887876     -0.0012315705175160768     -0.0099642405163471691     0.0054767600145656514      1.0606968097922895         -0.0035507802903133822     
1540307500    -0.039202377258028408      -0.19411757942844299       -0.0066511338999468003     -0.0077116833130151177     -0.014130056547495171      -0.00045489140266936613    1.0553875315823145         0.040888120646687787       
1560305000    -0.050463319193784544      -0.1741844204481566        -0.0063439648357807819     -0.0021406169198368496     -0.013603835140357642      0.0053056952086648623      1.0213331243753709         0.047838569118627564       
1580302500    -0.046723416735804553      -0.14488692407242881       -0.010552970434019357      0.00029750548660258401     -0.0043808397729957517     0.013015509989604204       0.98597780238559485        0.066051133405793022       
1600300000    -0.049943308916629688      -0.10659801255213529       -0.013019918891316231      0.0099225758368569998      -0.0060936859931033103     0.014814976243720362       0.94475708812286296        0.035070828905723918       
1620297500    -0.047796783157601157      -0.068488699566458602      0.00084520908591565521     0.0010571701382350402      0.0015703959059777163      0.0083352140237309899      0.91389366505867464        0.018676423616775267       
1640295000    -0.060801861657664144      -0.00033225324957604588    -0.010461124317512076      0.0072964156282410205      -0.0044909352365985131     0.0024834212403091345      0.94533744290030175        -0.055071691432929601      
1660292500    -0.043923738219889048      0.03706499403907644        -0.0021103456895063422     0.0063607003520577375      -0.0022432965137643714     0.010109428406083226       0.97203804979947317        -0.072970653838352245      
