! PocketVna 1.78  pocketvna.com
! Live measurements ((Reflection-S11, Transmission-S21, Transmission-S12, Reflection-S22) Linear 500000-4000000000/201 calibrated)
# Hz S RI R 50
! Hz          ReS11                      ImS11                      ReS21                      ImS21                      ReS12                      ImS12                      ReS22                      ImS22                      
500000        1.1469130516936095         -0.011418865942951741      -0.059213705776787445      -0.0079307239163936977     0.87816514226354869        -0.096845625680914121      0.078475058004998377       1.7035922020134295         
20497500      1.0014432862876492         -0.23059106742291038       -0.014352073316178311      -0.0033055420713765564     -0.004411565165593683      0.0027384588527944276      0.003671089474963557       -0.18328576799751886       
40495000      0.95338258705987045        -0.57838977647185097       0.0062899909807569293      0.0030752947820210123      0.0019847226178037257      -0.0039285013526181526     0.062349341130900744       -0.094747846545138292      
60492500      0.79580546196036828        -0.66864800840432392       0.0003125350701734465      0.0025746546532112989      0.0041053696302703873      -9.5559210653574294e-05    0.089893423900956282       -0.02606020496444807       
80490000      0.36224851451456624        -0.81903790341834248       -0.00020631056177383979    0.0012967545425888677      -0.0035840305663060431     -0.006037168924611926      0.10248350716053305        0.030671558779067538       
100487500     0.1525863044092852         -0.97742739080406005       -7.7716686892391097e-05    0.0019301814784365597      -0.0025830694759210039     -0.0010750908085365417     0.045409017115397569       0.078010276276966994       
120485000     -0.12354750807663563       -0.78436367183362488       0.00086538569890769862     -0.0029014624749991551     -0.0019659177287447305     0.00091022790850433621     -0.00097750140002860158    0.078148789990816619       
140482500     -0.49066983809411319       -0.69296954925964727       -0.00045803624372603842    -0.00038844651739564751    -0.0011058522793117552     0.0022278616447352342      -0.03850636607841107       0.067993255804284933       
160480000     -0.69171270198644552       -0.67819531478536854       -0.0011113085075267111     0.0016726633562431476      -0.0016019331955310068     -0.0013572725277415253     -0.071467498649643746      0.040244444890337454       
180477500     -0.74173651443046251       -0.44371510248161605       0.00091579460348540634     -0.0039435827079517347     0.00073947438585589417     -0.00011124147351879662    -0.086033274633574658      -0.00053735759448290173    
200475000     -0.84472442435840867       -0.18480362941433651       -0.00023826822826455711    -0.00020819456758559832    0.0045842353956145575      0.0017516189147878611      -0.077210823788410807      -0.039208233646101792      
220472500     -0.81244347658452509       0.038522184188019136       -0.0017522645291832913     0.0017775635194861518      0.0025709364050417955      -0.0025827474221809181     -0.035337121956787274      -0.074584505682385643      
240470000     -0.73115667697163489       0.27649698499188147        0.002614304024740896       -0.00097859616017673947    -0.0020386287185733118     -0.0018788792842950636     0.011435618687491673       -0.080308505906649577      
260467500     -0.53860468380361282       0.4131504000500138         0.0010932722749458382      -0.0011730940743217551     0.00052562860296582776     -0.0020570516497513728     0.041801672427012229       -0.06449855890034889       
280465000     -0.28719247510089801       0.60554916252769064        -0.0029500834098998602     0.00523599251117672        0.0024107674002821948      0.0010358888077539308      0.062721458379670206       -0.021443551707153296      
300462500     -0.12584224041849751       0.77980104808264983        0.0016441952014171577      0.00053978048739876925     0.00063667397156074736     0.0017978746229006829      0.06806781754655708        0.0025884991186772514      
320460000     -0.025936401314901381      0.78766783882072433        0.00018094932100202836     -0.0020193574486652554     -0.0031711436826688285     0.001088233334061089       0.062192881507010141       0.033313084355948555       
340457500     0.15641365323873202        0.65802504223877423        -0.0026874831498181488     0.00063802135143972694     -0.0059582618707434984     0.0025024397220966233      0.025185492168888851       0.05285334491114467        
360455000     0.35096182498630329        0.55097648926474641        0.00018482831212876465     -0.00016441182781122763    0.00032886878997456532     0.0001355713140905068      -0.0019714210925206306     0.057298773510656806       
380452500     0.47811128548036924        0.46252977499882592        0.0013668112297804886      0.0044206072613319587      -0.0014707366039621709     0.0052022498364865727      -0.03130880217814639       0.038829339964897402       
400450000     0.49964730936461876        0.29066767646160024        0.0029908146862388687      -0.0036536253026674807     -0.0051110771638595886     0.0022773905945912541      -0.035898713603380046      0.022146955617594055       
420447500     0.51355530187392262        0.081959569357882428       -0.0055958804930611051     0.0035951210238279021      -0.0057621051485862596     0.00021484221506782537     -0.061088555386913601      -0.010959241239598606      
440445000     0.51835412943363235        -0.073859277587773345      -0.0018204762800056126     0.00033555886045606855     0.00013611293532427021     -0.0044745376047588253     -0.046014310441029861      -0.043764357134533298      
460442500     0.48778644111514385        -0.21747452967449146       0.00082089498013824982     -0.0044730702920364514     0.0014174392673413122      0.0053399423013102704      -0.015682373074922751      -0.040696947573737437      
480440000     0.43517407260831759        -0.33539474632651006       0.005029174991364971       -0.00092951183765832101    -0.0019628402118841894     -0.00081839321637192423    0.021167913734717474       -0.053028065003836965      
500437500     0.35274381216831169        -0.37911476472094952       -0.0029019919345101746     -0.0018685031822540314     0.0015351586645912939      0.0021604180868169919      0.051602819433175399       -0.035743795805701188      
520435000     0.21663888640511575        -0.40390443072731924       0.0036040379723408645      -0.0030481311080217499     -0.00097400028512470004    0.0010645545773056509      0.04839746859494308        -0.0026754884015606269     
540432500     0.07416276160943916        -0.43137024780991945       0.00056796381615906828     -0.0041137286389812313     -0.0047005202615030238     -0.0036399232993480344     0.04785659904566688        0.0327759671524432         
560430000     -0.020200665834073383      -0.40892423237375175       -0.0010552575470164931     0.0037385760389359998      -0.0043309096620897372     0.0045433516677085735      0.014286164696502762       0.041103497718096661       
580427500     -0.15308451652952482       -0.33186709312735235       -0.0047705131585541833     0.0050835523791684083      -0.0011506370634377934     -0.0043976575872039878     0.013554750567377032       0.067871676543649243       
600425000     -0.28112944797254324       -0.3116149072174566        0.0016871751699613696      0.00014185943770797559     0.0028448220694695693      -0.00017782980247610399    -0.037365549516965843      0.073026365808808599       
620422500     -0.33080573845806871       -0.30098582225337506       0.0029066513150211395      0.0053284583816604935      -0.0041273109748051233     0.006450574006311007       -0.057499269087787026      0.027387691540911654       
640420000     -0.36722789199161687       -0.23040834124741374       0.0015929277618076591      0.0019667779324122089      -0.0040388977742216716     0.0041998978554110902      -0.083656133143347633      -0.0026209363788753074     
660417500     -0.38468928355318299       -0.13074242595744365       -0.00052267461509032643    -0.00024542594832525986    0.0012377832950607969      0.0013413659080403681      -0.053630425081096021      -0.044205688147298625      
680415000     -0.37628339049793053       -0.063996624265446306      0.0017683143328973956      -0.0012858871488677379     0.00334855837917696        -0.0039635311633334685     -0.03351645064385763       -0.05666385902745779       
700412500     -0.32599472625885584       0.018951489304457777       -0.0015434865063112448     0.0032169549558554752      -0.0012522737982094702     -0.00051693050766915289    -0.0061424110148933491     -0.071303402252856751      
720410000     -0.25523074480258345       0.11752618271013306        -0.0012812861268289269     0.003052439542849044       -0.0043365007431272187     0.0005641624372895326      0.016413193773369257       -0.063847272529851701      
740407500     -0.15515369267911835       0.19485719403461654        -0.0041715815819854266     0.0017347622664384767      -0.002843726166702156      -0.0013131576123338565     0.036610434682733575       -0.05446175698197845       
760405000     -0.06236455974289927       0.28332372197586542        -0.0023164621473961994     0.0012894057769256909      0.0067829486432307009      0.0016620691305632713      0.061658438206785585       -0.018832529414428187      
780402500     -0.013275927910017873      0.31489922622354299        0.00021462804025769563     0.0023785550025703785      -0.0012294070196151837     -0.0017609559565555822     0.064368791179828799       0.0031999426900545629      
800400000     0.079715600865653283       0.29863526485994951        -2.9161810450191977e-05    0.0073390896575737602      -0.0033664968834137038     0.0025872332789091423      0.054243483548523312       0.039150352146737399       
820397500     0.15146972867173672        0.28811220493974782        -0.0022890665841538613     -0.0018334111098811919     0.0016013394415562499      -0.0078177327246922827     0.026588477305397283       0.057416985032479391       
840395000     0.18046496723813082        0.23962758615959531        0.00021288446152669006     -0.00024001903150210199    -0.00073385238684600966    0.004770194523750112       -0.0096826248779602591     0.069482351334051007       
860392500     0.22254065477250382        0.14455643113251104        0.0071225656301687418      -0.0045894204503192587     0.0043363955932772952      0.0052304752180684089      -0.029579580245599424      0.046019403839705965       
880390000     0.26042058123816264        0.05282070200651718        -0.0011287454493264907     -0.0013004025103903324     0.0034431803867925426      0.0023122290752843953      -0.045451684521604203      0.013484389587063711       
900387500     0.27275537756956342        -0.018624981503490744      -0.0022270173096144473     0.0018598656280037751      0.0058890115776333695      -0.001134609659290544      -0.071411374220080009      -0.0016670288043907167     
920385000     0.2731307227567516         -0.084188472029356878      0.0027556040962956564      0.00150029444672946        -0.00062838887993712665    -0.0032280326732100155     -0.043118302185940573      -0.0093334469418168281     
940382500     0.30135012189988375        -0.13901003985012916       0.0012824165452978568      0.003052341434855737       -0.0050722308185620216     0.0015687467304918829      -0.021565264100227896      -0.059521689439667458      
960380000     0.27091202148586024        -0.15391851157636807       -0.00020843385637051527    0.0030262995461045388      -0.002031968035717157      0.0067279651548483501      0.011397909727920409       -0.062881707261748465      
980377500     0.20515453139876227        -0.16594733536814429       0.0014507492368518065      0.0013673430013637522      -0.0048364758237824075     0.0014941056267442515      0.033596079947438122       -0.034220633060752029      
1000375000    0.16480449935495151        -0.17954669656424585       0.0022414104649109696      0.0023600473410630629      0.0018467601616557203      0.0037622590051257809      0.055509128973444233       -0.0049942323710626567     
1020372500    0.10970842152579234        -0.17467688145468732       0.0020232556558687806      -0.0023167324222444444     -0.0051304351481462557     0.0025019130404455164      0.065153092096528892       0.00051019591590454        
1040370000    0.019963317721823731       -0.13534503516577626       -0.0048534009846795843     0.0053048025049287238      -0.0017953076445784404     0.0028087149591710216      0.06936047063618514        0.069065730727706651       
1060367500    -0.063975763317397044      -0.14763569832344353       -9.7127252645754368e-05    0.001394063057558128       -0.0020134714941896959     -0.0011484071053706707     0.013489763852282845       0.06468921846776611        
1080365000    -0.12448733004860899       -0.13859279057251042       -0.0024977088121962508     0.0050133363239082962      -0.00070498617850035924    0.00092785428595201997     -0.01063267395482753       0.064993463002674945       
1100362500    -0.14529748142067028       -0.12900484667760972       0.0021187054459552114      0.0002506532375182138      -0.0011308051414622494     0.0024200055729331899      -0.042790790777352872      0.051687958637527176       
1120360000    -0.1746975700824687        -0.08948369334661356       -0.00060337474772411965    -0.0023192995147792834     -0.0022953607487590177     -0.0025667085731930044     -0.088136831431467583      0.031858786254894828       
1140357500    -0.17012582528456252       -0.05337510608999485       -0.0052462906720540728     0.0037732128178453897      -0.0011842219490615555     0.0070531107646473572      -0.087312365801607186      -0.0096883041296376045     
1160355000    -0.13920509667923012       -0.0074137549933192982     -0.0011259263204427719     -0.0029613616081409959     -0.0086451680972889373     -0.0074326492625959471     -0.085773353739770061      -0.049028027493579436      
1180352500    -0.12295078469582618       0.036309202810923071       -0.002363696904426785      -0.00053494521916122703    -0.00567667765864323       0.00075825402704945131     -0.044164098461978975      -0.058641356924399722      
1200350000    -0.090314982266355648      0.092450002435521747       -0.0043117451494693792     0.0016647537570675167      0.00097323570554129458     -0.0011196365165092822     -0.0097886695939943431     -0.086067749099595414      
1220347500    -0.064687720465489859      0.14060142695547101        -0.0061316707334402665     0.002983423566763239       -0.0011606318805980646     -9.6222243523890263e-05    0.036078992340561666       -0.099886300101165656      
1240345000    -0.028464871386877595      0.1610909756041779         0.001086162290883978       -0.00018567088668873351    -0.0058150518062878697     0.0058937453099553666      0.085353054770999762       -0.075409392843435591      
1260342500    0.0028051785285803663      0.16758004460026726        -0.0043979722475916208     0.0017539968804164805      -0.00060470509218576616    -0.0019747086297246066     0.10966956597340849        -0.024762845773852377      
1280340000    0.035163574184871628       0.16125263911213042        -0.0013221999064643554     -0.0015424417925540401     -0.0035127041334483502     0.0049479253916079047      0.10501201950326985        0.032309407447641103       
1300337500    0.075845163533526189       0.14520893041085053        -0.0038057502650036251     0.00064063870786515572     -0.00012323272307376604    -0.0024400016564932047     0.061724201815007818       0.094947179024806483       
1320335000    0.08543101478820965        0.072118987726404363       -0.0010652657736333828     0.0066189846099641058      -0.0045237983447919032     0.0047075665948073568      -0.0089190076607323018     0.10049673993312194        
1340332500    0.11267278307353526        0.021597021321351318       -0.0033137220993613653     0.0047428516346023197      -0.0075852206746812563     0.00053534280786774466     -0.058959521302052564      0.072850283384411671       
1360330000    0.11326505993867551        -0.033166503987038451      -0.002384050906354344      0.0027261131363028818      -0.0079584277264398099     -0.0037338702133892922     -0.086541525573676295      0.016033564240869658       
1380327500    0.13952414765130772        -0.072088957038427229      -0.00042872152750531164    0.0052547214785339238      0.002619785027594192       0.00067272776491023967     -0.077526100525152256      -0.025106777488691324      
1400325000    0.15603378457603226        -0.09397698854055668       -0.0039457818008830203     0.0029198388023529381      -0.0044833979909617832     0.0028119515397541121      -0.06091002726259314       -0.057437738728536414      
1420322500    0.15348160489873511        -0.1735241183159387        -0.0034604665402760888     0.00048471668909708273     -0.0076465698259202174     0.00039329808076037022     -0.025570359120116549      -0.10361879724358876       
1440320000    0.14036228899200506        -0.15864823492886954       0.00018212642310324505     -0.0018261193902538793     -0.0068172131234334118     0.0013275615283990017      0.015757196218158066       -0.10374420211241883       
1460317500    0.12924802674771732        -0.17042785710280836       -0.0060532279176448755     0.0082435185106275333      -0.0082233819816137366     0.0019804390357772016      0.10206254957412525        -0.086070352389004179      
1480315000    0.066120839630475076       -0.17684890276637871       -0.0042881763123960625     -0.0067929365558116756     -0.0019287518489673511     -0.0044030014714962736     0.13223490244880004        -0.038418606533501355      
1500312500    0.029293381499309015       -0.18991895368719824       -0.0041863563731500296     0.0045123330936415584      -0.012479536752539927      0.0049982000186624175      0.13608614196828747        0.029075549220793528       
1520310000    0.010905433461366177       -0.18808429051279379       -0.0029915755002613022     0.0088254796206327715      -0.0035526714849829725     0.0011090480091438472      0.098446376749569853       0.12348319725201458        
1540307500    -0.033778171679564387      -0.1966054497451066        -0.0047750491006154179     -7.6984757881649088e-05    -0.004178208463406153      0.0056612072450239592      0.034022412955132912       0.1433657015583546         
1560305000    -0.070593195922745502      -0.18645642869034634       -0.0026617026589940839     0.0093720659711030111      -0.011773257736764952      0.0087187581347154888      -0.038894096670189789      0.1289483822486287         
1580302500    -0.066002117359163393      -0.16827004329335052       0.00053476631313690551     0.00037253851039498355     -0.00018560859339877562    0.0079078570539355564      -0.1189684655969882        0.1028717463414669         
1600300000    -0.050879175381764494      -0.12466190728344231       0.00030859332236009035     0.0020744538714745223      -0.0093734880751786091     0.0085102759301098722      -0.14073431108410747       0.011923545162889416       
1620297500    -0.062113151054918457      -0.056825347943162123      0.00019673948573543194     -0.0045205987368394608     -0.0043738046226358355     0.0026778832404263488      -0.14653083089937835       -0.043438735731344658      
1640295000    -0.054247961515585419      -0.013490991638741838      -0.0068910717309190383     -0.0013934633123831868     -0.0092641063770481404     0.0076892936846613621      -0.075721270368601754      -0.11643741462281458       
1660292500    -0.05146567825733301       0.039264112607766639       -0.0029677746039352012     0.0031144342832212357      -0.005759267901237616      0.0065155227938213673      0.0039618590483584985      -0.13520770426131154       
