! PocketVna 1.78  pocketvna.com
! Live measurements ((Reflection-S11, Transmission-S21, Transmission-S12, Reflection-S22) Linear 500000-4000000000/201 calibrated)
# Hz S RI R 50
! Hz          ReS11                     ImS11                     ReS21                     ImS21                      ReS12                     ImS12                     ReS22                     ImS22                      
500000        1.091220713429085         -0.29090909641676715      0.8183029227515628        -0.045845769982587568     1.6802528566723252        2.0695735893992757         0.192208165769399         0.60978429719320049        
20497500      0.87682449753447422       -0.62837774143714531      0.91076358877355568       0.028396401543534101      0.89069080993299243       0.029059772964983896       0.88199329527316173       -0.72052123776463861       
40495000      0.099769087740204404      -0.79301793361116857      0.96866957494187222       -0.030009534490174426     0.96785439148840291       -0.031497528853829809      0.073532738120049027      -0.86438048025213354       
60492500      -0.097402335916607477     -0.30785920515522108      1.0247370228072774        -0.16491576930323673      1.0232598256211654        -0.16098447879089384       -0.078431939930355271     -0.33008298927647983       
80490000      -0.085007599824570054     -0.057840426070391165     0.93464216499242481       -0.27868550718653046      0.93440325149540004       -0.29139154491088726       -0.057481829525976018     -0.046833901924301945      
100487500     -0.029432204115955495     -0.031187367116224551     0.91138639553147105       -0.41000149579309819      0.92439614020400107       -0.40531518623591756       -0.011601357815136548     0.030483924607227094       
120485000     -0.099980721212903759     -0.083124340207590103     0.89310081145200393       -0.42855863587861998      0.88230370791135226       -0.41501363468647834       -0.090756500967320908     -0.026448799974624619      
140482500     -0.26319788344091893      -0.10455259147129754      0.80115607259404364       -0.44991056819089809      0.78236735442141592       -0.47118449309353622       -0.24751366478534037      -0.080604073708931967      
160480000     -0.40764418051633855      -0.077995618642568182     0.81062432775961013       -0.59568585988370115      0.84303003584788705       -0.60469903768498523       -0.38307011602432617      -0.067597500567472699      
180477500     -0.47107763422855981      0.06303504238460321       0.90985927955687795       -0.72369839475905129      0.90397312106581107       -0.68033758864351568       -0.46065796460438951      0.035252433177723461       
200475000     -0.37499274399325244      0.18043928650237359       0.75872429136121666       -0.84741057116706398      0.70603229399709977       -0.82660376444753192       -0.37391309957133678      0.12318100283114887        
220472500     -0.1133077988062049       0.26838501719139596       0.35173353678003744       -0.88710831177478411      0.34652586549364839       -0.95830398875296519       -0.15132181343346626      0.21585981143723978        
240470000     0.11830844277604262       0.2009597386266605        0.32954283036286436       -0.821347152885885        0.37621186294464476       -0.79877291639785042       0.099809487491462331      0.14092075781082164        
260467500     0.30242891198859478       -0.012529218696108652     0.48346826818757987       -0.67477468261931839      0.44290911641471242       -0.63453429815369333       0.3034118512408594        -0.01482030706319022       
280465000     0.27991805099572792       -0.21141302199838702      0.49847705037584056       -0.78707571093635142      0.47782704560021749       -0.84669146587030375       0.28765769756955739       -0.18952575311189818       
300462500     0.08412152822790965       -0.33387406134797287      0.31886656283778519       -1.2146248149148053       0.42904660377386361       -1.302643559447042         0.15614620105433519       -0.31413558497075345       
320460000     -0.12896054537640309      -0.3003993746210345       -0.020331139579400019     -1.3683600247949845       0.067535763599321924      -1.2843336503936533        -0.069289524881890691     -0.26317740973990139       
340457500     -0.33254564906197348      -0.18492336346350793      -0.18850699096467302      -1.0027074629111075       -0.22302679340212367      -0.90595817107689081       -0.30441590919282446      -0.15756276809682185       
360455000     -0.45561781298695198      -0.043112986093998953     -0.20768113357084525      -0.73750614671104409      -0.25268820860390512      -0.7492331823329933        -0.41898194879603418      -0.030173698981554437      
380452500     -0.47219800084563723      0.092775620561792047      -0.20291330073380973      -0.71538291359834072      -0.19180070050252421      -0.77838931842536085       -0.48780160162764591      0.10246674239074401        
400450000     -0.4119243790127155       0.19125538330055478       -0.18331078702780673      -0.83157897118674184      -0.10505240808625572      -0.84691131396240626       -0.4295818450638193       0.17381545911684332        
420447500     -0.31304062543906264      0.16965887713373448       -0.20630638222156111      -0.9075034035425521       -0.21916125930987349      -0.85250888290488258       -0.32278265193245725      0.18242030426990632        
440445000     -0.20248378426766897      0.12174452472540022       -0.36284215867770064      -0.82846806984110966      -0.44875874568344687      -0.84060443600835677       -0.22455087972614751      0.14813837298693031        
460442500     -0.15978651434054192      0.097034738881200941      -0.57864690028153798      -0.7568076006604908       -0.57936453723103154      -0.82518765257391402       -0.18633486197279603      0.074194369900215745       
480440000     -0.20169228396846961      0.14299031946973456       -0.6712165347214194       -0.71084548086397137      -0.60442723518757935      -0.7035628880558511        -0.17851357217857533      0.062768666406887774       
500437500     -0.20333912798664441      0.2211248917793919        -0.68783634985955278      -0.59148202469371869      -0.69116392551403205      -0.52150517934156937       -0.19125046899501746      0.15675352171476095        
520435000     -0.12927010546475054      0.36922394281554077       -0.6921239128953437       -0.42143448715655424      -0.72889054715286095      -0.40669552635766831       -0.1865044191850373       0.36836143434396335        
540432500     -0.032379229817920706     0.57109436215342724       -0.69639625486703371      -0.32498279479077191      -0.69548649398519169      -0.37918211799442114       -0.14095091215628869      0.53908184999462883        
560430000     0.039207075076565401      0.66255708535075097       -0.68425471312214114      -0.33571105699479575      -0.63904066331976517      -0.34467712359184827       -0.001547380658167673     0.57285020535667375        
580427500     0.16758452542178195       0.53023424617221671       -0.6849612580507688       -0.36364278524439353      -0.72239281062190974      -0.34683281077023576       0.22127753202965988       0.60203929550022395        
600425000     0.24192982058201931       0.33308344085166652       -0.84928799657250897      -0.32537675049341863      -0.94504403456864416      -0.34837517948272062       0.23614390398725174       0.48032755235340652        
620422500     0.13319929509723427       0.13170900259291254       -1.0904126715127767       -0.11328417457396528      -1.1090630916470812       -0.096047860371473018      0.17542488521514804       0.17070387112262422        
640420000     -0.13563657087583361      0.010629715619992897      -1.122288302976149        0.20665832884900973       -1.1502337667222722       0.19942142240026581        -0.038150939150261125     -0.01248471536854958       
660417500     -0.32323394377124587      0.12998202836160277       -1.1618105842019519       0.58423534242234976       -1.0471411529200947       0.55728254216552475        -0.22941735321011508      0.0014314765732867931      
680415000     -0.22718758421642843      0.31233879232808975       -0.77796255292960259      0.95838410550822606       -0.61964109816827773      0.99271583958634713        -0.25489945358285893      0.17505792497242073        
700412500     -0.030174352839095822     0.34355603463796724       -0.10925523535748465      0.93358675914032518       -0.25513487738590529      0.97622869051154049        -0.076036735027683836     0.2194316319333309         
720410000     0.042310353077193559      0.098809126682722542      0.059886539020903143      0.82960484451429906       -0.016985523074690673     0.77014979457168409        0.03341420158934847       0.078863178943762977       
740407500     -0.30208504370303418      0.077840296140088333      0.32101314491168398       0.65196060939748013       0.41183328093911159       0.66944905202634286        -0.26023749307739669      0.035138376231564385       
760405000     -0.51040585164343677      0.59780920746164112       0.4303653308926525        0.21149881172198537       0.41735712487547894       0.25982193308295581        -0.39945588306020624      0.45506822729900298        
780402500     -0.3886146598488428       0.91076166900327415       0.29228887169088497       0.075190479595598825      0.29896415860516057       0.071054707824548952       -0.025933389160308226     0.88235199798047459        
800400000     0.056156746523066126      0.86871286335273323       0.27614568511433868       -0.057947995753963061     0.26987948086438335       -0.065188061770312694      0.28472548956769705       0.95535402020046944        
820397500     -0.024579546226756517     1.0390222186778741        -0.0064748372900759032    -0.084076843800201459     -0.019254447225855714     -0.10058858887157697       -0.16623845281881156      1.0404901128709327         
840395000     0.27279321517431704       1.228722802321299         -0.0034507616525710099    -0.0075783900471552571    -0.0010823723396808517    -0.01126518231117659       0.2801283568133926        1.0741616500131466         
860392500     0.435607450858989         0.92489538857293019       0.0065564094101811842     -0.0036828599763809515    0.0005573825425547285     0.00086605349977601613     0.67272728653986835       0.98920808049269282        
880390000     0.70704556265339735       0.61060482223579648       0.0033582230610044827     -0.0066909695060811845    0.012277931943662477      -0.0031855540993815886     0.70973309871427614       0.9286632247803549         
900387500     0.87458156380434693       0.42664094006932513       0.0071108314598537338     -0.012699465610400007     0.014072271908809515      -0.015192464562348174      0.76021585635426858       0.63497026285990932        
920385000     0.90865424804578931       0.31122959455559551       0.0055442092998784732     -0.013473920155130674     0.010331820222902754      -0.016815257298287433      0.85706672972123166       0.36399417451241572        
940382500     0.9877367165451042        0.14085571839728436       0.007059612047169395      -0.020593954286728222     0.011253294093348437      -0.020976579665261768      0.95088756719374401       0.17995011892817342        
960380000     1.053552125042831         0.055635540013274996      0.016107006322310997      -0.031016073932006546     0.011391430021015635      -0.028536543156669748      0.95856625369647175       0.057123336470278729       
980377500     1.0951396830335385        -0.02078498399427051      0.022851890925128761      -0.043444575007940515     0.016847003195301382      -0.049804777422454531      0.98030337646860344       -0.039459339308611591      
1000375000    1.0726075030771611        -0.040709147008771804     0.0329275864890115        -0.056511161894351909     0.03929473677855639       -0.072614755154268504      0.99280245459970284       -0.10860671810624499       
1020372500    1.0472598620901221        -0.082272502278503343     0.038623165435468287      -0.10630448808977214      0.041042602534482157      -0.097999712171779524      0.95916467220865043       -0.14202718612787224       
1040370000    0.99569703099334006       -0.12831086567202343      0.0096568321762066783     -0.17825338663187892      0.013601761722391394      -0.13509501148424177       0.8933753038947293        -0.21258516423487309       
1060367500    0.91262070827718933       -0.15195005396059608      -0.025005731098505724     -0.2075251473537747       -0.049047849119041892     -0.18777000140381925       0.88428374933036302       -0.23377366022870336       
1080365000    0.83913695026363933       -0.23976463086936117      -0.1026691752098737       -0.15934883533777613      -0.093815293251088713     -0.20267060857526845       0.79725538439605248       -0.22257152307627326       
1100362500    0.84224693416346508       -0.30125631241502548      -0.13842145117838778      -0.12389155888814471      -0.11227628958027681      -0.14722172817665685       0.6949107709100375        -0.30597879304718634       
1120360000    0.80193468328109763       -0.324448269279076        -0.13625771856173918      -0.11336141280093989      -0.13838031111630314      -0.10578324711738911       0.67356415932810709       -0.40567841240787844       
1140357500    0.81278420037877774       -0.39546035632905324      -0.12717100581292254      -0.095713786823764316     -0.11883833094771915      -0.083266417080361615      0.60062633975124535       -0.50679301325588832       
1160355000    0.74060309165434024       -0.41505680162267988      -0.10290997888884397      -0.10731269853232031      -0.11823247313285798      -0.094236896501675341      0.62475616544001289       -0.55370715367832768       
1180352500    0.68125833877054554       -0.49491180501571808      -0.071999722072415007     -0.10832773024535798      -0.099134276454009185     -0.10890753703519171       0.60638077308688287       -0.56159330569833377       
1200350000    0.63511398963599641       -0.55915629628089636      -0.056282481431834709     -0.12856165652386192      -0.058253250957129458     -0.14361106984765323       0.51130686338180265       -0.61063750221637136       
1220347500    0.59137948579888444       -0.61910161848001088      -0.073784348904721617     -0.19119572295890797      -0.038400750037608199     -0.17649506206925356       0.45879408539606487       -0.71079686318859892       
1240345000    0.50295012311618281       -0.55721178740810362      -0.088930786092219521     -0.33424779754345285      -0.081667710903705781     -0.27289005400215754       0.44399916228267899       -0.74508093596195635       
1260342500    0.353079906198353         -0.51115425232600586      -0.1771646961733937       -0.44219047609459383      -0.20733316765687793      -0.44951316585191609       0.42785082797792651       -0.66159247183847558       
1280340000    0.20532029746886826       -0.5432485525209787       -0.4059977961421582       -0.37562987099487855      -0.41880538022818653      -0.44817091835255768       0.32148242344833661       -0.53675665611056111       
1300337500    0.14970037103665396       -0.52788921354811014      -0.57094586651686685      -0.21097536116251825      -0.56470204183237982      -0.22078180124980099       0.19395073972359533       -0.49673792888491947       
1320335000    0.062686122278688361      -0.54512374659430241      -0.5533722262194557       -0.061126272039294847     -0.55616254718759972      -0.054908933620820208      0.10801733288569643       -0.50787339418339716       
1340332500    -0.014036016640799731     -0.60350151270300723      -0.49986064280840614      -0.0040889418056701838    -0.50039838901050804      0.0057616196932213431      -0.035184998945036017     -0.51550252148754172       
1360330000    -0.056018496786256138     -0.61932988891931817      -0.47052337888377482      0.019799490294878239      -0.47219691228594768      0.012592812497504933       -0.14037436106638762      -0.60047769318085742       
1380327500    -0.1009522557591508       -0.59880328579847142      -0.46736933803584135      0.032723453631157966      -0.46764444921939363      0.023189950774910161       -0.16572344533947586      -0.67569460773569789       
1400325000    -0.15994214667858905      -0.58715118823170442      -0.49835735982005225      0.032779220482699462      -0.51147373420243525      0.027442549928589702       -0.20641978933305832      -0.64104543157420202       
1420322500    -0.18067321792228072      -0.62647067059466199      -0.56578491688095278      0.057292588778922689      -0.56983663496745873      0.049865728925141725       -0.20890410565019801      -0.69019110327533073       
1440320000    -0.16803067383625694      -0.55806243151058998      -0.63907116736079483      0.1161755134795211        -0.65630413938318366      0.129541743421208          -0.16410790961168428      -0.649950850386386         
1460317500    -0.20015522812858538      -0.57295711042292241      -0.65639569452392799      0.31282564163278498       -0.6659858477343894       0.29944076019675875        -0.090828261281395664     -0.57955853550576197       
1480315000    -0.18891294779999096      -0.619775596979942        -0.61850585002290892      0.52488983797744559       -0.57656559557040332      0.51786591485046118        -0.036569636438531603     -0.52533309470292067       
1500312500    -0.20676959461643368      -0.62352447591921578      -0.47657723836297         0.54179998623628622       -0.47231824090441615      0.56114171326710549        -0.022708791046328131     -0.46702650453043792       
1520310000    -0.22771098763063261      -0.59893143651906178      -0.28526147866690321      0.47269063544956214       -0.32777256971789909      0.45979251699106127        -0.085808311135060031     -0.35404898544953417       
1540307500    -0.32435209374322593      -0.6711720421471904       -0.2649740323088578       0.42662274037722425       -0.28553583473432975      0.42268790363945602        -0.24735651410663936      -0.31100257335517723       
1560305000    -0.32830706297637546      -0.6271012811441814       -0.35884483891960478      0.39110980808283846       -0.37913559509268313      0.41792036203652633        -0.43191364347480737      -0.31409703472146699       
1580302500    -0.32998549595012705      -0.4492647875820982       -0.46458833434166569      0.38865083071335588       -0.47479312151135139      0.4275592211108955         -0.54843540969926352      -0.2856151057286932        
1600300000    -0.30982581822627525      -0.16256606314032543      -0.51524290197211819      0.55268220842992766       -0.51970456461398062      0.57844986886359218        -0.57305419879490938      -0.14344163142013827       
1620297500    -0.053494283039215586     0.1192785400125254        -0.34227506163250998      0.89778056647031235       -0.34123074943480941      0.88250286839682435        -0.37219046239597159      0.052983250453297381       
1640295000    0.23906347708698319       0.10136001447942029       -0.022978864097575227     0.95928463894543403       -0.044761059645484033     0.96732721313921888        0.075558201668091976      0.029757625650191289       
1660292500    0.39444671573366796       -0.035184745175387111     0.0085089336925512991     0.74062141860774977       0.020057401847301305      0.77612834241731599        0.36409311415204693       -0.19009942594577345       
1680290000    0.4270323202840009        -0.16307715753804738      -0.023167243074819148     0.64216459518464875       0.0053666420433650724     0.65623969791195835        0.4557773799411684        -0.35978776526691492       
1700287500    0.3579043635430893        -0.20741045751115103      0.01523337343689333       0.76364571902910039       0.058649721564319357      0.73723990986786503        0.46133118098807857       -0.39184718516188416       
1720285000    0.25671039805407453       -0.20184516512216541      0.061901324400360232      1.0042112986464815        0.050122917454613523      0.96349566853652624        0.35080170204761679       -0.31034298382114733       
