! PocketVna 1.78  pocketvna.com
! Live measurements ((Reflection-S11, Transmission-S21, Transmission-S12, Reflection-S22) Linear 500000-4000000000/201 calibrated)
# Hz S RI R 50
! Hz          ReS11                      ImS11                      ReS21                      ImS21                      ReS12                      ImS12                      ReS22                      ImS22                      
500000        1.0116817972063095         -0.27128124384072505       0.44859920076321114        0.4172205506594705         -0.9318984519496315        -0.49710912361600246       -0.066974279541596543      0.37005977512232457        
20497500      1.0673697432761906         0.031112728648797189       -0.025890437500998131      -0.0016772644626873953     -0.013529326169487042      0.0014445378318970815      0.0096680627267841084      -0.23778320635068628       
40495000      1.119964887714253          0.074350421544125869       0.013082759191896531       0.0053530823787183053      0.00012877947138640044     0.0027788169116967631      0.084901902874839702       -0.10565879602001882       
60492500      1.0832658511522943         0.10955251332489277        -0.00057131228153082766    0.0026790608442111186      0.0044730250298330408      -0.001589745314220449      0.11886311517932686        -0.028012490965413899      
80490000      1.0863550732232194         0.14440922795837172        0.0025249744211499649      0.0030194039546283854      -0.0021599070451164505     -0.0028730902849716643     0.10913279599515764        0.041347983421499569       
100487500     1.020204491529827          0.16583850724585369        -0.003621116293319369      0.0010856156127402514      -0.00042811956911680037    -0.0034429009315935944     0.054630245085192305       0.10117704576982589        
120485000     0.95462939033883809        0.12609250723971699        0.0034458416418269352      -0.0027404847993908379     0.00026710034032466552     0.0013603413070267106      -0.0080906367533097236     0.091653885838015467       
140482500     0.93429054059607208        0.099803778476678873       -0.0022830813946756513     -0.0003886610354188303     -4.6853554676990435e-05    0.0026893003736874559      -0.051952045914741743      0.081888270222172932       
160480000     0.89149405178145047        0.056943169096480874       -0.00080176094472299731    0.003877993310593424       -0.0013741490876321067     1.5694587526502183e-05     -0.070669161262162758      0.043109411697921068       
180477500     0.87116520300753708        0.014131430170312778       0.0017141367203178219      -0.0027006756007092892     -0.0001513594600806007     5.1238672015419853e-05     -0.097087442736689525      -0.0068579089599204758     
200475000     0.8965810715086453         -0.02384451870804196       0.00047268274028842901     5.3898512536925205e-05     0.001597555335659105       0.0038890956384025864      -0.088343675084966516      -0.050492521477030622      
220472500     0.93537880368318238        -0.066038431769409045      -0.0037169903911746546     0.002836223068341475       -0.0036913157404581749     -0.00038878350255291136    -0.041321004589298535      -0.098537704078539123      
240470000     0.97270658311773284        -0.064086192774797351      0.0010639130286777228      -0.00056106952725426334    0.00038251209475537748     -0.0029055257808241045     0.017980012665427144       -0.093946207130232148      
260467500     1.0498457650946245         -0.041516768017784159      0.0038507429155093822      -0.00055086285470252344    -0.00068821506038130721    -0.0018093432762288089     0.051073761615742175       -0.071092229043429017      
280465000     1.0884447446299557         -0.02565863761698247       -0.0016185509361909282     0.0020400363001907341      0.0020377574642065203      0.001638876654255077       0.075290680340918278       -0.035141427129817271      
300462500     1.1136208741868934         0.025009644368986624       0.0053525533980863889      -0.0022005278266534274     -0.00084807384036328479    0.0039063783887026329      0.084235951874861464       -0.00076825297414102726    
320460000     1.1015442311514649         0.077573953342280857       -0.0024641751921096692     -0.00012927310744468445    0.0049894090167647521      -0.00071814041526097527    0.067712572484467839       0.04066567543656692        
340457500     1.0467449769328969         0.10528503502729816        -0.0048223198454444144     -0.00076558764064108909    -0.0027534555522652059     0.0037410831183103785      0.02717361208090965        0.06726528571780753        
360455000     1.0083593115141776         0.07579346883968506        0.0024719069759862153      -0.0010150300477402901     0.00010454292424204926     0.00068585535485481011     -0.0045417185320113214     0.067890859137914941       
380452500     0.98527564628258912        0.07421548134779192        0.0021116329512497864      0.0044134871731217103      0.0020760054734984697      -0.0014974061995143765     -0.051111932485252802      0.045511886866662368       
400450000     0.95712693577623198        0.05708704688657338        0.001902128596610639       0.0017239979752112099      0.0027300309363567981      -0.0028263921260735432     -0.055159280743903832      0.0092707778432309148      
420447500     0.94369403823437792        0.037048442160961988       -0.0032480281621935529     0.0035082144376152769      -0.00080147112814985347    0.00010552019548548692     -0.072853335893090704      -0.027943530119789579      
440445000     0.96186203179871799        0.001447013209307876       0.0036069092869394945      -0.0018573810842447522     0.003158346430008765       -0.0049451726963216343     -0.049110235522685723      -0.05084395362847758       
460442500     0.99613810280739057        0.0025472570147522015      0.00032541640970268592     -0.0028880127069398002     -0.0020792646203088602     0.0015864128095165386      -0.018757364695580075      -0.056136574998932244      
480440000     1.0411427265405642         0.0011921460201307031      0.0064102602622776199      0.00043156183822145938     -0.0011968021334658218     -0.0025629660576990186     0.040607375373241821       -0.062376272347306368      
500437500     1.0401425094548999         0.02558256737705657        -0.0071287667971900942     0.0021575954042657619      0.001084316233915689       0.0063141425203944333      0.061410779369016517       -0.032347881427979182      
520435000     1.0659603489635658         0.038419038984664186       0.0032546801809603225      -0.0013002232414634446     -0.00095665866838906901    0.0024027369452576815      0.074593950945642667       -0.0031111598372006604     
540432500     1.0695099956341869         0.057109050274265119       0.0020024494203652321      -0.0015605774325210258     -0.006771418293459887      -0.0051501608421179084     0.058315566516939345       0.050489780132346472       
560430000     1.0542639680246126         0.093882617388686085       -0.0022682978478717735     0.00088225942592981728     0.0018874699481227996      0.0026452674947626525      0.033608104212198779       0.055096003197123204       
580427500     1.0045595256714617         0.083672012290030684       -0.0010851979703002314     0.0052826451318704762      -0.00376134934405398       -0.0013012768467169291     0.0093627925398174754      0.089165598050189546       
600425000     0.97502052747894052        0.066655375901161662       0.0031312569344403886      -0.0018373609591110535     -0.00028030535216677107    0.00072823167666528801     -0.036884306777716286      0.08105200615925609        
620422500     0.946822368821014          0.050699540376739662       0.0053812163510073606      0.0018981584861112589      -0.0071855114727933682     0.0020464836549724903      -0.069501265319529174      0.033621871440011712       
640420000     0.93348374549548285        0.015485131137542173       0.002260541665279915       0.0020761101056651285      0.00026777403004225007     0.0024768246906332727      -0.099898660432558586      0.0026172812899430114      
660417500     0.92482912301662457        -0.0033657198845168648     -0.0016877655089436831     0.00068185277051943769     -0.0020991581977663084     0.0012928895581668881      -0.070558732849938174      -0.05364155931346095       
680415000     0.95726213381993941        -0.041239210419438059      0.0031476881211768082      -0.00027570246396198635    -0.0046392077607837843     -0.0037027510362695835     -0.029884744743613696      -0.072395410096740748      
700412500     1.0136295112916449         -0.034392805727306561      -4.2375052414383387e-05    8.2330019128058396e-05     0.0016491950488706736      -0.0033440137796194374     -0.012297487974928342      -0.083698186620227863      
720410000     1.0414763215422673         -0.042566687334720209      0.0011153092262539386      0.0011142607547184522      0.0006633016142798692      0.002383483266460055       0.019839083500238979       -0.079883309077049866      
740407500     1.0900935960172757         -0.020005704790392594      -0.0039368426190823985     0.0016024731976236493      -0.0035379382080368417     0.00034429263263674643     0.053753466473342337       -0.067664543487101644      
760405000     1.1508835473924899         0.013725573527556156       -0.0041163223752195156     -0.00012443358484373623    0.0038757998462699032      0.00066033589678173195     0.077537833428318409       -0.028020348769209103      
780402500     1.1186756939033196         0.07601296172427012        -0.001973990837657643      0.0011202422318179854      0.0030587554430014196      -0.0035843631986011396     0.08115142880374919        0.018517412150687175       
800400000     1.0629756145150979         0.094358835598394461       -0.0016837568729780193     -6.635127223903782e-05     0.0010665506349294468      -0.0010926024356952859     0.065836999511261179       0.05164283507589832        
820397500     1.0469712275117613         0.11241870886267973        0.0013536512280616585      -0.00087267135528816086    0.0015022879982091357      -0.0051207968380917396     0.017784138268398319       0.079163526827156633       
840395000     1.0106776262302615         0.12721562645458293        -0.0015836679426528863     -0.00013116346055394611    -0.0030647636003694727     0.0011981061078543138      -0.011851988403505662      0.069858019743402749       
860392500     0.95276998013239389        0.094615057409769734       0.0070623882400639229      0.00099043434191350998     -0.00019720639287210641    0.0008732307618035262      -0.039880019345384862      0.055767796489242127       
880390000     0.94593098217269433        0.04175140301563527        0.0023170322711191429      -0.0039582639494796148     -0.003007256467854632      -0.0050879149315397072     -0.063976925818459901      0.025951430182354875       
900387500     0.94859624651386076        0.010266619626275736       0.0040878981244847042      0.00036508422609056592     0.0047339070365617518      -0.0033155334267499265     -0.076572988343500445      0.013690951999613869       
920385000     0.98815457625448311        0.001264361784965796       -0.0026913483302268052     0.0054725668617297369      -0.0026520716866503908     -0.0036081674919231721     -0.044925485366066477      -0.022683966387758395      
940382500     1.025438382637474          -0.009809933369575646      0.0062084866952158129      0.0037776336340046373      -0.0018282517628688702     0.0011809841011717675      -0.016957284155216797      -0.063017517666617826      
960380000     1.0761012873668669         0.023467972809308471       -0.0014460800412292901     -0.003495539939160176      -0.00066083343708171066    -0.0027873854083776098     0.01297624499479849        -0.075597957435262417      
980377500     1.0972269710026932         0.027228681462540875       -0.00060238948318809419    0.0015301655689346997      -0.007324567901544364      -0.0042875964044809039     0.054422132755089961       -0.051981231606285531      
1000375000    1.1049891557956026         0.075351625561318913       0.003852014921483501       0.0034746290568468279      0.0040771402345243192      0.0035162669065094913      0.072499292649869387       -0.02217237809245682       
1020372500    1.0823036988599817         0.11165617821442161        0.008977140692942075       0.00073657004594205764     -0.0034115419962557998     0.00086439246796020462     0.081198108647491135       0.02214042996817581        
1040370000    1.0291961922184949         0.093652118223466543       -0.0014729527228032056     -0.0022688990654812164     -0.0021869543667132683     0.00022390897686590786     0.061744290652727199       0.07573986021226993        
1060367500    0.99495845218511125        0.073054056767244205       -0.00070741641882543092    0.0029825312560701612      -0.0061110314438714971     0.0012238119336678171      0.019122166969706086       0.08963405847351516        
1080365000    0.97931887329561074        0.054349387475956738       0.00088353518786427499     -0.00017695501390923839    -0.00064372458424312711    -0.00040065477653428698    -0.019046130248797265      0.08817113211287407        
1100362500    0.96145538518393192        0.035228461633541382       0.0040692007237577389      0.0048020244174770332      0.0022309517317221934      0.0035222353352367076      -0.066646802504100267      0.080736317476233721       
1120360000    0.95429526861390335        0.0073386343538342017      0.0024448159433613902      0.001453021257168153       -0.0037904395689071541     0.0010891625220095953      -0.078872977906871478      0.051673379326582197       
1140357500    0.9724797393979393         -0.014676916224533761      -0.0043078783265943403     0.002523540402364586       -0.0041306309616327159     0.0055134941846144538      -0.10060542328034566       -0.019323660397247703      
1160355000    0.99432662079703205        -0.012160720379556799      0.0014923297892744972      -0.0017712133794435172     -0.0064796675789458146     -0.0083002488988735759     -0.084063597483863994      -0.051552309949799403      
1180352500    1.0386684608109964         0.00063978785829237874     -0.0013185323361584111     3.8176486396409662e-05     -0.0022351659463024209     -0.00029523178809813338    -0.056540998976595688      -0.082369434990559723      
1200350000    1.0633023522594995         0.041197325927157323       0.0033630408536967117      -0.0016165265458378652     0.0022900649570563912      -0.0016613066916148637     -0.0074534785533656245     -0.098111752420993653      
1220347500    1.113399451200324          0.047754956823451544       -0.0019657049715412194     0.0010705914880904336      -0.0015995842096771466     -0.0031517386530225434     0.046453641832029782       -0.10131570491343396       
1240345000    1.0622716939677324         0.098710722505647552       -0.0010690859695695542     0.0037199607445050119      -0.0015639188158347501     -0.00027010091867517278    0.10377371328327996        -0.076970649834705585      
1260342500    1.0855672622023422         0.059976622925347854       -0.0017329052423122829     -0.0029385158211273949     -0.0020555281765402148     -0.0039532750786967809     0.13789932761374868        -0.027730340434465522      
1280340000    1.0621260029430424         0.099924405205340711       0.0023901101336747687      -0.0067137790198846543     -0.0040902995342568232     -0.0057517999032450163     0.11220716350222362        0.031268265676199475       
1300337500    1.0109360516921322         0.11182136223265438        -0.0013404395709155944     0.0024117125750276872      0.001385656669913815       -0.0024617825179470906     0.069970731931947847       0.12924585657112317        
1320335000    0.99250742169520845        0.086021600551046518       0.002097654156719005       0.00576673818976198        -0.0015103883139087409     -0.0035595486935213784     -0.0032806113753528054     0.13104384687936346        
1340332500    0.98426205931451805        0.061046484022149142       0.00099166082663001325     -0.0013635882293978755     0.0016379564879361391      -0.0041378161512381295     -0.077448097166032265      0.09615526455890433        
1360330000    0.95200061253991464        0.043103414514738009       0.0024848739493062845      0.0023450864074706121      -0.002674281944886934      -0.0020739496976520761     -0.090747788642807567      0.032507643580505036       
1380327500    0.9822307028973678         0.013327938869244133       0.0067403380020142007      0.0030573711555088004      0.0010328777367587276      -0.0005466236747747776     -0.10679935851937374       -0.045864961717317507      
1400325000    1.00530701296127           0.0056946842844821169      0.00032766416439039206     0.00015900777209707783     -0.0072737641566977054     -0.0017865318507697039     -0.076933485177478667      -0.066054711555158019      
1420322500    1.0658542077467574         -0.010728209959970604      0.0024491382692337165      -0.0042140938291726666     -0.0039185738492362775     -0.0029543821658309247     -0.048613254202507478      -0.11444380753641274       
1440320000    1.0774077498648111         0.035308563631794916       0.0032906070465306488      -0.0045169616750845853     -0.0010644552251120097     -0.0023173670074034241     0.013576051508282151       -0.13842593086193566       
1460317500    1.0909549032934833         0.089900384001891959       -0.004093476381830898      -0.0011871808723451966     -0.0060291716025914861     0.0043657908533714781      0.10548645707119474        -0.1082225446555025        
1480315000    1.0558773775048245         0.096019791729198792       -3.569056377417561e-05     0.00016993336209570649     -0.0040135992229517591     -0.0012527516610349593     0.15657442296356597        -0.045826205996336321      
1500312500    1.0565273921530587         0.10138189287815214        0.00014010227356068322     0.0044580998707956275      -0.0061910182991064102     0.0046077579718636933      0.15896836701113135        0.045211763410930486       
1520310000    1.0293684649833028         0.094347330104993368       0.0014820235449066316      0.0071530214238849799      -0.00033284589750587411    0.0032371457029257505      0.11398911833997644        0.14026978516849978        
1540307500    0.99153237022854723        0.064642311566007055       0.00047942608018239222     0.0030524167559370487      -0.0017652564026798621     -0.0018119878299251602     0.0477846940998733         0.19029002479105164        
1560305000    0.98480865228217829        0.05719745037147788        0.0014130372895026732      0.012544433123302024       -0.0044888422845053046     0.0060621527516855327      -0.056071024022027675      0.15876093815233353        
1580302500    0.97511531192213141        0.033700540169484886       0.0057980915756908665      0.0037505130395764624      -0.0010934122222531011     0.0032558989768100952      -0.14994576330147727       0.094414728968085129       
1600300000    0.97578790974903007        0.016777303744088555       0.0041221334190544344      -0.0017107021691830141     -0.0030591968721443031     0.006318211558928517       -0.1701696937718333        0.017670356144399674       
1620297500    0.9777325456512187         0.030550758541481562       0.0048885437305817283      -0.0093631016894573701     -0.002173158661813192      -0.0042990114522685977     -0.15103668448902186       -0.070923399647057045      
1640295000    0.98956008241764004        0.028159687714322302       0.00117704268465344        0.0020616878966026072      -0.0055401070033531986     -0.0057497101015034436     -0.096932421561086196      -0.13135162109258261       
1660292500    0.99181004220060565        0.053069172749031016       0.0025426075142041629      0.0047364004048349269      -0.010195500464921308      -0.009098723283770838      0.024249286142507251       -0.1703663051889136        
