! PocketVna 1.78  pocketvna.com
! Live measurements ((Reflection-S11, Transmission-S21, Transmission-S12, Reflection-S22) Linear 500000-4000000000/201 calibrated)
# Hz S RI R 50
! Hz          ReS11                      ImS11                      ReS21                      ImS21                      ReS12                      ImS12                      ReS22                      ImS22                      
500000        1.5292827928724926         -0.30619774363179236       0.34720073652538813        0.045566370677750143       -1.4746788618916113        -2.3747650054473128        0.0066286488497173477      0.48074690758335831        
20497500      0.99066160355639032        -0.23730893067162104       -0.0098626176611233459     -0.0023150284242932436     -0.0015921588338916029     0.0080259622747099087      -1.1855033102938792        -0.4360316729726621        
40495000      0.88467587153038652        -0.57910257619227412       0.0014265172505701449      0.0006915239180489964      0.00076121431552131065     -8.9103001544432883e-06    -1.070600522183462         -0.13276867824944441       
60492500      0.7419885057710075         -0.6817004622928069        -0.0040557976368794085     0.0034129523195414097      0.0040848005491213946      -0.0032266077130422631     -0.96500679550215318       -0.079000556243006892      
80490000      0.32729503354763251        -0.835294526440445         -0.0012458244474931475     0.0068357475872568713      -0.0024505508945667771     -0.0050438663875960457     -0.9532208965979081        -0.018358101157555776      
100487500     0.11015525010376226        -0.98851474304874665       0.001163685792101424       0.0018752660527450687      -0.0018396692479330098     0.00029478749725384798     -0.96054219697697441       -0.0080038404506878828     
120485000     -0.13560929548866857       -0.80149284994175019       0.0016317911715217309      -0.00076961016388326373    0.0017881826303743356      0.0041344846569350288      -0.98621366384503961       0.022299315438098408       
140482500     -0.49844855642242669       -0.69778387763538086       -0.0019663088210411729     -0.0015558218168405592     -0.00053251408620605238    0.001694784721058644       -1.0040052220198017        0.012695676454079945       
160480000     -0.67912418258737761       -0.68129510237279889       -0.0011624393563951527     -0.0018551940902070835     -0.00040234952383462751    0.0016964580462898954      -1.0311434657667049        0.0011883995343036876      
180477500     -0.73255747434552554       -0.43617969383580973       0.0019534022965258771      -0.0025370982408587958     0.0020846079292597326      8.0963444526791357e-05     -1.0289969645480619        -0.017847585761649378      
200475000     -0.83870560197266153       -0.1685527257894289        0.00032271124086239393     -0.0018246295540951154     0.0039863258374383884      -0.00036722230687077033    -1.0324641238927725        -0.02274679638616784       
220472500     -0.80576584498262982       0.058311852442898923       4.0758110082575154e-05     0.0019646836951533191      2.515729153003278e-05      0.00084038693672862483     -1.0216575303232216        -0.035533031671458201      
240470000     -0.73514019234953498       0.29724848754438793        0.0010292266473511536      0.00072492387745819078     -0.0028138939449666466     -0.0023029619100762735     -0.9899882255297433        -0.034413675130379295      
260467500     -0.54687871224210527       0.41914461499140943        0.00068461558555574426     0.0011606934416613435      0.00090225087522941103     -0.0021358852602374211     -0.9714511215543945        -0.029129049645830161      
280465000     -0.30614712008014405       0.61261840098694542        -0.0013572185839635391     0.00048147369140589765     2.1809973043840954e-05     0.0033778984028088473      -0.95633594437536895       -0.016137190755579563      
300462500     -0.14065123926700362       0.77489358149988208        0.002893558142721121       1.4301016101075762e-05     -0.0019925549095395124     0.0012103416529899078      -0.95160352433381001       0.0099847292752147238      
320460000     -0.045357140251528108      0.76322710380884096        -0.0019451131851258609     -0.0006208609771346361     -0.0019434895352792223     0.0011425110522125513      -0.96122811575230704       0.012853617891190229       
340457500     0.14624754958263608        0.62819443223119509        -0.004745951997154706      -0.0016371452547433443     -0.0060989514474443663     0.0029235401313852183      -0.97036643518661636       0.0054177563982898873      
360455000     0.34898461034016631        0.52722112959067402        0.0007555043417827391      0.00088184011693754846     0.0018022625386641406      -0.0039517471029805584     -1.0073452041376991        0.001696654434331733       
380452500     0.48956004360686084        0.43999137259844634        0.0022673673500002663      -0.0011167236487463388     0.0003337298617302115      0.0016728865854403587      -1.0237045556618003        -0.014720083515630778      
400450000     0.51675013790592828        0.28029697230990092        0.0043072967611426901      0.0016947425180489336      0.0022947334540301149      -0.0020247446427005822     -1.0332754430172473        -0.044322207769087768      
420447500     0.53449527085161352        0.092704192934966304       -0.0065677381816983023     0.0059005607789549457      -0.0027888236250833282     -0.0039440431476766733     -1.0201725689187018        -0.046706326142144046      
440445000     0.52814236826646155        -0.067012264462698659      0.005674678659471355       -0.0018782131108769726     -0.00026468594174947595    -0.00587534110930073       -1.0231375689857731        -0.057399307244610738      
460442500     0.48357210295345221        -0.22151121703470211       0.0021899726942374003      -0.0065357215780823116     -0.0030699094576168936     0.003963347571670349       -0.981922810245483         -0.056288890652573642      
480440000     0.41591936073654417        -0.33023814175028426       0.002027017252710572       0.0030345770813518373      -0.00091994670966203188    -0.00084104343453311834    -0.97105349261996809       -0.047160805817835015      
500437500     0.33845319292379605        -0.37332852894248375       -0.0035287429066974945     0.0021003694187096814      0.0026175406365902608      -0.0053362385607129787     -0.95961236416950946       -0.021205074960294005      
520435000     0.19966235639841648        -0.40870030872412733       0.00092937785348059599     -0.0072932159000889648     0.0040820300477174293      -0.00059352075613979503    -0.9464630558041025        -0.02153378052241663       
540432500     0.066052990224213626       -0.43754058277846514       0.0042232676003728497      -0.0047027869951918756     -0.003314450797675604      -0.0025909275413159554     -0.95535527359669148       0.0083173288960425151      
560430000     -0.016406049917538437      -0.41670758147841341       0.0012711857722461231      0.0034289718432223585      0.0017781992577229606      0.0023761790729280273      -0.98954254231464311       0.011267402803453671       
580427500     -0.15764309945580179       -0.33801498575251793       -0.0055022713729466757     0.00090810107710680014     -7.3535511397628014e-05    -0.0013094642929589141     -1.0027783778032544        0.026501890815681342       
600425000     -0.27097636422149451       -0.32758727942275084       0.0019544585928981608      -0.0035823995658025003     0.0040255031414837645      0.00051230664048350989     -1.0107253319695577        0.018243794227597903       
620422500     -0.32492453919251074       -0.31067441269420082       0.0082745627965422862      0.0058080441102868925      -0.0049935354264964297     0.0033643151107142369      -1.0371317501384931        0.0082010671475665035      
640420000     -0.35971558009345034       -0.21733729053879594       0.00045483202234644225     0.00060947303183728695     -0.002794495290519654      -0.0020246042135526067     -1.0325178656238228        -0.0093066090610707738     
660417500     -0.384328572014143         -0.11547790852535469       -0.0047269098386647891     -0.0027474321663855986     0.00033635204118603597     -0.0030747891885471992     -1.0373361909583694        -0.036998561003158854      
680415000     -0.36719143125736414       -0.043038701146145254      0.0054140812249139107      -0.005692210305459135      -0.0026358613967001694     -0.0068478494874012205     -1.0258034124130881        -0.050987268622581357      
700412500     -0.32386970657116715       0.043860396598909369       -0.0024763568426828314     0.0022376910045532232      -0.0042331901749935738     -0.0047229860066790958     -0.99432174974457554       -0.045661255695290406      
720410000     -0.26673039252834962       0.13355751788526654        0.00061111301725727432     -0.000474221486135771      -0.0030821706759958305     -0.0003183526249343027     -0.98489153529904994       -0.03409375472199546       
740407500     -0.16238332402845876       0.20655638863979345        -0.0049402900178875282     4.1415112562131629e-06     -0.0030490603157908715     0.002465720165736218       -0.96264288890816685       -0.031588713120517344      
760405000     -0.076398764320601609      0.28773183986932432        -0.0014039924200722502     0.0034383086906459594      0.00077552924114763925     0.00061983585323192598     -0.95515293712799387       -0.0070197874562999349     
780402500     -0.026135259031646027      0.30033513476558654        -0.0021603781150287662     -0.0024265061743498871     0.00021886488516043322     -0.0044683930276186836     -0.96679948331695398       -0.015040441199949288      
800400000     0.087788167494692884       0.28198730576753167        -0.0030019980649496568     0.0018214826956622992      -0.0042121581887186541     0.001852815057387662       -0.97801574226927224       0.0038914043032524056      
820397500     0.16151348336525559        0.24854539907867459        -0.00028125991619256459    0.00012765684208732156     0.00138941135793575        -0.0091139633520132043     -0.98057466694543882       -0.00039350820236127822    
840395000     0.18801445093185482        0.22183614317208203        -0.0009422210248774814     0.0033483317166860577      0.0030267857483784705      0.00093824806614226607     -1.0127920548060279        -0.0036972911443544009     
860392500     0.24006432477005338        0.12938126333870734        0.006435710795852285       -0.00020184916899807097    0.0053005386669737926      0.0018556566307705435      -1.019021925230168         -0.0086028969596767379     
880390000     0.26392131209872433        0.045259499312894969       -0.0033261263723329431     -0.0068291862284630194     -0.0038286038001280032     0.0018242213244907925      -0.99750995208727034       -0.018436098484702818      
900387500     0.26330682362868452        -0.018002748689484704      0.0009264565423440491      0.0003445842046229831      0.0049879017256287206      -0.0014601176503522288     -1.0103127766116093        -0.048926443725053177      
920385000     0.27335879751576597        -0.080131054116545003      -0.0039350554987663223     0.0052104795400563907      -0.0020194809128617052     0.0016450316875386594      -1.0055057307723581        -0.049928118709158871      
940382500     0.29360169247436141        -0.13353075058997294       -0.0010388840536008268     0.002343359411902236       3.7415778098414375e-05     0.0056271270261859518      -0.99185153795552572       -0.075732483217919963      
960380000     0.26493077811192106        -0.14057470573494227       -0.0024602598262489696     -0.00077970717550754104    -0.00042954241475675584    0.0017172150193995497      -0.94879088108575882       -0.059617788911594097      
980377500     0.19114184876988052        -0.15887555288333799       -0.00065067814578274256    0.0039797105687790083      0.00047067590609526565     -0.00049616034280193879    -0.9470437942954032        -0.036882060370169681      
1000375000    0.16334130999345919        -0.19349593599660511       0.0041102386835409083      0.0023083953937524299      0.0098522566620214604      -0.0053562969212713144     -0.94743665266258514       -0.037763002404563428      
1020372500    0.10058550007068788        -0.18927533876122649       0.0041943786516446804      -0.0024647649770564882     -0.0041184315129461626     -0.0018917439700756966     -0.92431932664193406       0.0041643725603801706      
1040370000    0.025422244213665499       -0.16240425277243703       0.0016317521569118875      0.00361276350718052        -0.0026483253337153236     0.0030648924016445215      -0.96611963779903065       0.0048485851067942981      
1060367500    -0.054540943277709975      -0.14634046765890285       0.0010241901268232172      7.6457341426493025e-05     -0.006512634847157894      -0.0056864588589042005     -0.9666573113034086        0.005753599910924086       
1080365000    -0.10654681850944553       -0.1481492568189284        0.00017842546228115654     0.0027412043219922858      -0.0022927063477787835     -0.0031358953681663191     -1.0266019530313351        0.032428146773881228       
1100362500    -0.13421989685969274       -0.13350582728394403       0.0028036924637689286      0.0016866387464963665      -0.0024053986363755673     -0.0039530332041914397     -1.0144848053457893        0.0061603203530144271      
1120360000    -0.17220430620508653       -0.074932268219464859      -0.0021064527108355839     -0.003917829241822054      -0.0041108227541613298     -0.0013385815313014813     -1.0417623952887365        -0.019138593789474769      
1140357500    -0.15653841197414828       -0.043808077517081496      -0.0037336592844512736     -0.0048283536946911593     -0.0037947589739342211     0.0012465650614774323      -1.0537354083051624        -0.027434946253575662      
1160355000    -0.14511374974467658       0.0088951975528155525      -0.0033735024787972011     -0.0079841798297797181     -0.012096182268316484      -0.0083953682095256211     -1.0342576027497932        -0.040584666714801355      
1180352500    -0.1240155888950735        0.058694835314054075       -0.0025592070014851353     0.0021471310594487103      -0.0080407440100573133     -0.00020875135369393432    -1.0027747615570344        -0.046513972839288154      
1200350000    -0.099304293304477945      0.1006021527397357         -0.0022231180617511832     0.0012942229733644275      -0.0018474266419527428     -0.0049824558094928185     -0.98849124634096508       -0.050950458981085918      
1220347500    -0.086261186214538363      0.13433429095994615        -0.0067120244846196955     -9.7048018419504633e-05    -0.0044598248073906702     -0.0052362982769867637     -0.96116381984303401       -0.053772791118105269      
1240345000    -0.027735523380925008      0.15844514442300753        -0.0053189519322935797     0.00074613659038788062     -0.0082836725050071721     0.003441091662658876       -0.94123383901229829       -0.013821958794896338      
1260342500    0.018469792136963762       0.16299720431558609        -0.0097361125048692019     -0.0053545854787094343     -0.0088258806108507601     0.0017494008212806283      -0.94237629267746503       0.014909031616426132       
1280340000    0.048870998120904646       0.14610140719832068        -0.0025797837765998127     -0.00030314581931851738    -0.0076316614547954405     0.0054452758238372522      -0.94356503543910553       0.031606176988879083       
1300337500    0.065614167018923655       0.1284457638093226         -0.0067093602180379368     0.0030803839843053685      -0.0052776279376239108     0.00051666029309099272     -1.0055422082675263        0.067247066789561494       
1320335000    0.099026150060527729       0.086086649119134898       -0.0039751147812434511     0.0077196384037636302      -0.008548829060043079      0.003174704671119799       -1.0410263117264045        0.021792042124731473       
1340332500    0.13049411169725653        0.028186646381910249       -0.0010298602006604297     0.0028785669606123969      -0.0090706209622427748     0.0015043497426897019      -1.0441231904439146        -0.010166833895370984      
1360330000    0.11349837688003338        -0.022207923131973326      0.00033369178478209169     0.0090269425329345676      -0.010842456798990626      -0.001908124164850552      -1.0456569602351129        -0.048342270673643564      
1380327500    0.15392501326366034        -0.066838788552909034      0.00051819597231423319     0.0038847133879021515      -0.0049837853371457212     0.0016941477857391459      -1.021106639880079         -0.069631821821814682      
1400325000    0.14824897545693982        -0.091520312913256657      0.0023531745866965156      0.004364316636746979       -0.0097839596026169044     -0.00025663537541158459    -0.97797286726020616       -0.066327422122656757      
1420322500    0.13988068907114487        -0.18053237365084343       0.0043314757688171623      0.0023449453769550143      -0.0075257982932574567     0.001257278111126669       -0.96965423296657227       -0.094888536285308495      
1440320000    0.1434627935205646         -0.15264616034182396       0.0036525913537000122      0.00036068237567501418     -0.0058580005036886337     -0.0048972542883045757     -0.92695059784156153       -0.043246870456180454      
1460317500    0.10518909319766015        -0.17619528200046555       0.0033351100414785615      -0.0025960506520504318     -0.012265905573101437      0.0062781976023188815      -0.91389532723765665       -0.020795674231550786      
1480315000    0.063203257416019037       -0.19336785501236442       0.0017653282243227024      -0.0079828545218979755     -0.004112783735087621      0.0033716106760372667      -0.90362192719177536       0.0072529666992124471      
1500312500    0.026151782225283506       -0.20006312421167086       -0.0050406490520024504     0.0036579523581262135      -0.0055667122008253682     0.0055144982211088583      -0.91101023922108904       0.12070829774028888        
1520310000    0.021683992878990751       -0.19722907896704292       0.0027299679707338928      -0.0010441313706967387     -0.010883034285512254      0.0020515955570563687      -0.97538444919723055       0.11486202843094648        
1540307500    -0.018911429242842018      -0.20255277167316643       0.0001725532583370985      0.00042846318986913454     -0.010828086404673828      -0.0038107832889085337     -1.022297800883621         0.11807494052011192        
1560305000    -0.043630304302824989      -0.16336654110182555       0.0030067644401921148      0.0058148271860257918      -0.011710407599628591      0.0031857286613456272      -1.0549926740620148        0.077265765357730068       
1580302500    -0.056946768230424612      -0.14494851025980302       0.0048343189703882929      -0.0019134732084287529     -0.0019913602309711053     0.00053895044380399221     -1.0939540615814936        0.035208419116354826       
1600300000    -0.051023289760417409      -0.12567369407844667       0.0094278656159472226      -0.0041367019897503117     -0.0031719748862282073     0.0034788184137794368      -1.0989963341400006        -0.043858833845976906      
1620297500    -0.051702956508445544      -0.059554703892927538      -0.00030979782257787241    -0.013949644546493245      -0.0082933786529020299     -0.005331787129335303      -1.0514755338843818        -0.068022657441380821      
1640295000    -0.054484298788016632      0.0071451820804632202      -0.0051413903604111732     -0.0054873701840353747     -0.012931567946969197      -0.00064639591648434785    -1.0297977080827923        -0.074424853376091754      
1660292500    -0.054391547053974885      0.043470465109989698       -0.010123788710828831      -0.011434144544934513      -0.015903394527284318      0.0055521795091640616      -0.98197434200613509       -0.061728620742841418      
