! PocketVna 1.78  pocketvna.com
! Live measurements ((Reflection-S11, Transmission-S21, Transmission-S12, Reflection-S22) Linear 500000-4000000000/201 calibrated)
# Hz S RI R 50
! Hz          ReS11                     ImS11                      ReS21                     ImS21                     ReS12                     ImS12                      ReS22                     ImS22                     
500000        0.72352076597620807       0.18103421846782386        0.33832587245568513       -0.35935740828457635       -0.61629886746560592      0.91095289974410298       -0.033113056588644732     0.69549723269137598       
20497500      -0.26271119055569164      -0.80098962603344659       0.19264146230533113       0.28320757433079208        0.22284584537581709       0.28390508566543049       -0.39395244659505141      -0.8391217570703734       
40495000      -0.44039546697832577      -0.35179704600255118       0.52757886511658014       0.27144125400488645        0.52393717197949441       0.2767808487474735        -0.432076528411449        -0.39606488033007464      
60492500      -0.43915187213750256      -0.080698665204880574      0.62077680387767398       0.045231064550235546       0.61684126366862668       0.047430517971226584      -0.41197616261099712      -0.12700209736865523      
80490000      -0.41670267391876736      0.11011492943212378        0.54987193000260137       -0.10469597874171338       0.55528029466022688       -0.11208686299946131      -0.39241631684542755      0.088087644122936126      
100487500     -0.41969471546003023      0.23224945017746659        0.48908754983789737       -0.17727473170138347       0.49655529774082768       -0.18078866914350539      -0.4318487361147153       0.21154818944198919       
120485000     -0.47852699775371349      0.24313787951759366        0.47592139179979348       -0.16304465257381309       0.4706732694242487        -0.16049836480992327      -0.49716707490555445      0.21532862441528072       
140482500     -0.49957044365370834      0.26027831287391112        0.47247513256959306       -0.16894547091305781       0.46511395360347724       -0.17607045047354286      -0.55490030222603681      0.22065145273457284       
160480000     -0.54855109131720636      0.31678929952491053        0.5319930560657079        -0.26171684908520321       0.54206020050483805       -0.26200712756228955      -0.61916579430791729      0.24766504438251971       
180477500     -0.59427945305394358      0.36085682315194201        0.62723777657871871       -0.41491223422949636       0.62150850974099769       -0.38450042438956622      -0.67103439302799694      0.25031878224557153       
200475000     -0.49490055971062047      0.36595726152210406        0.49654344617068807       -0.58271382286556195       0.47158759749250206       -0.56475284870616116      -0.57211376685992288      0.26118207069651944       
220472500     -0.28775086343175732      0.42082950873677138        0.13766322737026845       -0.62767867049615345       0.13570161523913868       -0.68146910054529042      -0.41170934918076907      0.31737277384911117       
240470000     -0.17606487072242669      0.40038200312171024        0.071866863525123628      -0.55757805491949031       0.10160621997173638       -0.54320996410124356      -0.28949375906183761      0.26650383393541255       
260467500     -0.066575615179989472     0.30954130028211962        0.11314720488935848       -0.42695764225940747       0.083088672150067863      -0.40985769519374482      -0.15249463447298495      0.24019940963694858       
280465000     0.0096224703714819296     0.32069508742127717        0.056362477606151082      -0.40563313828096303       0.039290030342647185      -0.43827335567377823      -0.10230941000423532      0.30837987059288396       
300462500     -0.0055385144166040798    0.40358658915379381        0.0012183455010398212     -0.45919587126515826       0.038598980810696959      -0.48619867644587789      -0.15429828231392065      0.34801342943507263       
320460000     -0.10412192491530076      0.42799854244463176        0.0012594006848161566     -0.47423669045779293       0.037847732018281108      -0.44156804804179423      -0.19867707197892856      0.39657085303462758       
340457500     -0.14289957158205091      0.40574484567118363        0.0064449849684151831     -0.41875211436914883       -0.0047746473274885952    -0.3774661119698004       -0.23478143010472113      0.43890528204917351       
360455000     -0.11855365138108206      0.42525845026257714        -0.0038727135370905494    -0.36859987041386771       -0.02385552602539245      -0.37736919517572981      -0.28002057389726731      0.54832125639229723       
380452500     -0.106124988178531        0.47303769411203744        -0.025387059978465475     -0.39803556538366797       -0.021297781306141173     -0.43279559960450759      -0.37775481364887359      0.59572872132234722       
400450000     -0.094236677175592531     0.45737998782947092        -0.037635895760914882     -0.4945572179340969        -0.0017439689394148162    -0.49953639253330134      -0.36238568209361194      0.54388305791584535       
420447500     -0.053619566940286842     0.36230740823427249        -0.083651729224671428     -0.54069502895457067       -0.096810249057023096     -0.51244239416735349      -0.25383958704972909      0.50115758744727534       
440445000     0.067269469282287206      0.28911779336030935        -0.1885303295719831       -0.48600342311806088       -0.2466723787531673       -0.48761256362571204      -0.16904479412945927      0.5035366639411869        
460442500     0.15219189884909134       0.26309582929385789        -0.31015181648804013      -0.42756023687256939       -0.30896504756547494      -0.45442891029247501      -0.11725388508470039      0.48799707305497725       
480440000     0.17226203656073974       0.25010310917791206        -0.32886111940796969      -0.39733624046692856       -0.28662834255387254      -0.38806741644772802      -0.014946920279267159     0.41593079145990125       
500437500     0.20762709718478678       0.23838515910982661        -0.31516943678398746      -0.36688502988959354       -0.30845478579823449      -0.32496082516793057      0.094956977863902475      0.47054920321788607       
520435000     0.2623505642215968        0.24015910226092929        -0.31800811187514599      -0.31474031492592786       -0.35131066366665947      -0.31587908944899468      0.13642237423960599       0.62374311504881275       
540432500     0.28210963076866186       0.31473325540970182        -0.36686972522141376      -0.29189303146695544       -0.36791630881192627      -0.34856212703065681      0.11085715132033566       0.72022756998218462       
560430000     0.27347035177591961       0.34171370152999941        -0.40292947617770575      -0.31926672005201651       -0.35544277043413519      -0.32161864004057378      0.18125645065669138       0.66945746625518332       
580427500     0.27028208215235583       0.2437450340343052         -0.40383376469416082      -0.33378293944835374       -0.43462752531530258      -0.31693927768591945      0.35006065682392895       0.73376864190038016       
600425000     0.29611139378320223       0.1420609827411618         -0.51035073287610921      -0.30680588189480135       -0.59291659774265992      -0.35507804901080359      0.33967015094461578       0.72079935159100494       
620422500     0.24550883149532565       -0.023053120757054277      -0.72195330449110595      -0.23148129925210142       -0.7329311794055462       -0.2201671756356349       0.2766785173658613        0.49688198869579353       
640420000     0.14683065152140984       -0.15118242511623389       -0.77953059540631842      0.008421232177736427       -0.76216839456838048      0.026522825035729777      0.28360419912307178       0.35996720559771905       
660417500     0.043105097106418973      -0.18095404094432319       -0.7191592700426801       0.23034603023656855        -0.65019561160474248      0.20850936989901095       0.26273445483612695       0.27453682567060461       
680415000     -0.015665238991560426     -0.16627257649002783       -0.52985839279402369      0.30890380162352771        -0.48136086938787909      0.29827004728310902       0.27005960240346455       0.21794660688089082       
700412500     0.014901188178880755      -0.13897118406662345       -0.35475375562558809      0.30405606473069863        -0.39728976473081001      0.2951227902345166        0.36207734934123387       0.1969349903608745        
720410000     0.080590348215291055      -0.071125624563126294      -0.3066634176868443       0.25203736117396081        -0.34485298733030961      0.22246277163586933       0.5095968321777623        0.19474496689631285       
740407500     0.12629039922185153       -0.030588207260624826      -0.34929716882443118      0.18881616263560969        -0.33643364525195524      0.20852760838192899       0.63866571046812548       0.19231245730184018       
760405000     0.14876052566978978       4.8626062692920057e-06     -0.37714392086830895      0.20762094566687031        -0.39231966438190097      0.25332840036340643       0.74472355785193534       0.090339913331381944      
780402500     0.11595708423605873       0.014015909319864855       -0.40376570220588537      0.32354866274682564        -0.4199660395462595       0.30413498045655657       0.8092785258031242        -0.016412435352160741     
800400000     0.039734221978710245      0.014775373127328508       -0.39419370688298305      0.44424705455723357        -0.33595810809884713      0.40486524083596104       0.72172719758022563       -0.12754483161897875      
820397500     -0.075075763194657252     0.020209155761275428       -0.27498319243763275      0.47205936724293523        -0.22500413529807115      0.51831083868841121       0.62514165533809363       -0.18466738244890998      
840395000     -0.15225571483017483      0.045118966438814218       -0.10498341275594292      0.4913586542700506         -0.17131431098244007      0.53065412490729236       0.50725399963137141       -0.19713573908513038      
860392500     -0.18485461920551782      0.081022964944854142       -0.029785879153212944     0.52288790208081171        -0.07290791414358605      0.44915970865625438       0.40228847415649094       -0.23432875741853962      
880390000     -0.13213121133146555      0.0809977465290391         -0.0075011417128659514    0.48263734615721193        0.049751081948464761      0.43187603574384087       0.35531703642229095       -0.3113540082596275       
900387500     -0.029611083962102294     0.095047071539666017       0.061861428726126419      0.38861005929430148        0.094788238604369579      0.43799188089033125       0.32499103439917221       -0.35659235541941192      
920385000     0.026813539860907881      0.084165785809721463       0.14161540909664322       0.35007128461865977        0.09545454235057152       0.40188364923998449       0.26922798228225558       -0.38280908300111016      
940382500     0.10171620462938154       0.095880152025304949       0.17603023460341308       0.34884721197227619        0.14429849423169816       0.32880098641818672       0.22647351523397399       -0.46137841313171923      
960380000     0.16778445165917777       0.11840627953888629        0.16452245780168037       0.328813016382973          0.2075383119846935        0.29359148438076876       0.22145218302091235       -0.49386678888814572      
980377500     0.2402694791385302        0.18620872516934928        0.19404587511874849       0.25830940489270315        0.23765903350100825       0.27511998195847509       0.23562888130063112       -0.42708020676122815      
1000375000    0.27870390833905029       0.25659942000409469        0.25728615974321706       0.18757785992786719        0.22737262095025171       0.21460305152890422       0.17589242359254878       -0.34443772750290658      
1020372500    0.23598976760727772       0.26319628974132425        0.26114169258559211       0.14055928592936057        0.22933182812963537       0.12608265968076368       0.14152337548262853       -0.28934958705446939      
1040370000    0.22464096154396909       0.20763613209278547        0.21961939995176791       0.10711556430788745        0.21962041657652062       0.082099428943488206      0.10991510319455373       -0.20502579873634422      
1060367500    0.23014923522612646       0.17061569004533361        0.18342251461652603       0.074268802503725223       0.19803215401731675       0.060761989919370915      0.037167520508021308      -0.14778366416077857      
1080365000    0.1858783094182396        0.10634412250058163        0.17078854721759862       0.055580006914354704       0.17222631204960767       0.063218243656369549      -0.065492777164868163     -0.10562904673047109      
1100362500    0.15291404703275061       0.042283227990361272       0.1814060512266632        0.041117118488707312       0.16688784098177403       0.047701828549185026      -0.17522822947898339      -0.13438505448181598      
1120360000    0.15247877416357269       -0.027586378205582275      0.17407049516326115       0.026165444004353347       0.16509218070168782       0.029111455945723119      -0.20740689641398005      -0.17581440804017143      
1140357500    0.18010128290819702       -0.086310460100904582      0.15690883892918442       0.0010127773093717167      0.1582114340818675        0.0070960322891937657     -0.28513314134815299      -0.2251699821361309       
1160355000    0.19043788261174965       -0.091432989875226092      0.13364782699839922       -0.018143608216477473      0.13115023627564318       -0.023038127894177612     -0.23800328239705529      -0.2478810779662283       
1180352500    0.18312239592173529       -0.098450120171298394      0.11864659228779789       -0.018060046358973975      0.1150113375950905        -0.021745082242030953     -0.22072219433450752      -0.25099393647613422      
1200350000    0.18309628059950148       -0.10397277902703608       0.1044278711687356        -0.015724224415859068      0.10087252790860342       -0.023032064977798559     -0.20037571375495714      -0.25639719582320658      
1220347500    0.16554476837374552       -0.06826999837092719       0.094552147859368024      -0.017284991697913782      0.094984080713534841      -0.017680644783573961     -0.13281685184773911      -0.27007523778000714      
1240345000    0.13191475512018067       -0.063638288009518498      0.091905655041085124      -0.025378511463045549      0.087451924303392742      -0.019130661214806881     -0.057358191371407387     -0.21763730760781747      
1260342500    0.066739110384201245      -0.054175037056464648      0.084791559529756907      -0.040687654748280622      0.080684667298687868      -0.035369180563970162     -0.034072873185774337     -0.12196046064082164      
1280340000    0.018925624139507404      -0.080838946027894557      0.074510548670637625      -0.042387573799308437      0.070357801430317626      -0.048799119789370293     -0.044202532182929383     -0.039254906202572611     
1300337500    -0.019431194009151123     -0.085305090447823653      0.051244558454214981      -0.036206858456676129      0.055456499153947868      -0.045174852634343281     -0.11632799298339568      0.043631300151472471      
1320335000    -0.070134630370697879     -0.12245692347984323       0.042195218732310955      -0.029838315265117741      0.043161048680436492      -0.033071253506682594     -0.19949796675908968      0.067160154945753905      
1340332500    -0.069746006476123543     -0.16955023178950085       0.040338114662530622      -0.036042101983725254      0.032901374718756558      -0.037287428785352336     -0.27863906294344559      -0.01076300041982531      
1360330000    -0.073161040046055018     -0.17953665342169597       0.036475926000012031      -0.032703794524386258      0.035075495795172482      -0.038226781424154803     -0.31559924372137305      -0.093948940154170671     
1380327500    -0.054243356233293613     -0.16650674077084379       0.025510196671217667      -0.021490841796522591      0.02793185357436279       -0.030892617520802152     -0.28158831226002723      -0.17363943753784447      
1400325000    -0.069240292245565396     -0.15722270168207098       0.017249957850865676      -0.031419772907278536      0.013966608469811537      -0.022301764357794265     -0.24836335319111319      -0.18210465611086801      
1420322500    -0.05298966965218839      -0.18162255601958793       0.014663298505190559      -0.022405436818066719      0.0092500264359820141     -0.02262413922801226      -0.19153042216613622      -0.25333100175908635      
1440320000    -0.038579203087334826     -0.1001691810626863        0.0064800038386815502     -0.021262232050129455      0.0034319000458808689     -0.019817977892566459     -0.10254198775702807      -0.25069286202919372      
1460317500    -0.0861193728533797       -0.072997097619045534      -0.0051136201366257135    -0.015428474053160212      -0.0035521518199533629    -0.0097824340178748973    0.0052661259705173739     -0.19362724552698601      
1480315000    -0.10224714167706957      -0.058528370143655487      -0.006963858921742035     -0.0095542002026683288     -0.001040766957632536     -0.011163003948662825     0.049275193277804767      -0.11740881748796934      
1500312500    -0.16589932152202461      -0.02121030772396067       -0.0050242671282705979    0.00071030848689317908     -0.012265104447255279     0.00036617920209647893    0.063464330080135731      0.018692134825742397      
1520310000    -0.16795827924860357      -0.0079436586128309953     -0.0057912720689816798    0.0083286293832195938      -0.013725058396721519     0.0072696351017512593     0.0093964173098839716     0.17293181473099881       
1540307500    -0.20722025135585181      -0.039458225623485194      -0.015327844848177738     0.0044740164978309049      -0.017903997318300481     0.011198409694287381      -0.12337668869397257      0.20770162790607594       
1560305000    -0.17437039220139836      -0.045124431590098449      -0.010368213972865812     0.019590100791945272       -0.029084532542935068     0.026157460468726718      -0.2719484187331872       0.21360665065847037       
1580302500    -0.1652323973142103       0.0066164357020977674      -0.019086756812102243     0.02381317982144017        -0.018564612210552667     0.024298151305505947      -0.39402991789915481      0.15807111141936467       
1600300000    -0.13111513729977398      0.02306639068503331        -0.015583484765817026     0.029185880867781958       -0.025080106928401912     0.040039152287879368      -0.44356165463743863      0.030532816426844585      
1620297500    -0.089039247325966658     0.075295478500504151       -0.013963755441246981     0.04638027495911725        -0.017821023885884343     0.052629355752196669      -0.40776579463666746      -0.063883642759009249     
1640295000    -0.082030610518804142     0.12773282299073793        -0.008588856775992507     0.068109356083799602       -0.013334473643795242     0.067268099370717427      -0.32868230460531239      -0.10183803180955607      
1660292500    -0.0770507545589873       0.18125121812274458        -0.0062984493722651009    0.071019571471340401       -0.0061413997387660081    0.073941570670770437      -0.20752005563892528      -0.12493585461828945      
1680290000    -0.066263027251825243     0.2103879199837892         0.014579133018960154      0.068824375950637548       0.0035125843427281046     0.078350153527468769      -0.14780416136403962      -0.032950292055978582     
1700287500    -0.044529622658927889     0.24872543879256748        0.02875549642971529       0.085008943973237994       0.032071450327946484      0.089279544665872818      -0.071127014603392769     0.064355954714622493      
1720285000    -0.015262538656108032     0.25934140652883197        0.03610846094449377       0.094386168639484652       0.030549451103017902      0.10825870088823844       -0.034292304990253701     0.21135160030125577       
