! PocketVna 1.78  pocketvna.com
! Live measurements ((Reflection-S11, Transmission-S21, Transmission-S12, Reflection-S22) Linear 500000-4000000000/201 calibrated)
# Hz S RI R 50
! Hz          ReS11                     ImS11                      ReS21                      ImS21                     ReS12                     ImS12                      ReS22                      ImS22                     
500000        1.0452697463782648        -0.37700877860689563       0.76632451148485925       -0.44355613671085375       -0.4478628797283945        -0.26046770883478176      0.040229343491224492       0.41691822907988513       
20497500      -0.3751612992531374       -0.72660409109821855       0.18862359304127474       0.30077391521092778        0.19389078466584603        0.302342349642163         -0.41220279115614356       -0.69378746300175131      
40495000      -0.40905666031531879      -0.32688136762945386       0.50839701522752678       0.3037971959670136         0.50556207221316307        0.30676836362449383       -0.3886273853614477        -0.3709051973206417       
60492500      -0.42222829263266387      -0.083456120449811211      0.60342307740319523       0.1200994954156193         0.60382168017376137        0.11640652548344459       -0.38963769525830988       -0.13421208072783455      
80490000      -0.41001636797943886      0.096593225379579747       0.5683894035069379        -0.01543026295765974       0.57379302739724758        -0.018043603642235631     -0.39035811122192926       0.074670382135973962      
100487500     -0.41797633682797075      0.21979927120918313        0.51756904454597552       -0.060220691324562765      0.5230566642364034         -0.065279905256313997     -0.42797468289916535       0.19806223946992974       
120485000     -0.46476446269412752      0.23216452464194151        0.49974339877054108       -0.050949459075602506      0.49501875646804927        -0.048579464847347896     -0.48897071960672445       0.20312747683937302       
140482500     -0.4803612241576658       0.24048731638079224        0.51957212364308925       -0.034121733747480579      0.51256829079174326        -0.039921192813499616     -0.53230067036571027       0.20356503343956456       
160480000     -0.51559237803459479      0.26356658869831501        0.59603702058909536       -0.057000411661245039      0.59213374691613718        -0.053612905217987068     -0.59528193838613219       0.20179036083601304       
180477500     -0.58580649399921814      0.27505248017721134        0.70246150520351069       -0.15060628570976259       0.69657162475977374        -0.13632551820980471      -0.66196614304993151       0.17619807863240461       
200475000     -0.56169523730969417      0.28070617142143367        0.72378578400287974       -0.32558912118138988       0.70674565221006536        -0.31167526018910668      -0.62581465753786603       0.18505075113020367       
220472500     -0.41293596511460728      0.39011245718474619        0.47654909587078054       -0.49660603731281411       0.48078795212490955        -0.53737846814127643      -0.51739687421928893       0.29291159075831164       
240470000     -0.31015949827005379      0.44268173174492864        0.32925361118236823       -0.49939153574432404       0.35946806577272139        -0.48875583084171959      -0.40000968023397393       0.30251681476004744       
260467500     -0.13676343801278257      0.39632083861877221        0.32269243581458323       -0.35636243964951037       0.29810479911202725        -0.34062771522307689      -0.21297038360398718       0.33363195439491511       
280465000     0.0099737153003653812     0.43700624211228434        0.28256070013839235       -0.31189796804956793       0.27049492406623926        -0.34043631725323292      -0.11912850942598217       0.43734315400523976       
300462500     0.037333332736870978      0.49614308848092531        0.26542105407682626       -0.35055218906730057       0.29930636685024875        -0.3694243261059601       -0.12471181891873945       0.4717651148124361        
320460000     -0.021607170429581365     0.48411120941644953        0.29039899830539045       -0.37337845956572802       0.31854148564212847        -0.34652582555425049      -0.12664756200533075       0.45850421866018398       
340457500     -0.0329799466825247       0.42458819145920573        0.30345610289026709       -0.34278639221064433       0.28574713247138656        -0.30944545441430465      -0.13877273549086985       0.4615365550634955        
360455000     -0.023613022482274992     0.39937766554070575        0.29098407773439811       -0.30318933034364853       0.2714679348211545         -0.30912516288719377      -0.18179273429067319       0.50126347223967904       
380452500     -0.044259222030429264     0.41256514209860168        0.29137711624049367       -0.31635765479376915       0.29728683633993286        -0.33838470228900458      -0.29420711733979699       0.49956972663234617       
400450000     -0.07333387870887155      0.38355102626419574        0.33041130502101196       -0.38636388582034042       0.37298207256622984        -0.38881041839248182      -0.32354223173312446       0.4368118998580916        
420447500     -0.061042508324488889     0.30977204120108459        0.36378319467916809       -0.46208263315143711       0.36101225169732593        -0.44744541231025076      -0.2820833250203259        0.43091113233599926       
440445000     0.056028540221269532      0.28545762404343045        0.30523684482438257       -0.49634404489508493       0.25362445974027081        -0.50964300807732466      -0.19813903158540874       0.47253237138866011       
460442500     0.15777784382107804       0.28504252568550803        0.17763240544099171       -0.51819452753531536       0.16615587583872027        -0.5619948186345346       -0.14803195589299054       0.48977628505841286       
480440000     0.20786424965321237       0.26405115194017809        0.12352109656882775       -0.53420989980046729       0.17928472430081974        -0.52022751078126117      -0.0036114168954669841     0.4186043054671017        
500437500     0.25000324172035721       0.19722126730985476        0.15402415173498088       -0.52170299984652091       0.14784159857266949        -0.46718631708991304      0.11552739384399448        0.45445409208120441       
520435000     0.27862579409837684       0.18381724069492419        0.15283987080399336       -0.48236371882536666       0.094364282445603798       -0.48548635728737227      0.15198617497102726        0.52042724793528494       
540432500     0.25783822676153578       0.20213494837752816        0.082848889560430405      -0.49096862488598075       0.097150576602878347       -0.55133091682702473      0.10266950762712113        0.55796641820650372       
560430000     0.18860710458228375       0.21495849779553736        0.054372174189257862      -0.54922998461588046       0.13293464048362247        -0.52577618656039848      0.11140565230679271        0.53755657444557825       
580427500     0.11043114238010229       0.20117500091746546        0.1245926880669664        -0.55766127155519962       0.098072063352785815       -0.50492056879211356      0.1470785202481889         0.65597126287472196       
600425000     0.098940936921965775      0.21232128066557343        0.13708156405810304       -0.54940159622636286       0.060559413121552969       -0.65783528618118159      0.1243954182756047         0.77335245820392318       
620422500     0.13054714230913006       0.217677938367493          -0.017426901209743242     -0.75032004479754588       0.02376233486240938        -0.87698311006844365      0.13768037160196803        0.66384954060208967       
640420000     0.18280237938629038       0.10771952689965154        -0.31286987801504096      -0.90346713608491158       -0.26653993544375043       -0.768460511644668        0.31473275114909044        0.56102266970276393       
660417500     0.23555353624132028       -0.036177485701367897      -0.46232666046381515      -0.60905557819769562       -0.48190656040902025       -0.49545898961567736      0.4209818604160564         0.43007725579754019       
680415000     0.20254269805246924       -0.18328352987135285       -0.42232764980233573      -0.32090776383258324       -0.43414028241853958       -0.36400949186633424      0.49310950081100974        0.24494788147823349       
700412500     0.17527340188829221       -0.28731625084555651       -0.33767652021729655      -0.23516978367528779       -0.29521288647777749       -0.29053144276222359      0.57935065474161929        0.085402063357829558      
720410000     0.15243813380927285       -0.25779136283174919       -0.22828140357111781      -0.25531383354078002       -0.21696692384745558       -0.25108629972943286      0.61850781877883765        0.0053324066056086349     
740407500     0.092685797007096962      -0.20589558784664985       -0.16234958658937154      -0.28031245845449443       -0.21047773967523964       -0.2890618505003465       0.61872780602962585        -0.062729087452826848     
760405000     0.032383386322169354      -0.1600187264029401        -0.20619028692021962      -0.31074021251381245       -0.18773120357482179       -0.35010601860974933      0.64925424629412887        -0.071962944798319828     
780402500     -0.0075095838569266375    -0.07745884970668572       -0.24666394231988353      -0.36021468468656703       -0.2152102110976741        -0.31588058254104612      0.65502078422873078        -0.055714102074385576     
800400000     -0.070732622822447924     -0.0063566870000065067     -0.24744415149345167      -0.30966714764594044       -0.2785741170833077        -0.2777165804256076       0.63687988249683969        -0.073359430351280619     
820397500     -0.13318231269014716      0.023383540365404163       -0.24996195643357491      -0.2447227438266259        -0.27232613077838097       -0.27910540826450231      0.61552263026238463        -0.11053724920185097      
840395000     -0.16227878331523915      0.04961108823446269        -0.26313722646929527      -0.22358263303481005       -0.23166129754027243       -0.24072729818319588      0.55031776708167002        -0.14682380661760008      
860392500     -0.16849739868031         0.050919633502423345       -0.22548205382260578      -0.23816824187176086       -0.20379189721415178       -0.19968367128981318      0.45675494280008883        -0.22499854618403248      
880390000     -0.13616057803655168      0.030629895029654054       -0.18347302054163303      -0.24105687767555323       -0.20808260735149611       -0.21676016832998909      0.39249855649451032        -0.32488814896017482      
900387500     -0.063021109191382471     0.042547769029240144       -0.1672378052284077       -0.22278934259862015       -0.17373618143138106       -0.26166315191220207      0.36675430637377099        -0.35170237496526296      
920385000     0.00039156802424588564    0.049448381439339432       -0.18754739410131926      -0.24514396960845997       -0.15488831861891536       -0.29368209785430355      0.32365086542916205        -0.39005726944676333      
940382500     0.094819798897651353      0.072285719703053974       -0.19474356533501902      -0.30459731811057389       -0.15982786818053918       -0.28051925653482668      0.27785220271895827        -0.46582394051620152      
960380000     0.15598477010991507       0.1057818838201231         -0.17519164340632801      -0.3653916135058542        -0.21417743167884878       -0.32400791384832678      0.27427366581026119        -0.50751155879813248      
980377500     0.18716157169473188       0.14596520530464629        -0.21677827468951577      -0.36607672496390253       -0.27734389830592454       -0.40110937668864577      0.27476047002264675        -0.43926248490355574      
1000375000    0.22718461426001271       0.22925443525982478        -0.32524337080317145      -0.34012165479573248       -0.28280268209963355       -0.40601863245683784      0.20460522480865584        -0.36269798628872418      
1020372500    0.19543542107200654       0.27166887738641282        -0.40950673300283164      -0.34401513078060447       -0.34088616091394519       -0.32603683808538775      0.15395548905502285        -0.29227014186764833      
1040370000    0.21051304028001383       0.23480602270991757        -0.40186657523785846      -0.33786363901792149       -0.40063718380498353       -0.27024066092639609      0.12118100380646867        -0.19826770556391993      
1060367500    0.26339224447883808       0.20111497225788735        -0.36632409750598777      -0.3082684947161316        -0.42771067039816052       -0.28628089542598972      0.067992059486953485       -0.099403995012039004     
1080365000    0.27708559117094594       0.13059965336094159        -0.40370025858459035      -0.27542169689857499       -0.41661933646293092       -0.33062240033500118      0.029285640750036198       -0.077238607586787855     
1100362500    0.26936437034159366       -0.0025058211809926849     -0.49303515007811649      -0.26933138718728128       -0.44557454446290029       -0.29623191580125535      -0.035935008922076975      -0.12459657536732206      
1120360000    0.27238418116013641       -0.11106530214491321       -0.54303863050375067      -0.24911273442875026       -0.53348111117667552       -0.23508188343524092      -0.071073074714670892      -0.24277811288443649      
1140357500    0.24407322226874589       -0.2154600055502971        -0.56913382399069823      -0.17242574849363115       -0.55127766990789162       -0.16793724179642061      -0.206502472565671         -0.34579173505938221      
1160355000    0.19444257218627706       -0.21911500563593078       -0.55243102428990509      -0.15101180418927823       -0.57141692793306764       -0.1249017441946494       -0.20645945904112073       -0.40065209630541221      
1180352500    0.108609622167349         -0.21634294550237321       -0.5308163680897745       -0.11746923376251255       -0.56239815187877262       -0.1071331851061674       -0.25301575222289774       -0.36778691062841506      
1200350000    0.080780390702782867      -0.16480006252971463       -0.54556385858656098      -0.10432170571618295       -0.55160333911522841       -0.11634750746694061      -0.28821921965427283       -0.34231985590829772      
1220347500    0.072482507860200329      -0.063147812707155207      -0.61389657785830121      -0.086712225710600749      -0.59063188226186281       -0.092857651255947971     -0.23553980954127979       -0.29615231474526865      
1240345000    0.087688179740931321      -0.0068838435124971989     -0.66369334123140422      -0.030906803344276597      -0.65303632338305284       -0.03837656504883627      -0.14361594817356274       -0.16681943121907283      
1260342500    0.090783944469602182      -0.01910124052997713       -0.69643088795994279      0.052269509661019058       -0.6833699571573969        0.052920785250995507      -0.062680328520914194      -0.070890844467375952     
1280340000    0.075538499044017007      -0.091193874605484962      -0.67074361438991226      0.13584436694038915        -0.69159276501857925       0.16117028399680783       -0.0073611807863138449     -0.024748597488087037     
1300337500    0.037267309014614967      -0.14688763828523277       -0.60792529394460015      0.20295063815052553        -0.64560705952829944       0.20034725266543224       -0.049078676388888826      -0.0042123401692065552    
1320335000    -0.014323318672605556     -0.19203740261454166       -0.5579472306313138       0.28894436258174461        -0.55928800571435711       0.25088632200078798       -0.15756281799304453       -0.052279117098406186     
1340332500    -0.073974650479914944     -0.24945450292571342       -0.57219171307355843      0.28708355494425841        -0.54662805241690082       0.3059483267799134        -0.26976336114002269       -0.10871425708207968      
1360330000    -0.088045416981215568     -0.24821022112064003       -0.55104100414593138      0.28330080059316637        -0.56796679880619816       0.306128068966594         -0.34022724937372539       -0.19449670844699793      
1380327500    -0.095673524860291265     -0.21089400902923905       -0.50956698982765447      0.3358898873230598         -0.53347261619272579       0.31839745215603238       -0.31915869776841421       -0.23648791632545041      
1400325000    -0.09517745327902162      -0.17205098186534085       -0.51652529454302665      0.40776503781608231        -0.49865088989925338       0.39382292400312657       -0.29035673044138444       -0.22587851570171713      
1420322500    -0.052771118636196969     -0.19500435808792119       -0.52302277996181767      0.41624416512846774        -0.51720524616305008       0.44453021077263255       -0.20515599989916494       -0.25514345291794072      
1440320000    -0.025651446477355216     -0.14858018994122513       -0.44932910839694346      0.43668703191421548        -0.4825238241305882        0.45598766653810541       -0.069959896108592559      -0.24484094079328181      
1460317500    -0.047288622951961783     -0.17511902725275166       -0.36692853027911165      0.56842325357181234        -0.3720583643652467        0.53739935421800666       0.056710895045705971       -0.22592520350003545      
1480315000    -0.10591407354957068      -0.18970734155642074       -0.34376873038120714      0.64934875850462792        -0.30004941160483867       0.64428611107820644       0.10144373108873188        -0.19331561730610317      
1500312500    -0.19387577192519961      -0.18495906738929277       -0.25395378076325981      0.57671529429034596        -0.25659833129184578       0.6026563207403437        0.074084716209381465       -0.10973925625884665      
1520310000    -0.24909806783837962      -0.16145451878273154       -0.12684204481449304      0.48482740877834979        -0.16370147781104771       0.48623691386442136       -0.032382274761256248      0.020326799197034177      
1540307500    -0.31527908665696869      -0.14289503427364975       -0.13376205065809638      0.45949294525466922        -0.14471699023924872       0.4711402384934944        -0.22616564313259963       0.12401560162136631       
1560305000    -0.35577343743149598      -0.084842812878772031      -0.21251409435168075      0.44998401758594353        -0.22107255611745291       0.48285565631013749       -0.36897830220760525       0.16027310209853518       
1580302500    -0.25975221248538621      0.014954721145808227       -0.25522279798171527      0.4511804297155439         -0.25064817449544091       0.48032747987430818       -0.49620836355827724       0.15190124938793667       
1600300000    -0.19989524197139472      0.071440568009708633       -0.18271479166927504      0.55305196585899585        -0.18749966338549376       0.5549860873693252        -0.50586284888576416       0.11171512674735093       
1620297500    -0.070256587570464213     0.11216401596869423        -0.033840295895714467     0.66988624788549966        -0.03917695111846007       0.65118212210750814       -0.38949027386315238       0.04087532084969326       
1640295000    0.0012120080865744187     0.10988037465919066        0.0781991662988233        0.68323575696430394        0.061693997812758763       0.67733464714205383       -0.23285775736785899       -0.034040598694414823     
1660292500    -0.004555121550230825     0.089611731225208852       0.096537793215826576      0.57500441878123443        0.090355510484389556       0.59379532666113044       -0.071941933168310615      -0.13316347064121692      
1680290000    -0.028276238975888976     0.066263043149654435       0.13339575112634747       0.49843935027140029        0.13752014191760584        0.51543560420052459       -0.036187543779763763      -0.09990958777142997      
1700287500    -0.047238358244493697     0.10352570506342035        0.219599313338495         0.51225172806202879        0.21899410291329552        0.50633964665408904       -0.02878175731366062       -0.038758977567490104     
