! PocketVna 1.78  pocketvna.com
! Live measurements ((Reflection-S11, Transmission-S21, Transmission-S12, Reflection-S22) Linear 500000-4000000000/201 calibrated)
# Hz S RI R 50
! Hz          ReS11                      ImS11                      ReS21                      ImS21                      ReS12                      ImS12                      ReS22                      ImS22                      
500000        1.3877968055083938         0.14573779252886734        -0.021696276677363187      0.0036828937975756037      0.62773569130203455        -1.3400592870353949        0.052764457017733545       0.45362361387228833        
20497500      0.072384993624883001       -0.24631041360527048       -0.011942266624448777      -0.014227875460352564      -0.0027222150282123587     0.013608677223998625       0.023063186723652603       -0.25775438025140956       
40495000      0.052653764351052471       -0.085209146479425651      0.0072143218100355344      0.0013130113718437047      0.0054736949516117463      0.0050174072506490126      0.094918006678163344       -0.12722978020354003       
60492500      0.093445348518841273       -0.013789212746280342      -0.0019841616481831399     0.0047455409397931655      0.0050642204485764333      -0.0024322047136327535     0.128745386051133          -0.032158219545495116      
80490000      0.074679852667018265       0.032431602781131719       0.0024364538544988908      -0.0017026827898018635     -0.0043161815226554264     -0.0046694523900673388     0.11614541783277638        0.043462482421168631       
100487500     0.036932142647673548       0.078608330132876617       0.001048133163956451       -0.0010667124641175493     -0.00048732026209234589    -0.0023854644294454162     0.056924756666219656       0.10563110944694853        
120485000     -0.014567868544801675      0.069254486033734949       0.0011006216184886221      -0.00040436661112335594    0.0014907973929184743      0.0028320522375383742      -0.0087608980280669494     0.094565096350961969       
140482500     -0.033509312175227346      0.06622600031535697        -0.00063023512131118759    -0.0015898656985190872     -0.0022255218280439974     0.0034285231054242355      -0.047090364594580159      0.084312711463731677       
160480000     -0.061249101484993872      0.028341564318013809       0.00022391936664875465     0.00064023738163954754     0.0011270442059189928      -0.0030803037204210583     -0.092651675211063739      0.047348131970696365       
180477500     -0.064214880042830436      -0.0013531744127202132     -8.4788370912249674e-05    -0.0047990423845962827     0.0025581125171952874      0.00079933499119663569     -0.10357130499806352       -0.0040927300366916221     
200475000     -0.060884488078219508      -0.038366793218863431      0.00013971025277685389     8.9147469615346209e-06     0.0039646452057954043      0.0043933145062129472      -0.097352870641492603      -0.052994150604314262      
220472500     -0.024265243823594601      -0.063865528811068939      -0.0019412256483560264     0.00093361679553924956     -0.00049357137103605403    -0.00070602597215461158    -0.046743400239684561      -0.097565159870479201      
240470000     0.0033066514596656817      -0.072326827403274799      0.0038097002104337447      0.0009864693868769927      -0.0008095330647768863     2.8528496813942581e-05     0.018002474130479507       -0.10377010204656625       
260467500     0.046306744847790807       -0.05386519754627566       0.0012748287659497372      -0.0011904159951993446     0.0016272873402964772      0.00048054538883179979     0.0607271725457545         -0.07473911133810919       
280465000     0.063600172734298369       -0.027351460539945506      0.00037035806340719491     0.0010321892316116866      0.0025774315525346259      0.0036625679366809765      0.087876230622846885       -0.033007604235683545      
300462500     0.064514851772672105       0.009470963027199835       0.0016908138857055282      -0.00019932612395943673    0.00070895217473478816     -0.00057469773119005381    0.091293646841432055       0.0077457310027202915      
320460000     0.04075957432852742        0.040240400702718705       0.0015430238283947973      -0.0056453064668614741     0.0015738441372834947      0.0024589874059860522      0.074589404954971794       0.03964286483571379        
340457500     0.0085264001125629728      0.049122963340416249       -0.0038931111730671187     -0.002506824582646945      -0.0027770952510561098     0.00011243661106159216     0.028721137760721653       0.067072910058829815       
360455000     -0.013568790907664786      0.050250592249357198       0.0032371577800000889      0.00032195573638737232     0.0036716032469993965      -0.0042803439297164668     -0.0070833906405511574     0.083380616388909493       
380452500     -0.046263088484691663      0.04213849930166888        0.0010467307161212509      0.0025426702090524719      -0.0032102869565808169     0.0043590264374970241      -0.044675473262161501      0.049706821664953028       
400450000     -0.046115251809353372      0.0063510143223297925      0.0045017970853083594      0.0011223566152285896      0.0005205548351793481      -0.0015025221682911302     -0.066119073761738076      0.010917815411697051       
420447500     -0.043582495390549855      -0.037681107699967097      -0.0045907101123239587     0.003463020253794261       -0.004575000475723714      -0.0061809691551937733     -0.068905423878467167      -0.015076185145706014      
440445000     -0.025490071224582793      -0.042828716328763373      0.0040475955539164008      0.00099605411403675933     0.0017177943735088689      -0.0049429090743363935     -0.063455091358507493      -0.047546038852473632      
460442500     0.0074646018679931109      -0.043337985888692636      0.0039846798130741008      -0.0012263512114835779     0.0023429667733486843      0.0044314434921042542      -0.010823678120880973      -0.068277330697728941      
480440000     0.034123299413745534       -0.044930241583083196      0.0042423254172320882      -0.00023150163574495259    -6.2642791590332204e-06    0.0013666485562209526      0.02738402809388565        -0.055557883850341445      
500437500     0.050339280556713176       -0.019504787492036085      -0.0026144965596849633     -0.0021894753036715174     -0.0011536036890569094     0.0028833024403166507      0.063757982497562496       -0.036483832294556803      
520435000     0.058383759145383032       0.014479310590300455       0.002071694613406352       -0.0011096209572241964     0.0012447860650018324      -0.0020576157969353212     0.062019130947093236       0.0086347907353095006      
540432500     0.040882768481861065       0.044774104978732049       -6.5697682837743105e-06    -0.0024567053088947934     -0.011854116069222395      -0.003994435739050368      0.069768940357617715       0.042027900848538108       
560430000     0.016522602729972108       0.055857773956519093       0.00048332190694683788     0.0021141416999298957      0.0022089543042085971      0.00015425094070761907     0.021622737518552884       0.05859044856714879        
580427500     -0.016748336910242943      0.054770968997202199       -0.0021403790618884392     0.001753436949319597       -0.00049951270444246673    -0.0040075559597369933     0.00081487275245523507     0.095509877745451777       
600425000     -0.045474015036262715      0.053402228260858879       0.0019712736340781966      0.00059209029636392491     0.0044083572274561328      0.00082362256992766852     -0.042286889499765001      0.092396693090047749       
620422500     -0.074121319271135119      0.028314295577609498       0.0053494779135760577      0.0012728182084198749      -0.002379949719845567      0.0044639097305639282      -0.082040378687234933      0.03519206438405427        
640420000     -0.063348062807649277      -0.017075790883992806      0.0040785347045666576      0.0041865218424186014      -0.0013385584325400939     -0.0001969120528696098     -0.093065495403218498      -0.0043339250554903135     
660417500     -0.048251380433734989      -0.025930020242688118      -0.00096557076625062774    0.00060201810591948646     -0.00067745050224630489    0.0023933975794522629      -0.080355602479749211      -0.049971419503799519      
680415000     -0.022355345258004221      -0.061151037310860426      0.0017050543881635862      -0.0035846932514389251     -0.0014512612122283487     -0.004647841938776198      -0.033539228698292657      -0.080148242760189184      
700412500     0.0067604989936288643      -0.072542902111150651      -0.002106706602114474      0.0036721617384817386      -0.0023649747807853376     -0.0021073794116731217     -0.010986451600924098      -0.09196432146769995       
720410000     0.040503617928756987       -0.049786790085216727      0.00075608054857372758     -0.0018742767133042317     -0.0036245572658263809     -0.0018794607562263096     0.021333618962824989       -0.084403020946923535      
740407500     0.055036607686738764       -0.028392995757822222      -0.0021306318449464765     0.00078995721611790004     -0.0032290367498710973     -0.00020824623430178878    0.059868649868567644       -0.071602802453396994      
760405000     0.055011415235587779       0.0063559180664863836      -0.0011645353553106628     0.0012315756041112096      0.0038291535154528094      -0.0026020285807569214     0.091176584795234217       -0.027104794041063071      
780402500     0.037556663010115419       0.0323631310797447         -1.9254516305724224e-05    -0.0023765714533149612     0.0005948234540173018      -0.00068119887714433952    0.098166475986581236       0.016498047998547281       
800400000     0.0242868128581816         0.055098103649001681       -0.0017405112725036478     0.0024513642116045769      0.00061852186676305122     0.0033186853964452642      0.075128593015014206       0.052055713378819944       
820397500     -0.013146489114157514      0.058417094859806576       0.0020999063775644488      0.0026254530951192569      -0.0004061723027672317     -0.0041282551590387951     0.023814910895450812       0.073771793044648384       
840395000     -0.052479889243343736      0.038832443125507314       -0.0006751400435985954     -0.0011918207969201986     -0.0014847504089739029     0.0017086617060656638      -0.015101916100181603      0.069358438525833011       
860392500     -0.059817439127377477      0.011337755483821777       0.0021984376221869844      -0.0024059619549940225     0.0042405149824923773      0.0036618625591420396      -0.039464018986792644      0.052596902484602241       
880390000     -0.056280817774602983      -0.026286541334110278      -0.0026674890609215676     -0.0030289992195965151     0.003328968208547329       -0.0015626301842479942     -0.084600476967281166      0.032383232125973237       
900387500     -0.031038029706997396      -0.047035463014175924      0.0055789742654207544      0.00044293444088638689     0.0073892896873672355      -0.004361231483035498      -0.087317060298920987      0.0073695657407943475      
920385000     -0.011215902650820963      -0.073298254166971277      -0.00049177196946350286    -0.00030756960048761606    0.0063420670261665627      0.00079950298105212832     -0.069757870525692794      -0.029170208507026254      
940382500     0.044329712865174814       -0.038962857286924987      0.0017041048939631519      0.0043559130374135006      0.001954576532708991       0.005887283365132734       -0.020567362200835413      -0.07320846378547656       
960380000     0.046451684519323487       -0.022093177909062799      0.002434926411641137       -0.00085117915858337308    0.00013300046981653827     -0.0012032612056459828     0.014581990009200447       -0.068594733879939987      
980377500     0.043513202092859769       0.014418025745896162       0.0025548859042297044      0.000523144039916622       -0.0044588001214178156     0.00054673815285104298     0.064677458063926108       -0.050453044260142244      
1000375000    0.067099878624169301       0.051157992342732252       -4.2096601781293448e-05    0.0028980483649575003      0.0013108312070998272      -0.0034322962435783676     0.069948932077177742       -0.016507247513422526      
1020372500    0.033794051323229657       0.072096746695432229       0.006361037871968774       -0.0071769802539512675     0.00045476509198423012     -0.001064324593141582      0.083301931061880566       0.018160930778707878       
1040370000    -0.015807255589366107      0.05250276391919962        -0.0010041928411223689     0.0021207640821626285      -0.0021810863743953559     0.0040215113138988932      0.063777368605055604       0.081747938402026252       
1060367500    -0.038985523206335075      0.063683024533511656       -0.0030296605008024815     0.0051748149023205106      0.001020602726916373       -0.00038889965539052929    0.023084369044648209       0.098583490512570343       
1080365000    -0.073689129621218999      0.02614653202803115        -0.0028340598287987283     -0.0015323982351489163     0.0035435697023759138      -0.003088655928765133      -0.0082446100792413508     0.099233989584152402       
1100362500    -0.075799355410607713      0.0035909099144758932      -6.3893972254416319e-05    0.0008322364286661271      0.00027098327892475886     0.00054390777059018058     -0.057292686732105712      0.084094727829124138       
1120360000    -0.056339891590310942      -0.032501136281854873      0.0038266537199170584      0.0013351969042221844      -0.0037187592858775038     0.00040630562958361938     -0.089879071150362491      0.064947019918182358       
1140357500    -0.025635097237786224      -0.061826771384482358      -0.0012357618494460881     -0.0018922302731650929     0.00042982946039486953     0.005742726847127835       -0.11261768715551397       -0.015929941632027197      
1160355000    0.0161794628805213         -0.060100235801340031      0.0012049095250827569      0.0021226207831346448      -0.0046769959917974408     -0.0068501379334372199     -0.076764015056347251      -0.046323872328136284      
1180352500    0.03332399013432439        -0.045133765667597275      0.00083871152231929102     0.0015568039035118283      2.97201781791838e-05       -0.0024091672653294778     -0.055113077452260635      -0.080000060358548605      
1200350000    0.05099528952041292        -0.032093989371662933      -0.00051915832901702232    0.00045038157025301378     0.00077886898553802754     -0.0030893335276309872     -0.013523289697198486      -0.11276439670321792       
1220347500    0.042590518459655162       0.0084642330799201051      -0.0015940483957510784     0.0023631095237466341      -0.0016100304795138676     0.003307212508063582       0.037196041037581944       -0.11694843474185614       
1240345000    0.034976613930483819       0.026671222481416491       -0.0014980678121508143     0.00065695921265167137     -4.9812245422533469e-05    0.00043614665862252397     0.10737648187878089        -0.087811187298471705      
1260342500    0.014331224391557689       0.02728107481678024        -0.00031623174475311003    -0.0063209244151512115     -0.0042661813117603805     -0.0030909886213685246     0.14640795009377813        -0.013267515445035219      
1280340000    -0.0075208559273770214     0.013468069582602491       0.0032689122393870702      -0.0025489391310008656     -0.003731825400598931      -0.0031744371643751402     0.13169644389322063        0.04350380922544695        
1300337500    -0.029283256343698917      0.028424301682215082       -0.0019825212532737103     -0.0013908599451249515     0.0041595002415510578      -0.0065069919278092827     0.070227525202782762       0.13703003136403633        
1320335000    -0.039036648695881693      -0.0018211637817900741     -0.0010652657736333828     0.0066189846099641058      0.0022905810076399307      -0.0011708519544435612     -0.0095666111581093945     0.12760403151127162        
1340332500    -0.023160570032578005      -0.035668218975127571      0.0013106813381888638      -0.0003848142945989722     -0.0051717096568244664     -0.000477612368280974      -0.07136212133719598       0.072440064812371585       
1360330000    -0.023389633108161924      -0.041531588581308489      0.0010791341592595954      0.00037837639924649186     -0.0081462372978107402     -0.00066064419012512555    -0.10936099031997934       0.058766773096257073       
1380327500    0.0055989325200192204      -0.040698334597356806      0.0028143917265856413      0.0024513994966283989      0.0041546820485149506      0.0040130477079302071      -0.1187494967523101        -0.041821977775935153      
1400325000    0.011202491570393019       -0.0075465556207172588     -0.0031861745496485653     0.0044559607672666583      -0.007325051255930584      0.0007498052698573115      -0.09399974670677827       -0.060195093959031186      
1420322500    0.051750998395302179       -0.030045125902340299      -0.0024078422587372516     0.0011234656540728026      0.0017790739451176943      -0.00040189558775922772    -0.040667049805965132      -0.12516353152428988       
1440320000    0.058999331091573688       0.026833657439004566       0.0020624567140953153      -0.0068663046063993337     -0.0095202325085262229     -0.0039716762600581724     0.028717104651754938       -0.13411607807436002       
1460317500    0.033562656266836334       0.020139065989223541       0.0024066603351260403      0.0071006370386649982      -0.0055843910163172385     0.0046125625087549945      0.1138314743472814         -0.11221046170923792       
1480315000    0.015997099139986554       0.044277005086053506       0.0022506747219792405      0.0010029269376882334      -0.0035075680774849941     -0.00060557257899555589    0.1654649593138238         -0.036985032526289749      
1500312500    -0.016621784645214379      0.054713984823720287       -0.0031176128603586655     0.0048360961725958367      0.0013700152402279365      0.003538358217992857       0.18390305186371697        0.037308977854672548       
1520310000    -0.026286459546709051      0.041208945155776097       0.0022136892708631032      0.0041608879439396932      -0.006266516942763832      -0.0060784675872320414     0.12856927719291894        0.15078257617900032        
1540307500    -0.044836983510538025      0.010590842130794623       0.0059371641150735947      0.0037015740516004956      -0.006164927592656781      -0.002419942417782134      0.036370728385529696       0.17721659648694235        
1560305000    -0.046860309305780341      -0.0080216048503610662     -0.0019247666702739137     0.0053940421360777306      -0.0047065755626644118     0.0082809455556225719      -0.047376918059537844      0.17059770416455947        
1580302500    -0.033569222055141519      -0.011560430416664177      0.0040058999173619055      0.0037426455261568145      0.0023287035496081486      0.0018745334754794727      -0.1722524279425125        0.11943557972305535        
1600300000    -0.011142726475282938      -0.046518721457077215      0.0043143667143366394      -0.0038391131730195691     -0.0046138792455713467     0.0060677364539777406      -0.18702751951348717       -0.0036399733031405859     
1620297500    -0.0038562005522461964     -0.015192520588998958      0.0081246447585933933      -0.0069343562810567924     -0.003545130447496206      0.0051062719279796375      -0.15351146786065056       -0.075046246046960793      
1640295000    0.0035563971890579756      -0.019571049101619595      0.00044725254005586242     -0.0024794715151054431     -0.0037252170639109684     -0.0048213188025290239     -0.10231364391780352       -0.13613820654156145       
1660292500    -0.0073963730754157729     -0.022039028974860764      -1.5450371864268598e-05    0.0018909971348516823      0.00074709879534046284     0.0039599882228710977      0.012127680547427072       -0.19382839890184311       
