! PocketVna 1.78  pocketvna.com
! Live measurements ((Reflection-S11, Transmission-S21, Transmission-S12, Reflection-S22) Linear 500000-4000000000/201 calibrated)
# Hz S RI R 50
! Hz          ReS11                      ImS11                      ReS21                      ImS21                      ReS12                      ImS12                      ReS22                      ImS22                      
500000        0.89425969315568832        -0.17798898672102675       0.57079356607713505        -0.5447120279132448        2.8288403557222126         -1.7976335858521879        -0.21076782092193005       -0.43183473966774177       
20497500      -1.3515389040239902        -1.0216999285886716        -0.018716492269418499      -0.0030582931443534603     0.0062759911854837576      0.0074378395695273852      0.0040520688129511194      -0.23214589702606003       
40495000      -1.0781882056852705        -0.28617298513997941       0.0091840616865633343      0.0033908651136422227      0.0030060194336666408      0.005114625590966179       0.084352272383791282       -0.087720231290962444      
60492500      -0.92119143357157862       -0.14901118472042266       -0.0034108946185430603     0.0020974367764518484      0.0043828801891708331      -0.00204097598060157       0.11172828423441959        -0.028257529354407826      
80490000      -0.91165903195449993       -0.05236198171016155       -0.00043522507542419111    0.0017878513377696981      -0.0020652678395301403     -0.0063419698939293874     0.10605078718401829        0.039039038909081891       
100487500     -0.93362620642135319       0.012393952113297555       -0.0012185540792666069     0.002719495920491726       -0.00013442842318482843    -0.0044020179078772788     0.04630512354224995        0.090825841161135248       
120485000     -0.97561749410244281       0.034964305323072049       0.0017879765309105416      -0.0026028997581324701     -1.0712570402594458e-05    0.0035360935437108009      -0.0014040251564911936     0.088983802815210608       
140482500     -1.0180339484753222        0.022064280740945449       -0.00097723183306266709    0.0014849578118103681      0.0011202323862027806      0.0010674614534753456      -0.044375476068854128      0.06910015903396996        
160480000     -1.0818051281216445        -0.002051607579900297      0.00028854039192322749     0.00082500387432747082     -0.00060403104311970354    -0.0018437310312361438     -0.076702943990150652      0.039810630513212646       
180477500     -1.0851899528441566        -0.038840660323539354      0.0025095260490355341      -0.0032723570305345354     -0.0029749356210185861     -0.00093006619213574363    -0.092581946932748904      -0.0094879929093172333     
200475000     -1.0645017443813438        -0.067912950602212974      0.0015320405976957522      -0.00092156285667333688    0.002683414176629702       0.0026022838129473791      -0.0789138429213216        -0.044693449225376887      
220472500     -1.026399351266708         -0.07444061401210042       -0.0018426988501742286     -0.00035520923354847618    0.0014681463347303904      -0.0030417443857781385     -0.039697431361385982      -0.088809376751646824      
240470000     -0.97713366380383582       -0.075802800909855209      0.0034118803806303089      -0.0011674438696743323     -0.00024965552680321915    -0.00054225977636722714    0.013850849576513322       -0.089240207828333362      
260467500     -0.94198395596915163       -0.045446149171379145      0.0016558596757504692      -0.0010461446013534635     0.00021799208189996662     -0.0021531004108584959     0.048743230734475673       -0.07087725733818151       
280465000     -0.92322693430428127       -0.029336371976672264      -0.0033392387876642667     0.002030828130449944       0.0024682591010003626      -0.0015165047295442244     0.069883729918918086       -0.033701483071808612      
300462500     -0.92212898821421097       0.005891215149869589       -0.00057176678720953337    -0.00051213907740333482    0.0030829752612266301      -0.001270808426561252      0.076888333613513118       0.0047831864726628186      
320460000     -0.95482000710708659       0.02246112237563239        -0.0017796911024863583     0.00033126429398770983     -0.0041852306324615682     -0.0022757343175784702     0.058014404736040977       0.0384425456857585         
340457500     -0.98371790310522289       0.024540658879845537       -0.0037791107131290901     -0.0030348010781649356     -0.0040756422344031783     -0.0030447191157365505     0.024787586963438264       0.055420891995454781       
360455000     -1.0223021874205902        -0.0092802768454256397     0.0033724518481353092      -0.0014896686393926725     0.0062947645779361542      -0.0034685963904423638     -0.0058974102580012381     0.066710284195387784       
380452500     -1.0558569272535829        -0.04702821048390924       0.001997988872240767       0.0012165684187292209      0.002387520222859599       -0.0015543158250474088     -0.041645613915892964      0.042311856625073134       
400450000     -1.064336203300887         -0.072101362168455391      0.0048765735800832674      0.0022688851471859227      -0.004179279630740911      -0.0050304116527218508     -0.053632849948255991      -0.0024276263804087323     
420447500     -1.0359142852390533        -0.095900256432805281      -0.0021112904946389188     0.0040939696555249558      -0.0026492250710866173     -0.0073864290987855517     -0.05375428355617573       -0.01090674276846665       
440445000     -1.011117783712193         -0.11312309454034873       0.0036907407807242124      -0.004364127741842483      0.0010508526019790709      -0.0085100858603015216     -0.057661902886307917      -0.045342867706134812      
460442500     -0.98116630637550861       -0.11484496195681811       0.0053663397432312607      -0.0091790093493268072     0.00016286030935633362     0.0021589133745359966      -0.019658243578242252      -0.047152072967548413      
480440000     -0.92675678860674604       -0.10012704956477257       0.0028426525700999028      -0.0012959304072362988     -0.00034143823686256792    -0.0029645915416808984     0.018633558012790097       -0.060286578959138887      
500437500     -0.9097456455315045        -0.05371350485272721       -0.0044338382411111734     0.0011060690073823648      0.0070100612550697888      -0.0018028567543455511     0.06312091539856611        -0.033972808266381119      
520435000     -0.91419926935628004       -0.010504638935692378      1.1853869445282077e-05     -0.0018950699169824534     0.0028471955605198925      -0.0014240186894580674     0.05377352899777401        0.0063847745495210061      
540432500     -0.94302154863583831       0.0289828580838624         -0.0015367456341731571     -0.0037855645787665325     -0.0083390858304589772     -0.00078404563914775765    0.045067203748377679       0.033391420640890505       
560430000     -0.97610965430227248       0.045828452431646134       -0.0013310695755430586     0.002530328366200357       -0.0018848906516599803     0.0040421028526693055      0.027828018926582637       0.054434150615579872       
580427500     -1.0209172273010407        0.064100149495591785       -0.0016265987947934946     0.0025119214578108806      -0.00071906115998998784    -0.0025494322686698558     0.0060390849915131209      0.080987440054042195       
600425000     -1.0869845821002084        0.01276155309814983        0.00046004697180566364     -0.0010402235448410931     0.0042081653604308135      0.0021610970457030254      -0.035349919363932843      0.069521091927684756       
620422500     -1.1340195775876514        -0.024553649205619994      0.0045235785123661533      0.0046513936433985655      -0.0089991500147725816     0.0028879138338740928      -0.060761672541456133      0.034621776414777532       
640420000     -1.1291227037346057        -0.089411452237280156      0.0029666463625016132      0.0064289565048605548      1.2491626074903873e-05     0.0029989155927928469      -0.079148949840116389      -1.174771235601055e-05     
660417500     -1.0738166395875244        -0.1018245201100836        -0.0010386520814368739     -0.00086095075307215637    0.0021049469654146635      0.0007581726547090811      -0.066189232251738242      -0.051476999565336877      
680415000     -1.0602710184732878        -0.090738615913636578      0.0033633699311903806      -0.002586945259691489      -0.00079993922010256741    -0.0049692650004507493     -0.023895756968196024      -0.067160373762758907      
700412500     -1.0022729381457078        -0.10600516077995459       0.00055387175741472788     0.00088443509837345298     0.00036726903634273973     -0.0070590863420360809     -0.0058834250623147292     -0.076325200757579717      
720410000     -0.9556269245431529        -0.059231631230306094      -0.001793059422194017      0.0036046262639787994      0.00037735884856248151     -0.0042232222356400973     0.023815284747849011       -0.0762293709103114        
740407500     -0.9385889452803956        -0.030011992246701268      -0.0035598891086742759     -0.00092723235518780034    0.0012324635374335515      -0.0029998690313258157     0.045706730673361964       -0.064683242746128813      
760405000     -0.93885264246541522       -0.0010085923635301337     -0.0024900072298291377     0.0024503466899189505      0.0051717290324071732      -0.0045327418051893578     0.074987301820933286       -0.017610643854639996      
780402500     -0.95631589618050172       0.017226761995572638       -0.0069884106019290132     -0.0024254217714727261     0.0023592062570947331      -0.0051252103810828162     0.08037770457445359        0.0097448354284572804      
800400000     -1.0052373646609183        0.002745118036358607       0.0025921266502501091      0.0046797965323401788      -0.002321389306445867      -0.00012013320304097097    0.05754438225078988        0.038503203630190747       
820397500     -1.0348115636967663        -0.020073285811867663      0.0022701335392658084      -0.0036327975103568433     0.0060459253353908945      -0.0036575562547250615     0.028780398994804609       0.089347130750754011       
840395000     -1.0470895249219796        -0.064053198235366107      -0.00073527640230019466    -0.0024534189936685582     0.0030739947174672211      -0.0029912848646865661     -0.014408507058656492      0.06418958410527538        
860392500     -1.0446692973243132        -0.11461303322432573       0.003923045932966082       -0.00040368182249104757    0.0063143001458180444      0.0012659114568225         -0.029729671793102722      0.068194180316295358       
880390000     -1.0389138505570559        -0.13500605614733122       0.0029217739705195284      -0.0045134682445956758     -0.0013874133087768067     -0.0023478095198761666     -0.055880189928485466      0.02036084726594822        
900387500     -1.0010901206633196        -0.13512785707266983       0.0015246246809718807      -0.0019866575950061994     0.0091486551508101008      -0.0059947950541808809     -0.071138918570134976      0.0042332229542517853      
920385000     -0.95490549995362917       -0.14780132544258956       -0.0040775558179603965     0.0027255236309232846      -0.0014256827184007718     -0.0037398052525961217     -0.052532485795338174      -0.015000896664909424      
940382500     -0.92264883858573776       -0.083528031463295502      0.0009760752044921041      0.0063455360726629786      0.0027132328273759454      0.0010166316918154834      -0.021168210431513807      -0.068885420451377063      
960380000     -0.91898869026454699       -0.047462912231179204      -0.0011368708057023357     0.0011392819953350679      0.0011794472712277357      -0.0026641567136029098     0.028265227627276641       -0.075916577275453964      
980377500     -0.91537735322591562       0.0027871584950102564      2.9547551348560811e-05     0.0021355651475944968      0.0038758929871061986      0.00058526907699593157     0.05011388030595515        -0.049568886170362036      
1000375000    -0.92105496429817257       0.029736642891391843       0.0049928231949850034      0.0032064159789040162      0.0092393553438607431      -0.0022125513397367302     0.052626060386420148       -0.021742619285120647      
1020372500    -0.96359486635914615       0.042123091997348747       0.00045841024911029844     -0.0024169607922904751     -0.0033884409233868808     -0.0038358088980928813     0.081111858848843643       0.0074573569993251609      
1040370000    -1.0423812960763623        0.032799631182701683       0.00089258362549753817     0.0030908390730695684      -0.002194582762108075      -0.00081531339124772087    0.073764396391122991       0.06415208804210748        
1060367500    -1.0717825271485493        0.012537678268945576       0.0021702850465478091      0.003615624944168666       0.00036191165521428292     0.0027467741282882238      0.023262363616431646       0.084491876647425038       
1080365000    -1.1869082023478161        -0.075417490716098087      -0.00068350454469652121    -0.00068448085391695224    0.0027874227797469123      -0.0011265231321642888     -0.012579192009908941      0.073608739453017741       
1100362500    -1.1335016747809432        -0.12976691497157358       0.0046193306834873054      0.00094673954235241476     0.00020964627590683323     1.6573527364062879e-05     -0.060484535457659798      0.081643307519298117       
1120360000    -1.1126284306885346        -0.15840935554612709       0.0041229821875802836      -0.0017048723982936106     -0.0057511492632398202     0.0029276330731940643      -0.08033358409984119       0.037434646271986005       
1140357500    -1.0477904200516932        -0.16954225633029596       -0.0017062136311915249     -0.00015354403735472137    -0.0018284270650237111     0.006864059603967145       -0.09665635608896421       -0.011244635808722498      
1160355000    -0.98821401708875278       -0.13415989906247056       0.00083184082597434863     -0.00082575427833528456    -0.0066445539905962631     -0.0051364371980743293     -0.079546142307303405      -0.044417524227995282      
1180352500    -0.96848823891973279       -0.087735183978142089      -0.001516494085209755      0.0070757429558970875      -0.00046035345525525075    0.0028188466253947025      -0.044502417488190275      -0.075751952050328891      
1200350000    -0.94514193455703066       -0.049822841194475907      0.0033575476213074918      0.00071732553763507198     0.0048787559336003648      0.00014624503026489254     -0.0093316042037728981     -0.10010775626367172       
1220347500    -0.94270802227221151       -0.016663110699951186      -0.0020432596911236921     -0.0013885648905350859     -0.00049739075624488627    -0.0017711011392682711     0.026187759124417731       -0.10631731398667743       
1240345000    -0.9698288409885677        0.0034460225200617593      -0.0014541622760207392     -0.0019874532214534213     -0.00043371814142416414    0.0034061401569602371      0.10190944126867617        -0.081229587003394457      
1260342500    -0.99400597251770084       -0.038767718822297285      -0.0023234521031785921     -0.0012235424085454206     0.002135824853123869       0.00068885958801698753     0.11002040020213474        -0.0085648763249299084     
1280340000    -0.99891355707560003       -0.046520656040454744      0.0020549573156417853      -0.0011660518434405329     -0.00051515723811373394    0.00065997514686778067     0.12035591838588824        0.051001775168029465       
1300337500    -0.99417657623635447       -0.057973225455137591      -2.5670033709640836e-05    -0.00066517981624122707    0.0020188276166214882      -0.0064637406147833084     0.066463202601410448       0.10674973035135327        
1320335000    -1.0022372618360598        -0.076875075336699961      0.00046147224868054365     0.0076054028955312176      0.0018700442570540189      0.0027845148728014792      0.0029098730625990608      0.11307628275666591        
1340332500    -0.97829543416490872       -0.13724712960214502       0.00085414809559387504     0.001330775414133057       4.9300527945490357e-05     -0.0051945781765796268     -0.069510371761028339      0.078323344839093118       
1360330000    -0.95404220316930732       -0.095115114865087516      -0.0027502027431405497     0.0019208832488164342      -0.0018861401262811454     -0.00039894407837723253    -0.10881456298405451       0.044193735193194021       
1380327500    -0.92385133387710894       -0.078077483905980613      0.0024740213597613031      0.0066786951634834274      -0.0005829784647590167     -0.0030749067394950438     -0.10972004176154322       -0.033621082163870233      
1400325000    -0.94177419879795654       -0.051293761705105925      0.0012166165947517873      -0.00042546385798404129    -0.0031433520307230229     0.0039483911352155808      -0.065723610195124738      -0.0755006687591534        
1420322500    -0.91729195048875933       -0.023836812983190975      0.0030215799408439344      -0.0044980544931424449     0.0024930600050835725      0.0003239565222974693      -0.045696583674943489      -0.11078565551731062       
1440320000    -0.92723132065477076       0.014810762797300115       0.0026576101101329699      -0.0051166558371871299     0.00040816680270079977     -0.0048202236390406036     0.0053439612609397918      -0.10591050623830435       
1460317500    -0.96561803285473891       0.004282400601123941       -0.0024062757830805195     0.0010743885462391153      -0.0024311332175696691     0.0086086620639100383      0.092823838927579908       -0.091874972973250021      
1480315000    -0.99200215066064612       0.0048234762112813207      0.0024440584004726019      -0.0049374764902659143     -0.0038572931358912574     0.0041643861202413915      0.14293789917140595        -0.042959404783224756      
1500312500    -1.0141905684305081        -0.0091370594357632444     0.0054089044367292985      0.0031191749482276702      -0.0032425738301403314     0.0025741685250857951      0.14729762726208068        0.039615885364142407       
1520310000    -1.0670318129267065        -0.054397898547563855      0.0017148446581199777      0.0025790550355846049      -0.0030326378644828489     -0.0019962374634478826     0.12746964563222057        0.12500535180254074        
1540307500    -1.1110604845959731        -0.11057793876595652       0.0054022763857244039      -0.0012254219975727327     -0.0014964760230686798     0.0021838087599068182      0.042336334481131423       0.15519964965216768        
1560305000    -1.0433393328287617        -0.18350705889775484       0.0071138658939592092      0.0061926269868410044      -0.0040236353234192959     0.012514538829091615       -0.055011965136496803      0.1659734550415283         
1580302500    -1.0388722899381202        -0.17065693916968816       0.0021876018478322488      -0.0025415114431391068     -0.00066275655410711373    0.0035835878194226309      -0.12711986303983902       0.088727849789589877       
1600300000    -0.98715857673517082       -0.14028722582150774       0.0060296019379231435      0.0034846534261579287      0.0021097680341212806      0.010894884616529987       -0.15250064385558121       0.010894343029213568       
1620297500    -1.0015502776470973        -0.10682598822596356       0.0072130986139759276      -0.0086239642221201188     0.00072277387640549376     0.0015389312871521052      -0.15087338897083058       -0.067975924596316392      
1640295000    -0.96389051710340989       -0.079370267619006285      0.0028825429531627663      -0.0025828220394738454     -0.0054833115562076219     -0.000433086755230164      -0.095119060043572665      -0.120785867217847         
1660292500    -0.9537828794969696        -0.049662480509460712      0.0069602710054768886      -0.00042159580393209221    -0.00075274737213542654    0.0032732836665925764      0.0098125029791042984      -0.17169720442909078       
