! PocketVna 1.78  pocketvna.com
! Live measurements ((Reflection-S11, Transmission-S21, Transmission-S12, Reflection-S22) Linear 500000-4000000000/201 calibrated)
# Hz S RI R 50
! Hz          ReS11                      ImS11                     ReS21                     ImS21                     ReS12                      ImS12                     ReS22                     ImS22                     
500000        0.921995361197682          -0.33439828521392484      0.12173803980172523        0.006729066734270448      1.2936507132179687        -0.54981377790164443      -0.010982265846886252     0.32578594889001189       
20497500      -0.2718698681898315        -0.78626701492901008      0.19507650573243107        0.28252516593078536       0.2076523686798932        0.27778369028827615       -0.31094887313445863      -0.60915344592240739      
40495000      -0.43903659476694951       -0.33389118110179766      0.51792043998848458        0.24022024763011771       0.50919592368872757       0.23721157339610621       -0.31031108327965773      -0.27879807341877216      
60492500      -0.43610725674491541       -0.074471855138143056     0.5882698183056696         0.02764294393503693       0.58629371493132754       0.026022562182332697      -0.31150646654989789      -0.05522665786645397      
80490000      -0.41836128117118088       0.097504432531666047      0.52085179652762192        -0.10234403165968702      0.5206066721491307        -0.10433739304683284      -0.30499723951719626      0.14559121965099461       
100487500     -0.43418475014762359       0.20540192068994448       0.46843396825187           -0.16222532976086868      0.4751631653320072        -0.16340294931193622      -0.35882857626688575      0.2780391803293733        
120485000     -0.49046513371041006       0.23318419850955141       0.46170975374827555        -0.15212616873372606      0.45562364890624824       -0.14669214634422531      -0.42170423187084038      0.27216354399454645       
140482500     -0.50894805027324996       0.24773721616427438       0.46207140661713259        -0.15826167618802356      0.45573581276890873       -0.16685926304691465      -0.45681997226989901      0.29763374162589118       
160480000     -0.55733220327293642       0.30193692755063828       0.52436925631096809        -0.25442448940651224      0.53780735681688596       -0.25936742462475115      -0.52813601128856458      0.32805700479611777       
180477500     -0.60397835853051651       0.35769798283248327       0.61521702447477611        -0.41246738584613385      0.60745252745776668       -0.38874908574787281      -0.58400934287043305      0.32472066403463856       
200475000     -0.50865835940718995       0.36400427308815025       0.47176879808342725        -0.57752619782712611      0.43836970715141904       -0.56437590865201004      -0.47325554793927893      0.32818113405250149       
220472500     -0.30672505788056975       0.42222745778629117       0.11808063009131686        -0.6018737803744334       0.11276431836162075       -0.65001260269690531      -0.32287174298648602      0.39163549501644462       
240470000     -0.21371950513187105       0.39559500451377011       0.059976203020444173       -0.5253900574095034       0.091112685274782931      -0.50937995211053144      -0.19757691491884821      0.32384204867930783       
260467500     -0.091072198490726675      0.31575048974382702       0.10895252901483701        -0.40181216978684586      0.084673628914889248      -0.38010428179367389      -0.049875834819657842     0.28563735368311266       
280465000     -0.010208844091988474      0.33054679925963992       0.06438878522361477        -0.38066635745908478      0.047724540750620055      -0.41099880794031507      0.007661410493803227      0.34017871296005242       
300462500     -0.020747475726100882      0.39224290035976328       0.022443006101410284       -0.43593117999100667      0.056856512388882716      -0.46612766460381311      -0.03677232836580905      0.35325873060805607       
320460000     -0.095078078864956353      0.42077663065836246       0.028793013865642238       -0.45919814220776484      0.06245115567918557       -0.43527230546649859      -0.054493442735529522     0.3498788219032124        
340457500     -0.11807078019961095       0.39160067889983696       0.025804881102158287       -0.41742590603502733      0.017590437407001263      -0.37686874025166589      -0.068894660972793884     0.37214084111910295       
360455000     -0.09247634656019818       0.41515217042553287       0.011471770439852492       -0.37214866185406836      -0.014335461873527931     -0.37252720556646518      -0.10324915551532261      0.4223943235095895        
380452500     -0.08521736216278375       0.44791304150533534       -0.020918461875736163      -0.38921383690839356      -0.015371978072872907     -0.42633343472545238      -0.15694331066014713      0.43802901173910103       
400450000     -0.082160739652920811      0.43716759028346036       -0.034403031431580904      -0.4805015136481634       -0.00027650341078408312   -0.48243422982560807      -0.12673217041658894      0.34787566452893909       
420447500     -0.035760883109651614      0.34184808754691709       -0.077979543087267747      -0.51049160891897183      -0.079625159345018431     -0.47808431310974669      -0.051227689762769521     0.28505861088374679       
440445000     0.077826593077777451       0.28410995034197634       -0.15474445559865194       -0.45485003975486871      -0.2059639757698544       -0.45431600230633012      0.037212798045644681      0.24853497678351597       
460442500     0.15652193494865232        0.2647737932237369        -0.24990100717625197       -0.40975727557608638      -0.24055440898181057      -0.44498431479722861      0.094913191722492463      0.17713962896607133       
480440000     0.17873482405865182        0.26303668402639718       -0.25739376324124863       -0.39930378049581761      -0.22038544924774289      -0.40425350283777467      0.17886960520908285       0.13074425042492438       
500437500     0.21238247744741118        0.24065126047352861       -0.24855217505978744       -0.39535949007765814      -0.24359824119601231      -0.35645579563738405      0.24513413406405549       0.11963302031513903       
520435000     0.26338309239738639        0.25074403127294198       -0.26095679063156751       -0.35947654261219714      -0.2991167897707106       -0.36399226173507954      0.2486416667741411        0.17900056456986668       
540432500     0.28713887689433526        0.31988079616275256       -0.33486923976684657       -0.35149442779319695      -0.34325438783032269      -0.3949722411123206       0.26331339340308896       0.21001300680446927       
560430000     0.26204564404447611        0.35032768337888082       -0.37835867315186861       -0.36539782292537321      -0.32978147142076736      -0.36168161637251944      0.2716935088676502        0.21169372256709196       
580427500     0.27584064111331902        0.29500183543201774       -0.37340250072951897       -0.36416746782243758      -0.40364476535519711      -0.33013658477610641      0.29977986894551717       0.24457144139152123       
600425000     0.30325930378638105        0.1958166041469615        -0.44444263121204214       -0.31856574013432676      -0.50664412047258289      -0.35366027075231399      0.27916447950941004       0.19567055774603348       
620422500     0.27593506890998953        0.068189664758452881      -0.5947884346028508        -0.27235124613842082      -0.58067092584900715      -0.29130829114030254      0.25240249011179217       0.047816435593094848      
640420000     0.22280562606805426        -0.067694737613251885     -0.63452904418398226       -0.1639114881275307       -0.60115779545807013      -0.1448335841255626       0.1754018002401608        -0.085197842461627857     
660417500     0.14068241385042538        -0.1518334277757783       -0.60432630143013655       -0.046663014165814004     -0.58573584851920035      -0.038020102842094006     0.12281661692203594       -0.21416148214916431      
680415000     0.055078802145007731       -0.21960337694694262      -0.54192600097598453       0.018668309961938884      -0.54177692868754967      0.010257761752192691      0.11300542751872182       -0.26142375523716826      
700412500     0.01565824923484202        -0.2468784914885187       -0.49966182470249532       0.050337754812296194      -0.50358150890002895      0.023257618567758955      0.034338844474442666      -0.2456641315978928       
720410000     0.0033493951742259811      -0.16923762190578701      -0.48101307737721583       0.023614050673585508      -0.4992234537341374       0.014417899787522639      0.00040037203611936024    -0.19489890207690702      
740407500     -0.0097516421517490834     -0.070714863038867731     -0.53470160072624418       0.011627151289916106      -0.53962105301017904      0.025670787189897092      0.016513243731219297      -0.096495438170830089     
760405000     0.0031375483215064677      0.012339666335392909      -0.6042416353200375        0.071058056407819412      -0.60278580205327725      0.082454795207164824      0.075928932481174924      0.024303524779317222      
780402500     0.012461812585911593       0.053211071782626934      -0.63962100346666539       0.18766791241029288       -0.64568023519875262      0.16353280097979975       0.12971526607809097       0.099940825168678055      
800400000     0.0052028740482828332      0.061191704931954735      -0.63906136476369546       0.31183916048740096       -0.60856489020915316      0.27664534095005827       0.13779960130848917       0.1159865722554229        
820397500     -0.056708711096621914      0.015340833197463629      -0.57090851675805088       0.34908004493214401       -0.5490329019636          0.38876599112301052       0.07674541645735819       0.092342492550224572      
840395000     -0.13406530393258625       -0.015561594710731026     -0.48588866404910613       0.40228739127330809       -0.55186133174106244      0.44510373977103335       -0.024698234565641568     0.062383178518251016      
860392500     -0.17471307932006983       0.0043861567728687607     -0.46315554089522987       0.50087192973453298       -0.50704573640016115      0.44441264390578167       -0.10485703952139189      0.060466793812064969      
880390000     -0.17022180964249781       0.023245206411520947      -0.50996383142441148       0.57718016120878257       -0.40571053870508694      0.5280764634025471        -0.20054284711983661      0.094390843402542918      
900387500     -0.076264424258638441      0.062516016476698494      -0.41311999761212387       0.60987706983720591       -0.33727186202536907      0.66640165883375191       -0.19864608240769921      0.14021515983895086       
920385000     0.052478192373039564       0.082740511327179397      -0.22780236470596341       0.65237992694711755       -0.31814943752578018      0.72249840120954234       -0.07760427182078504      0.16045760388254293       
940382500     0.19660275399341695        0.046184560252494893      -0.11383159060740219       0.71585242982549124       -0.2064039381264498       0.66039592766912192       0.064015069719291176      0.097990288571184372      
960380000     0.26724961609429521        0.006043734429767778      -0.14271570572351944       0.73952777613869991       -0.064349616992832523     0.66264695087181669       0.15557118801288625       0.022176747450820971      
980377500     0.27622273429344812        0.020569543644605007      -0.097974471685958034      0.70252829059334243       0.0045454792827538714     0.76477778974729083       0.1992588459342593        -0.018196014886257474     
1000375000    0.23990981515333606        0.056884839509362004      0.081011515091064246       0.67230684373038307       0.01476079335537985       0.77635645906252337       0.20603892195848622       -0.011459555776621394     
1020372500    0.16381037789805761        0.11364819197971439       0.23544483189957691        0.68755455754456563       0.097593192151955388      0.65755740101782445       0.17461690674458874       0.041624546208242484      
1040370000    0.12596855808650229        0.18045874759398842       0.24890900349953451        0.71018330944171637       0.24490308378113115       0.58380948566017354       0.14470876122938672       0.14944937581767315       
1060367500    0.20642770407440328        0.22238083905804645       0.18572245423057093        0.64749141922205122       0.32469010633379514       0.61553312570095253       0.11327218197153512       0.24654490638139864       
1080365000    0.29676939358955728        0.23459221329133881       0.27729853284461875        0.59405819002857985       0.3055514831865111        0.68959977638484637       0.18051441195157952       0.2482051765096398        
1100362500    0.33861769378081669        0.1172019539793832        0.51035205513145676        0.58242879367570166       0.38406844006152452       0.61794002871535547       0.23852744806689505       0.18092226125839322       
1120360000    0.3713004383303512         -0.037374825238288736     0.61137417004679073        0.50854917601633731       0.5599161048246587        0.46744427222228974       0.23398547228719577       0.029609062273145661      
1140357500    0.36295512238210753        -0.15266181548117297      0.61260640938162758        0.33675791098688918       0.56950817915101337       0.33711941665072115       0.17306641644752818       -0.16785375072043135      
1160355000    0.30271978852115905        -0.18228468548019541      0.54853758227332916        0.2750212225906945        0.56340893151236326       0.23742506610806602       0.1502592968368528        -0.30324622061177842      
1180352500    0.20828840960529568        -0.19817985655457776      0.47339612190506752        0.23247926201579142       0.5234432790605551        0.22147211595960475       0.07585591389902091       -0.32251452809065367      
1200350000    0.15242232991127203        -0.15840695029064494      0.46654146674621122        0.20928594728403396       0.46884707134575265       0.22905010564527231       0.011880271087758278      -0.31804543226173487      
1220347500    0.1081538955077663         -0.051974684972386227     0.52518260737051226        0.2267883137449368        0.49056293428281827       0.20990051757382006       0.0258762039230317        -0.29010929686387504      
1240345000    0.083724142107393665       0.028864242378155981      0.5871637978364771         0.21496729438826861       0.58083789265397368       0.19982481392081913       0.11029853419184044       -0.19080046541495022      
1260342500    0.089465439796022159       0.04774749838197323       0.62757078730412164        0.1370161987770013        0.6319089934597506        0.1382199479262681        0.18680876391355405       -0.061184278512877464     
1280340000    0.06803340487397265        0.0037634633919561367     0.65187986651478114        0.039530642506491895      0.66662949220133927       0.039248323138431372      0.22026336750958836       -0.0038805441281160162    
1300337500    0.030888263171594391       -0.053719178112624937     0.63003606556533009        -0.049775377181009502     0.65265821562981885       -0.053701642535715438     0.18721794156865357       0.033181913761898482      
1320335000    -0.032290031430726847      -0.13794305543998273      0.59120121611146192        -0.14357838915875609      0.59212463059219989       -0.12505742838283787      0.078367713070944922      -0.021508655848963505     
1340332500    -0.085427123233873886      -0.21948051198428617      0.59082851580605844        -0.17936494949028012      0.56100073832519903       -0.18853813081199983      -0.046105782756063682     -0.07680494309473572      
1360330000    -0.12958988855362122       -0.22777492187148923      0.55697356797162145        -0.18990493049969626      0.56580508549056741       -0.21816049627228765      -0.15662536714975384      -0.17036726606962627      
1380327500    -0.15037949099784362       -0.20410802693962815      0.52253353085829235        -0.23870465869384058      0.5367157338866817        -0.23198670666373478      -0.17037163478218117      -0.23770590278663506      
1400325000    -0.15652347288528537       -0.18107054123901847      0.5195228495411337         -0.31522023164770846      0.50573044975275239       -0.29843144449888631      -0.18148065419013196      -0.23295029726336253      
1420322500    -0.13000346735405752       -0.20618210080140556      0.52675109858970381        -0.34000009535258474      0.52306553278625456       -0.36002885930952022      -0.14325176662178207      -0.25321140826825345      
1440320000    -0.11181183841463739       -0.15832952922007584      0.4755990059980138         -0.37584235174691394      0.49990528062663309       -0.39019174442664833      -0.05760107769558253      -0.24451897873211767      
1460317500    -0.13766644388561577       -0.18052357765817781      0.39221852344172592        -0.5017413087686422       0.3818828492455173        -0.47063714551130409      0.049411968997986937      -0.23039525460325155      
1480315000    -0.16488670861236937       -0.22567305396677806      0.3696483964990569         -0.6054771884390262       0.32306855069324819       -0.60119981438669556      0.084430677985962016      -0.17200318027578562      
1500312500    -0.22566678323134445       -0.24561159611305411      0.28000591071437553        -0.53098616403440047      0.27105398091728533       -0.56638747141832746      0.054676581211246841      -0.09902569864453678      
1520310000    -0.24837898675954248       -0.22184273565561208      0.15656842587819991        -0.46589618929201559      0.18128161844852783       -0.47412979165356856      -0.063778669898250109     0.021349473974875726      
1540307500    -0.3352556228400323        -0.23498800397581604      0.14948030649952082        -0.46487405185401465      0.14924615894167392       -0.46794011521118989      -0.27734601806636261      0.12311454279219304       
1560305000    -0.32435191530528967       -0.19882110147685866      0.24944717721203466        -0.44379967767154865      0.22841159839685404       -0.48051601094173568      -0.41930234208226697      0.1642809093562434        
1580302500    -0.25920591925511161       -0.064820435850935998     0.29035127821026246        -0.4852303205274337       0.28032881726107978       -0.5055308752111155       -0.5724148956858518       0.24454856250712204       
1600300000    -0.16554134845726703       0.010965527043492513      0.20553222219227563        -0.62165442243405389      0.19448100486780004       -0.60742946665416264      -0.5305456249926439       0.19827406632286657       
1620297500    -0.0064448062844310108     0.06167870713597387       -0.0060524538106933694     -0.78883996055150318      0.0046262957591389538     -0.73973762906292495      -0.34472722159788244      0.14571831954182993       
1640295000    0.08858881243276602        0.026749561289616537      -0.15810947825903068       -0.76785894826496148      -0.14961388487592217      -0.76581199970175762      -0.11527681933956087      0.032606297266735182      
1660292500    0.09638592934948001        -0.0011774910669250039    -0.16226636714269471       -0.64684579131130371      -0.18277961921824212      -0.6690221539768485       0.053776701005540238      -0.10420466964865935      
1680290000    0.059490910917111575       -0.025395916422721342     -0.20164420044084005       -0.60332838674447298      -0.22485454469202132      -0.59646671202000878      0.1030805309287469        -0.16271090118518533      
1700287500    -0.024127475647606051      0.036086582035528156      -0.32231093266922584       -0.64403886349869111      -0.3348464973924955       -0.61993699906510658      0.096577544421134504      -0.13479534130283527      
1720285000    -0.044074949537891421      0.11774260331258878       -0.39756012073766978       -0.68793062428984952      -0.39172902383672975      -0.6770627060277532       0.034664978744547582      0.0069101979230263514     
