! PocketVna 1.60  pocketvna.com
! Live measurements ((Reflection-S11, Transmission-S21, Transmission-S12, Reflection-S22) Linear 5000000-2000000000/800 calibrated)
# Hz S RI R 50
! Hz          ReS11                     ImS11                      ReS21                      ImS21                     ReS12                     ImS12                      ReS22                      ImS22                     
5000000       0.66069588427219583       -0.18367050734520637       -0.0062787432675441282    0.11106845220025323        0.054933486891217263       0.10092007213683354       2.1740004867366207         -0.024647091522121224     
7496871       0.65028696363579208       -0.31176595614793934       -0.031163234538132484     0.1885067757203264         0.063458540074345704       0.21282063276189236       4.1170664989446584         -1.4913292937780172       
9993742       0.62603924110218168       -0.30730124638934825       0.052823159625776772      0.24933150570972942        0.098760965136807072       0.1748806776366921        4.184971840436825          -2.1774293958999031       
12490613      0.76871492126919283       -0.56574995137719408       0.058647252083318058      0.25477758078756174        0.046743923840476223       0.25345695138454405       2.0259048932748231         -5.5482120094819507       
14987484      0.5390205482425845        -0.67419821822629356       0.10228504034146138       0.26293056700594181        0.13161743408081378        0.28591396237112326       0.93273962949052858        -4.0276959605640821       
17484355      0.37893698487622607       -0.68821041524868309       0.14408596248530409       0.27681203573101387        0.15384630381535774        0.27425454448279496       -0.26749509895887325       -2.8570538593541746       
19981226      0.18673868709744482       -0.84941018579595773       0.18866542033430977       0.30537074069819065        0.18924372993975183        0.30329986028255901       -0.25704030666635114       -1.8907006162442472       
22478097      0.12944553491748495       -0.73138800616511779       0.2349595454870978        0.32691109054763545        0.22131005321807098        0.32753113128033368       -0.24283766773682222       -1.7282960932133364       
24974968      0.013595392846136561      -0.78110493044307217       0.28559305858216388       0.32651820418228161        0.26532157749178886        0.33387885030972775       -0.29058592406563788       -1.3395422720935632       
27471839      -0.14000022115146096      -0.65681997165075834       0.31631653321163467       0.32620415189408231        0.31238811042931741        0.33667552837321141       -0.33291982110366031       -1.1443473238002977       
29968710      -0.17281582666534859      -0.64386115664638366       0.37190833973273202       0.32530605956934233        0.37896564524302417        0.34605703715273384       -0.27031414651348767       -1.0091072976674775       
32465581      -0.21502594322199975      -0.585747353710242         0.41133798400883814       0.32838203291162654        0.41378539660401387        0.32582744942071018       -0.27812219710415398       -0.94705063309571558      
34962453      -0.28457729375012125      -0.55610930017564475       0.4399001599888917        0.31531718401112035        0.45181792874036425        0.31575756524261439       -0.28833986818318258       -0.85029593675412685      
37459324      -0.27661756319043329      -0.50837804451080304       0.48863883222560384       0.30808386492901085        0.47158488825104927        0.31384619575088352       -0.31111187767947457       -0.76233315022815573      
39956195      -0.29432674837929124      -0.49670119709837501       0.51466481531720798       0.30084554195883562        0.50219443780181616        0.30596011078365576       -0.30532109024996179       -0.72570964200018506      
42453066      -0.31549926968527497      -0.4400845465806677        0.54039623030641637       0.28668616986445578        0.52895691350859364        0.29541831855195594       -0.3015660059479085        -0.67053833024183696      
44949937      -0.34968133059642675      -0.40952465819614925       0.55308537899076826       0.27113400776091062        0.550637544377651          0.28014078109247492       -0.26531860161530491       -0.62104393549632453      
47446808      -0.33258059103708948      -0.377312271197356         0.57231190101003038       0.25912960511442279        0.56186667554697733        0.25527573602779102       -0.2544830393569007        -0.59910004790381022      
49943679      -0.33366116004475538      -0.33341237747884339       0.58272893334237708       0.22756001414036295        0.57317614176165921        0.23661187583596344       -0.2540759505763957        -0.52520517146878121      
52440550      -0.34814302319941798      -0.29506650549876473       0.58418773635547183       0.20617850068766802        0.58369139150433458        0.21409050020752035       -0.21679811877844188       -0.45622958261936047      
54937421      -0.33467186057135778      -0.25144974980341922       0.59818603071482157       0.18416631701773056        0.5840685931181504         0.17844300628473087       -0.20494578389458798       -0.38908254986450824      
57434292      -0.34346766742653401      -0.21554503763617394       0.59840978787899823       0.15700148871593425        0.58740734286871887        0.15192894068287405       -0.19830205546355389       -0.3378248591146254       
59931163      -0.34170674165101678      -0.16315914114598754       0.60380196607100722       0.127726022485465          0.59251229497242863        0.12465458456664599       -0.21508937329767799       -0.27596467097398891      
62428035      -0.35252300097840994      -0.12855400475707704       0.60117094759878764       0.10085724961204236        0.60044191605071418        0.10660739512401181       -0.20412008269910512       -0.2115168304367705       
64924906      -0.35386657964320267      -0.089182534963948054      0.59596892954775915       0.077683231694484725       0.6004534913286701         0.072321136566490585      -0.19762429402302303       -0.17327107655747948      
67421777      -0.34671392923044769      -0.066783933522385874      0.59538253325447565       0.062539581304124472       0.60074720935454717        0.058329487417878391      -0.21745305834433976       -0.11590324653418989      
69918648      -0.35343796221327922      -0.045610879361149916      0.59394351634141196       0.043112013353041372       0.59530035794471037        0.044287581410455835      -0.21579398447892534       -0.071270689430565096     
72415519      -0.34953941140912542      -0.012608218064336318      0.58984549703702072       0.028530852514937345       0.59333900131050121        0.024740128322276608      -0.2136639940771988        -0.034097011737989742     
74912390      -0.35450044092947242      0.011833599912062067       0.58146352393232159       0.014989543201377272       0.58153921643174367        0.01440511075752632       -0.22440898797968384       -0.0059481981584411248    
77409261      -0.34709423551684965      0.036752935033723996       0.5744935771768932        0.0015187288218844333      0.57260920389971559        0.001355720320671722      -0.21978657889834396       0.037683185310514941      
79906132      -0.34872688166441007      0.058456603418620454       0.5628336843811016        -0.0086050133619213626     0.56799237033392314        -0.0090553670769726851    -0.20227053028070718       0.065902425315690183      
82403003      -0.3508471167435962       0.075878142046598263       0.5554648347069312        -0.020407329691276597      0.56199675522542492        -0.020980113221671679     -0.21749768378662232       0.11444223275305157       
84899874      -0.35393508666170909      0.099655278496041694       0.54503181343396268       -0.025613161163884516      0.55305133330400669        -0.028013559057658104     -0.21426910194091331       0.15235710082176201       
87396745      -0.34621375948014149      0.10738100922800163        0.54052244014988926       -0.035588823008408703      0.54643663204879755        -0.031738975205802544     -0.22927525954106903       0.18612077226363202       
89893616      -0.34960722799802102      0.13895182237613302        0.53335849830606175       -0.039319866107819984      0.53990257980025158        -0.042883254225823356     -0.24792743062528746       0.21446738724296488       
92390488      -0.34822748046410118      0.16653242116048772        0.52394527694455273       -0.044410660926096968      0.5310644369467552         -0.043840855085432499     -0.25496893307919022       0.24645759310350154       
94887359      -0.35348236353518492      0.17826016106914358        0.51940079746288859       -0.050874434035215001      0.52798478849271568        -0.053697364335677525     -0.27209038186353823       0.27681920715914821       
97384230      -0.35295793246231272      0.19632809788415867        0.51419607565469039       -0.051825141354825778      0.51879439513189596        -0.055965468327577914     -0.29418377359642284       0.30275377438635181       
99881101      -0.37089110035339024      0.20776327792651703        0.51170227801776536       -0.056179368048316296      0.51763291396470656        -0.051522895833367437     -0.30846581183502736       0.32615371885183658       
102377972     -0.3780539506190535       0.21963417254938944        0.50596316791543183       -0.059681686513709864      0.5120185523350651         -0.054906236179723657     -0.35647899375439901       0.33204507812423362       
104874843     -0.38088146094959241      0.22947148898911188        0.49955184196505126       -0.056917306639827789      0.50798492374355231        -0.059587591123032219     -0.37525253616714366       0.34353662418339942       
107371714     -0.39948421293028402      0.23773577830880424        0.49979773503663988       -0.055191075805038597      0.50417485801624917        -0.056565637650012615     -0.39481447293434208       0.35465452213875664       
109868585     -0.39020027197742163      0.24471580051059844        0.49397038542212163       -0.053212873865604908      0.49503244917920936        -0.057067478181516876     -0.43156924519589596       0.34896150699018863       
112365456     -0.40603560573328895      0.25185901938605509        0.49490800838444915       -0.053274994315482736      0.49687208232947333        -0.052644578093196677     -0.44447394314028549       0.34785711252702228       
114862327     -0.42039697577960922      0.25592768848323266        0.49096136592304485       -0.04664133512122344       0.49372613630974149        -0.049872223240480497     -0.46949718402629309       0.34322546208627697       
117359198     -0.43835944787407982      0.26475734233603448        0.49074668316418435       -0.045568051710296875      0.49172734271233476        -0.046878133217149648     -0.49544968701401187       0.33318261642604036       
119856070     -0.43381917687125654      0.25888515136570173        0.48650259986909472       -0.042079414586753988      0.48769335516118506        -0.043781883357341463     -0.50632634732696069       0.33280786540720164       
122352941     -0.45066585039940243      0.25323242528041973        0.48697152322425469       -0.042364935158772654      0.4920367367400133         -0.044765082263657045     -0.51989802366481719       0.31713381901078974       
124849812     -0.46018957973244384      0.26091089510109655        0.49004796744905099       -0.036036853056077275      0.49019127966948162        -0.036560668845566746     -0.52701184294687875       0.31101292181265489       
127346683     -0.46103470234442445      0.2615276839711197         0.49225967682387478       -0.029053184720301481      0.49100865091536894        -0.035399213781647738     -0.54438279930342992       0.31799604907961715       
129843554     -0.47659866982350985      0.26454781098937219        0.49153825309165311       -0.02852255984441434       0.49011665180968117        -0.034865937464074799     -0.56462160808257855       0.31232195555860726       
132340425     -0.48376181610379343      0.26422375823771566        0.49388470503021109       -0.02698075264757821       0.49301233452253918        -0.029914419469191364     -0.56639083424493653       0.30022512225622677       
134837296     -0.48877891678344837      0.26188007694074938        0.49705505527690519       -0.025219050546558468      0.49647097197133883        -0.030955314731516786     -0.58409586987455253       0.29544224848734807       
137334167     -0.4963870289362054       0.2604211535388905         0.50126362746824715       -0.025626855830122919      0.49723791157070724        -0.024414063302839586     -0.60616721867212164       0.2952313908366323        
139831038     -0.5058737030572743       0.26612186141662314        0.50619717892008442       -0.021017027221397082      0.50839143474883774        -0.027424306087897594     -0.61331211077952297       0.28592455361094277       
142327909     -0.52182736766134319      0.26532810755331016        0.51609395420543491       -0.023059259407802121      0.5076916993370193         -0.02596358951636004      -0.62230565342701494       0.2732673913143876        
144824780     -0.54328592073625948      0.26403472685856882        0.52259751163467383       -0.021202239856119867      0.51512104798906677        -0.024465147016696082     -0.63662548320927015       0.27414638113265799       
147321652     -0.52818447304333505      0.26247618778308768        0.5291400414765759        -0.023966280555738434      0.52318590069927273        -0.028527177069457992     -0.65248701121336783       0.26578901647505282       
149818523     -0.54204736470689419      0.26149869577368617        0.53376247892444606       -0.027207671553723202      0.53637078751620038        -0.033618388277360765     -0.65965476036244119       0.25724233252965223       
152315394     -0.54469579740592666      0.26816297790618471        0.54380381243418607       -0.027644923151677277      0.54222942545663277        -0.032139887587822123     -0.67486589262032148       0.25184749498499331       
154812265     -0.57416728387065386      0.27057724278377804        0.5529751945259731        -0.030897164471961846      0.55321596020779373        -0.031720956517935918     -0.68738947442739273       0.23799835151739301       
157309136     -0.56489858725250441      0.27624181073473697        0.56416544539387148       -0.036208687595479787      0.56122854551015122        -0.033829835627842961     -0.70501269844171688       0.23512806388483826       
159806007     -0.59025601408910522      0.27928436378915733        0.57974302526446808       -0.038549681157550086      0.57760765172022288        -0.038473238989256253     -0.72069015347154741       0.2273870667165476        
162302878     -0.60884131837434019      0.28065190561718262        0.59275426532670916       -0.049332112469477871      0.59168464538608134        -0.044489704675972012     -0.73086116549679569       0.21322391540958593       
164799749     -0.61652592344163348      0.27514559307912606        0.60302840540639047       -0.055466104973537829      0.60773012427290007        -0.047829135785954088     -0.73945906335506606       0.20507182666188761       
167296620     -0.62350841623168651      0.27591935285675595        0.61875396157255236       -0.062496100711773465      0.61564091877074878        -0.056584843965241563     -0.74797616397239963       0.18792567374989314       
169793491     -0.64327710227401513      0.26719116298933299        0.63231050640164288       -0.072301638096387358      0.6274666887947814         -0.067828177582245117     -0.76734292161381334       0.18692347328097972       
172290362     -0.65881864142205315      0.26993546535568735        0.6428451984010346        -0.086720769472682896      0.64080317677972942        -0.072522631233455717     -0.77303566871187757       0.17391613912123213       
174787233     -0.66768429673132457      0.25942259380574961        0.65881188482335229       -0.094523109054233209      0.65557292593064276        -0.084003135637746335     -0.77161982894301184       0.16146591230007593       
177284105     -0.69351441327714469      0.26688179478671742        0.67811259724784401       -0.11012466708888544       0.66629519132673931        -0.099462288055594331     -0.777015498897624         0.16061907398495853       
179780976     -0.6935952495065415       0.2576805737327183         0.68704406137313789       -0.12840008456525906       0.68629584476137073        -0.11241071597825585      -0.78270416836037826       0.15273877931589058       
182277847     -0.70914681834236226      0.25950294317722683        0.70159088248078028       -0.14654252517530134       0.69350269664454911        -0.13093111965161161      -0.78371218651708585       0.13978850599391812       
184774718     -0.7082719138498017       0.24719243568744589        0.71593587312541918       -0.16340610407808739       0.70601647404357093        -0.14542546768292255      -0.79065299850876614       0.1328384170433152        
187271589     -0.71521843119403494      0.23519643251865788        0.72292363546074945       -0.18412050760287299       0.71633287566691928        -0.16563472004109919      -0.78561801700581024       0.11792478333232091       
189768460     -0.7260230347078247       0.23042691669666407        0.73189071013255269       -0.20470077524644642       0.72425418073545889        -0.18323829743414238      -0.78741790353320418       0.11336251522544952       
192265331     -0.70561407878276072      0.22470616012298328        0.7427962633251084        -0.22890427360927904       0.73263550833069713        -0.20628673057230201      -0.78793025691860819       0.11065561246608725       
194762202     -0.69608422876252829      0.22259145346961667        0.74156683948353841       -0.2526437280249515        0.73253003402119976        -0.22868507832851434      -0.7762131433677687        0.10589491080944244       
197259073     -0.69267974972432955      0.21755493334731937        0.74149961563042666       -0.27643338832045977       0.72976406711184483        -0.25797528255981123      -0.7610400578987575        0.10827748770263225       
199755944     -0.67222942636908156      0.21686455876044541        0.73415652280459931       -0.30019351554271995       0.72158664918659843        -0.28212588346740941      -0.75720850123030847       0.10299812145088404       
202252815     -0.65848074524346722      0.22597154955237059        0.71810318956551045       -0.32680537759924955       0.70849750299411696        -0.30964205447484505      -0.7344572294471885        0.10601445819517262       
204749687     -0.62175040967157025      0.22977635147214717        0.70713188512386971       -0.35057285111083519       0.69148307067873827        -0.34429723347873414      -0.71454241465437207       0.11027966966718188       
207246558     -0.60571292435618473      0.23929550802409372        0.68658545829911144       -0.37851181986986837       0.66620323194424647        -0.36921478225181309      -0.70057936935738774       0.10979522130312144       
209743429     -0.5834201193652816       0.24818885118670234        0.65490687253515056       -0.39886771510885427       0.64253999429375552        -0.39793099241471291      -0.67631702103238445       0.11680750863689147       
212240300     -0.56412658986973818      0.26155663680916519        0.62763011472916075       -0.41779898850873276       0.61064081530430048        -0.42517243324223686      -0.65546339546887733       0.11278011730607131       
214737171     -0.52705908569455717      0.26746018614653388        0.59356294963135747       -0.43566168317862286       0.57676962105002627        -0.45031511529671908      -0.63862774270269607       0.12287866406425782       
217234042     -0.50742539116611474      0.27880605517765195        0.55536326697335248       -0.45485484973741913       0.53635849185271545        -0.47673126326654797      -0.6119229760732906        0.12374443410696077       
