! PocketVna 1.60  pocketvna.com
! Live measurements ((Reflection-S11, Transmission-S21, Transmission-S12, Reflection-S22) Linear 5000000-2000000000/800 calibrated)
# Hz S RI R 50
! Hz          ReS11                      ImS11                      ReS21                      ImS21                     ReS12                      ImS12                      ReS22                      ImS22                     
5000000       0.57461690492537598        -0.070410898773266298      -0.038241192749977095      0.14034822982912615        0.062763352705384232       0.16114069444829995       2.2480642696640798         -0.11742386066570022      
7496871       0.60882095732552155        -0.26921421940464507       -0.042451819244147121      0.16965144409982044        0.024490575137693173       0.18863874989199048       6.1561197726661216         1.2517553844168039        
9993742       0.5605250053197226         -0.3807443650344664        0.030639265883974098       0.21796889495374705        0.05074206602879594        0.21847906638133407       3.7525683087022985         -2.8512254494709062       
12490613      0.74876372848762118        -0.59079258431832449       0.062926512982731372       0.2275081336255188         0.043116677612983913       0.21808097262101234       -0.47449694780541884       -5.4366873016375701       
14987484      0.44830858890461517        -0.65490187662954025       0.096466818655078002       0.27499785387533171        0.14073029083786076        0.26710977563341098       -0.78551342074328878       -3.4423367044171216       
17484355      0.34165098218357776        -0.69786748473013493       0.15269210796007937        0.26203150592434848        0.15479853631040857        0.26894893272666048       -0.72835494473406104       -2.5254055458222622       
19981226      0.085900193144426831       -0.75873896664316154       0.19955753252680855        0.29852027834635003        0.21554615077724454        0.30220170579197153       -0.5107925910009985        -1.7179394587807011       
22478097      0.043543518657829162       -0.72426714885438992       0.2454666122347347         0.31534162102495561        0.24949018893233083        0.29914940642421378       -0.4648643408101194        -1.5382178558895943       
24974968      -0.047567083693458592      -0.72873228260592404       0.29854635336844182        0.32175444683530147        0.29348463338114716        0.31794501255038854       -0.42534577366064891       -1.2542327272420724       
27471839      -0.19209219819939147       -0.65703263563587389       0.34478609293324863        0.31869919453193413        0.32945261498811262        0.31582364516240324       -0.4136143764253542        -1.0795399483380288       
29968710      -0.22791754601200589       -0.62770779821868028       0.39212084701470779        0.30210517023751671        0.39799460744358772        0.31393921617216419       -0.30456662647996452       -0.91883990727268627      
32465581      -0.26545270388510089       -0.57937134425261549       0.42766045229700672        0.30358944555335671        0.42698183962316039        0.30196287141251488       -0.35591723779249107       -0.89882935363722671      
34962453      -0.33683165699669948       -0.53224792151434075       0.46757842558180973        0.2959555047952544         0.46676312438515971        0.29942332504458169       -0.35189911271428631       -0.78243386556796568      
37459324      -0.35406374652644973       -0.50030693719750563       0.50084793776142467        0.27861513341468302        0.49683084771502128        0.28416993738391527       -0.37068628193863379       -0.73402768460255652      
39956195      -0.35797170343433549       -0.46867782016147902       0.53835679117360313        0.26567285201440488        0.52949645064397111        0.27039772182259203       -0.35034178430954344       -0.66678564191167411      
42453066      -0.39141059431146719       -0.41349118964967213       0.56404654951445909        0.24448506115578458        0.55855415350692894        0.25616014167706735       -0.3549951079119476        -0.58381371063878196      
44949937      -0.405407984074238         -0.40278116055766838       0.58126627152665156        0.2245864937952704         0.57428233342285517        0.23388209035505583       -0.35605506573531132       -0.57809077106013596      
47446808      -0.39077517530383438       -0.35322504651641251       0.59900478553850056        0.20218644725489454        0.58482168853810446        0.20549903355630139       -0.3190201671196648        -0.5245226104500923       
49943679      -0.38410643980227605       -0.30298091874527966       0.60818029828700348        0.17616553922587733        0.60702283557779713        0.17838661680852042       -0.30586724489305778       -0.44922112183649582      
52440550      -0.39001957045201396       -0.26833007212106763       0.61475480443385722        0.14706059088307577        0.61068632758873498        0.14758562883878698       -0.28637087970177411       -0.38491091504203812      
54937421      -0.39655244447224702       -0.22658796618652877       0.61998049260889554        0.10895816581312424        0.61795945884761871        0.10967761782527148       -0.26647251732247451       -0.32650097228241104      
57434292      -0.39923790888842187       -0.17651822290195723       0.63022907380290827        0.073391370235523029       0.62162746319372975        0.078400679381347149      -0.26003994061665864       -0.2569197577402888       
59931163      -0.38968463254710467       -0.13780627494038789       0.63363442630003664        0.043236623964211282       0.62678474693497455        0.042803588073971943      -0.26157174876837042       -0.20763181961846741      
62428035      -0.40550869403750822       -0.10362764730249387       0.62928930308120967        0.017036134932805733       0.62999150310718166        0.02155394788624361       -0.25894206242680212       -0.15134802933548114      
64924906      -0.40185903699038422       -0.066361556438127772      0.62649580672285765        -0.0088628413257858304     0.62474270334365511        -0.0059784435376856087    -0.25629537180302214       -0.1098341161715936       
67421777      -0.39689687459787082       -0.029222015021415918      0.6194399289218655         -0.025468464783784561      0.61834881344354509        -0.026354716466143881     -0.26088014938627391       -0.052521006303838103     
69918648      -0.39325694205235395       -0.017955567933400956      0.61267772132518161        -0.044126987734345487      0.60858434853362664        -0.043997723712875227     -0.24714625617000183       -0.018231582175849675     
72415519      -0.38426004334053687       0.0049689678615130158      0.60002434039177799        -0.061215999180224905      0.60025661058949153        -0.060174930503758321     -0.23914142023054891       0.020430790961563805      
74912390      -0.39090552643345333       0.036059536796081267       0.58683011711211586        -0.078466917386210144      0.5829432488240005         -0.077216645952349811     -0.24607757604111888       0.055624802864168675      
77409261      -0.38538257778880836       0.064879925773163205       0.57052620248393804        -0.089815410192616171      0.5739203402312375         -0.089631412628030163     -0.23471056405073373       0.10428474458237293       
79906132      -0.38007538204114211       0.084695802449514163       0.55312961432436636        -0.10626728463394472       0.56158829600174776        -0.10730410156401322      -0.22343136910422068       0.12840162195409391       
82403003      -0.37244390415131734       0.10235345849939591        0.54740725493653586        -0.11835481349801932       0.54577273100274393        -0.1174231381405442       -0.22270551253346316       0.17234980593257626       
84899874      -0.36897832709466322       0.11921483756123895        0.53228973401030333        -0.12782664660840004       0.53224610821717122        -0.13248720868596534      -0.22724163984971468       0.21060342196030662       
87396745      -0.35814774070880034       0.13605099617259306        0.5230095108595304         -0.1405898494068909        0.52684063491468569        -0.13875965380171965      -0.22359055912864265       0.24538127303870583       
89893616      -0.36917562130940523       0.15945704618370163        0.51249039662892859        -0.14720436230883158       0.51451017482850947        -0.14760004310286529      -0.23943578079508632       0.28563038581446065       
92390488      -0.37207343119078196       0.18064415024424313        0.50458924080885292        -0.15357154136580109       0.51066656421937406        -0.15901910575110695      -0.25724394536298228       0.31444934427762328       
94887359      -0.37111179463669586       0.20078908966688025        0.49750331042136625        -0.16490244354155506       0.50114350363510241        -0.16385335823895181      -0.27435060564787522       0.34567469962222408       
97384230      -0.36376723501376501       0.2086052487221069         0.48996508879516631        -0.16880843838719325       0.49465202786277379        -0.17454612319035623      -0.28802489425672129       0.37400478860020214       
99881101      -0.38306456199774147       0.22224453737008087        0.48675712638317847        -0.17288681871449674       0.4971527270762825         -0.17524148610485982      -0.31850492298730604       0.39000162372374136       
102377972     -0.39175620515520904       0.23130211082481145        0.48248926708386802        -0.17856800877115914       0.48792698702601756        -0.1741085065001737       -0.34487341308805514       0.40103865601147065       
104874843     -0.39297029040440018       0.24956190875158657        0.48451010981300024        -0.17952964435570076       0.4939217703708253         -0.17342924998038373      -0.36461382202603043       0.41799510955411118       
107371714     -0.41527786208151918       0.25369018168452162        0.47943276901784332        -0.17545030914961596       0.48866117163821243        -0.17489877855151156      -0.39470096665351706       0.41347052719332306       
109868585     -0.40767316030981798       0.25313436569178044        0.47907921893895533        -0.17422738174709701       0.48752663931606033        -0.17557487170031835      -0.42265556580059876       0.42976725595829907       
112365456     -0.41908938321560335       0.26498330809623794        0.48177652238083124        -0.17277084429397219       0.48450795382363604        -0.16704326326918409      -0.43955769972498143       0.41144713412507489       
114862327     -0.43034921716752783       0.26124881812082201        0.48024646852511971        -0.17070189769577335       0.48490986666143304        -0.16350271245885434      -0.46239122263426513       0.40305314858726254       
117359198     -0.44996310138655937       0.26732509163467288        0.47868267723191854        -0.16687156360297431       0.48017554754658698        -0.16211995053179012      -0.48554658205134471       0.39276992404300415       
119856070     -0.4534653997361906        0.25916378458758976        0.47473869530317064        -0.16264601096235051       0.48244186677528406        -0.15607362940903291      -0.49579023864823907       0.3960830756112233        
122352941     -0.45696082968443641       0.26590417174097819        0.47999099533236683        -0.16028150548973272       0.47561367651099501        -0.16089920665234583      -0.51392927711635583       0.37857364517606856       
124849812     -0.47694447643900323       0.2736585461690676         0.47680987233838529        -0.15860218550160657       0.47761351073415048        -0.15229789156775023      -0.51618002031163557       0.3703215269344633        
127346683     -0.48193767497164236       0.27657578181010922        0.47817760446830382        -0.15266550925021402       0.47247842199124357        -0.15522331265752112      -0.53587687640280968       0.3787482825842019        
129843554     -0.48749838179690386       0.27956254955074206        0.48102477528693599        -0.14992440772435708       0.47207465327069942        -0.15584210259965944      -0.54903058640932667       0.37250848324088054       
132340425     -0.50579761431539771       0.26819655674674403        0.47784278984731576        -0.15215730443075728       0.47063054776722418        -0.15125413796846326      -0.55466687892730859       0.3714598816144512        
134837296     -0.50191459625949053       0.28749159810517755        0.48370592439111193        -0.15143016771304993       0.47335773895963973        -0.15775597194874871      -0.57116710992214137       0.35931684228810984       
137334167     -0.50176277464522401       0.2838667244302262         0.48043375963480583        -0.1518890597087173        0.47519577624907589        -0.15703409736099902      -0.57546690198336958       0.36583075705780782       
139831038     -0.52412124374541103       0.2897101954872639         0.48787830449303488        -0.15500607737452604       0.48001708741060162        -0.1625371264952111       -0.59244142316974213       0.36390468523040748       
142327909     -0.52968141834253968       0.29445137187984438        0.48600709380483514        -0.1593709692644911        0.48007955431248378        -0.16738965512720819      -0.59142192176164543       0.36228671414333191       
144824780     -0.54861191444479651       0.29490029592759354        0.49049232489903283        -0.16833578341159505       0.48226638422433116        -0.182013929652175        -0.60961122163560022       0.35929482588125655       
147321652     -0.54031489183555159       0.30742995419962582        0.49403494306962931        -0.17842646294336567       0.48941468922211234        -0.18819689801430023      -0.62242579419655419       0.35485590444550735       
149818523     -0.5498037065530651        0.32001850005889904        0.50035752229337238        -0.18813797573729399       0.49898083129028448        -0.19879217064652463      -0.6326648728237062        0.35518977247326033       
152315394     -0.55343364538836792       0.31253103148842071        0.50783015839836687        -0.20186040657612619       0.509973995046896          -0.21069128206517879      -0.64992999076114877       0.34564191708321085       
154812265     -0.57424147001112202       0.32110091265395041        0.51539848975596958        -0.21081331033478576       0.52404866406861617        -0.22120985499334833      -0.66429104915103365       0.34779546058349536       
157309136     -0.57952371901805622       0.33416622828307241        0.52525480621835063        -0.22819234228898841       0.53332046440671488        -0.23805408169991452      -0.6718513653570396        0.34759049305509404       
159806007     -0.60188089348113627       0.34713920914753194        0.5340479170031045         -0.24495482666930074       0.54837333249796727        -0.25066774310632789      -0.68677768045739107       0.34250123059028864       
162302878     -0.60690578808963824       0.35858728627108638        0.55036854368457522        -0.26930433730921582       0.55872368523905624        -0.26956449164989754      -0.69117787926380558       0.33900570868479596       
164799749     -0.61515556769545499       0.36599214135226371        0.55503337063459302        -0.2831067753686593        0.57511475727605854        -0.28627337855284846      -0.70126638488327508       0.332560158017843         
167296620     -0.61832555183025606       0.36674787868921649        0.56911932668459753        -0.30493170174004658       0.58663495298789547        -0.30365425357415093      -0.70719032520905667       0.32066295168315856       
169793491     -0.63283836789332748       0.37389936616542246        0.58255530319430515        -0.33107710204760699       0.60035351449655805        -0.32602352306363896      -0.71836806534704445       0.31936090875104389       
172290362     -0.65433789354626493       0.37444109690440747        0.5939781112827901         -0.35189639666737865       0.61227250806708167        -0.33704687285715079      -0.72448853182679462       0.31109688233081129       
174787233     -0.64516365115963548       0.37744748764340996        0.60655901627555775        -0.37692299502453464       0.62023919455160348        -0.3635922810581097       -0.71866842158377398       0.30074842629323678       
177284105     -0.67259499802491396       0.39206553892815554        0.6182457149968833         -0.40567070832224666       0.62700037964670319        -0.38049152025135324      -0.72053679328876752       0.30243709402787378       
179780976     -0.67622538782924191       0.38183794255544884        0.62571670452579498        -0.42805319143486242       0.63441745169546848        -0.39963408340649348      -0.71911844071885922       0.29691859843533458       
182277847     -0.68490021366163012       0.39033493017036069        0.62969052741935472        -0.45266414258395993       0.63628082823450727        -0.42209226208747713      -0.71388083917134293       0.27657281642872          
184774718     -0.66348863249706658       0.38595420251785989        0.62894338146054396        -0.47802861319164519       0.62802229122019881        -0.44788677357033735      -0.71575002571030444       0.26844499784720899       
187271589     -0.67253142892800721       0.37756049040111084        0.62384404591273224        -0.50304183072199804       0.62275730543487318        -0.4691767810622392       -0.69580813182899193       0.26552524844897407       
189768460     -0.67130415700524149       0.3684312958557931         0.61556933677503145        -0.52314165311596084       0.6077523301354254         -0.48928132560719939      -0.68253466563060317       0.25036458168472775       
192265331     -0.64055580260375655       0.36985031779127803        0.60344793384943463        -0.54538592832442667       0.58855652682022452        -0.51366339530940974      -0.6738880856137075        0.24871711537776972       
194762202     -0.63101647484993284       0.36012275915408237        0.57883499833291407        -0.56596632901979671       0.56317722051017893        -0.53897147657335043      -0.65255349573757493       0.24192897837469365       
197259073     -0.61013609703953853       0.36039873610039891        0.55213519655578225        -0.58171242442223081       0.52555907888191844        -0.55844671773922538      -0.61925265268922292       0.2386218717375008        
199755944     -0.57708370634666817       0.35163198577823507        0.51934132546700296        -0.60236491762854261       0.48679316444861659        -0.57418747817987859      -0.60580390347504265       0.23227110848608676       
202252815     -0.54352788616081127       0.35621180063829005        0.47390365870456869        -0.61132563727646871       0.44293084109998615        -0.59344503855987807      -0.57106164677029692       0.22741552961917194       
204749687     -0.5085455633798156        0.35317002837208256        0.43538705918325787        -0.62140044065527722       0.39295897102739158        -0.61092166988537322      -0.53763504207977264       0.24188684749604519       
207246558     -0.48203413950399254       0.35136533619508092        0.38645426363617968        -0.62590119016717027       0.3436637162342297         -0.61838981598308018      -0.50932023832423645       0.23672666094786254       
209743429     -0.44342559643099977       0.35568332366194272        0.33147437055574047        -0.6222684581373068        0.29283888936381791        -0.63135491919763742      -0.4761344771622345        0.23789508553425909       
212240300     -0.41920320546728579       0.36584411599822608        0.28835552078735099        -0.61886955778495867       0.24623064225374097        -0.63200663749794295      -0.45100489849957631       0.23461498013751086       
214737171     -0.38230083390214886       0.36526478698602           0.24485356422840787        -0.614972506027889         0.20214031051994796        -0.64093208088780096      -0.42436235207266726       0.24144762414538745       
