! PocketVna 1.60  pocketvna.com
! Live measurements ((Reflection-S11, Transmission-S21, Transmission-S12, Reflection-S22) Linear 400000000-2000000000/800 non-calibrated)
# Hz S RI R 50
! Hz          ReS11                      ImS11                      ReS21                      ImS21                      ReS12                      ImS12                      ReS22                      ImS22                      
400000000     0.00092881172895431519     -0.00010831654071807861    0.004065290093421936       -0.0027549788355827332     0.00089608877897262573     -0.0044998377561569214     0.00064832717180252075     -0.00082493573427200317    
402002503     0.00090752542018890381     -0.00010355561971664429    0.0039264708757400513      -0.0029325410723686218     0.00068262964487075806     -0.0045239776372909546     0.0006257668137550354      -0.00082779675722122192    
404005006     0.00090117007493972778     -9.6887350082397461e-05    0.0037819445133209229      -0.0030777156352996826     0.00046695023775100708     -0.004537634551525116      0.00058892369270324707     -0.000799521803855896      
406007509     0.00088910013437271118     -0.00010641664266586304    0.0036580637097358704      -0.0032238364219665527     0.00027508288621902466     -0.0045525580644607544     0.00056636333465576172     -0.00077760964632034302    
408010012     0.00087258219718933105     -0.00011181831359863281    0.0035027340054512024      -0.0033626481890678406     6.5758824348449707e-05     -0.0045738369226455688     0.00056509673595428467     -0.00078237801790237427    
410012515     0.00085288286209106445     -0.00010292232036590576    0.003346763551235199       -0.0034877955913543701     -0.00012134760618209839    -0.004552885890007019      0.00055271387100219727     -0.00078237056732177734    
412015018     0.00084335356950759888     -9.8787248134613037e-05    0.0031806305050849915      -0.0036186724901199341     -0.00033671408891677856    -0.0045296847820281982     0.00054127722978591919     -0.00077538937330245972    
414017521     0.00083287805318832397     -9.4026327133178711e-05    0.0030151382088661194      -0.0037447810173034668     -0.00053174793720245361    -0.0045233368873596191     0.00053714215755462646     -0.00075664371252059937    
416020025     0.00082652270793914795     -9.4026327133178711e-05    0.0028486922383308411      -0.0038521438837051392     -0.00074298679828643799    -0.0044957026839256287     0.00053079426288604736     -0.00076903402805328369    
418022528     0.00082620978355407715     -7.6554715633392334e-05    0.0026796981692314148      -0.0039757117629051208     -0.00091864168643951416    -0.0044461414217948914     0.00051110237836837769     -0.00075601041316986084    
420025031     0.00082779675722122192     -8.8304281234741211e-05    0.0025059431791305542      -0.0040811672806739807     -0.0011193975806236267     -0.0043953210115432739     0.00050348043441772461     -0.00074965506792068481    
422027534     0.00080556422472000122     -8.703768253326416e-05     0.0023353621363639832      -0.0041599422693252563     -0.0013010874390602112     -0.004350222647190094      0.00049299001693725586     -0.00075791031122207642    
424030037     0.00082843005657196045     -8.6724758148193359e-05    0.0021479502320289612      -0.0042730271816253662     -0.0014904141426086426     -0.0043041631579399109     0.00050379335880279541     -0.00073567777872085571    
426032540     0.00081223249435424805     -5.6542456150054932e-05    0.0019653066992759705      -0.0043349787592887878     -0.0016911700367927551     -0.0042196661233901978     0.00049585103988647461     -0.00073536485433578491    
428035043     0.0008255690336227417      -5.6542456150054932e-05    0.0017871037125587463      -0.0044172480702400208     -0.0018601566553115845     -0.0041504129767417908     0.00047775357961654663     -0.00075219571590423584    
430037546     0.00082493573427200317     -5.4001808166503906e-05    0.001578405499458313       -0.0044909417629241943     -0.0020440816879272461     -0.0040675103664398193     0.00047615915536880493     -0.00073599070310592651    
432040050     0.00081921368837356567     -5.2727758884429932e-05    0.0013938546180725098      -0.0045652687549591064     -0.0022181496024131775     -0.0039839595556259155     0.00046949088573455811     -0.00075409561395645142    
434042553     0.000835418701171875       -6.2897801399230957e-05    0.0011902377009391785      -0.0046291127800941467     -0.0024036616086959839     -0.0038794577121734619     0.00047806650400161743     -0.00074933469295501709    
436045056     0.00084654241800308228     -3.684312105178833e-05     0.00097645819187164307     -0.004668503999710083      -0.0025821775197982788     -0.0037743151187896729     0.0004691779613494873      -0.00075442343950271606    
438047559     0.0008573383092880249      -6.1944127082824707e-05    0.00078745931386947632     -0.0047231391072273254     -0.0027530714869499207     -0.0036539286375045776     0.00045519322156906128     -0.00075918436050415039    
440050062     0.00086432695388793945     -5.6229531764984131e-05    0.00057685375213623047     -0.0047542676329612732     -0.0029220655560493469     -0.0035433843731880188     0.0004497915506362915      -0.00078237056732177734    
442052565     0.00087226182222366333     -6.8292021751403809e-05    0.00033448636531829834     -0.0047898441553115845     -0.0030885115265846252     -0.0033959969878196716     0.0004558265209197998      -0.00078681856393814087    
444055068     0.00089800357818603516     -6.1944127082824707e-05    0.00013086944818496704     -0.0048276409506797791     -0.0032390803098678589     -0.0032670348882675171     0.00046503543853759766     -0.0008090585470199585     
446057571     0.00090593844652175903     -8.1948935985565186e-05    -7.9728662967681885e-05    -0.0048311427235603333     -0.0034106075763702393     -0.0031126514077186584     0.00044248253107070923     -0.0008074641227722168     
448060075     0.00091896206140518188     -8.5450708866119385e-05    -0.00031320005655288696    -0.0048279613256454468     -0.0035462453961372375     -0.0029570013284683228     0.00043930858373641968     -0.00082684308290481567    
450062578     0.00092627108097076416     -8.703768253326416e-05     -0.00052158534526824951    -0.0048333629965782166     -0.0036799758672714233     -0.0027902349829673767     0.00043518096208572388     -0.00085384398698806763    
452065081     0.00094660371541976929     -0.00011498481035232544    -0.00074266642332077026    -0.0048378109931945801     -0.0038016289472579956     -0.0026403144001960754     0.00041516870260238647     -0.00085606426000595093    
454067584     0.00097391009330749512     -0.00011847913265228271    -0.00096438825130462646    -0.00481366366147995       -0.0039315596222877502     -0.0024636909365653992     0.00042723864316940308     -0.00089228153228759766    
456070087     0.00099075585603713989     -0.00014135986566543579    -0.0011568814516067505     -0.0047857165336608887     -0.0040598884224891663     -0.002257220447063446      0.00039324909448623657     -0.00092181563377380371    
458072590     0.00099392235279083252     -0.00015691667795181274    -0.0013827309012413025     -0.0047539547085762024     -0.0041717067360877991     -0.0020860135555267334     0.00039451569318771362     -0.00093166530132293701    
460075093     0.0010279193520545959      -0.0001797899603843689     -0.0016028657555580139     -0.0047078952193260193     -0.0042647719383239746     -0.0018703266978263855     0.00039324909448623657     -0.00095549225807189941    
462077596     0.0010307729244232178      -0.00018836557865142822    -0.0018071159720420837     -0.0046650096774101257     -0.0043629258871078491     -0.001677192747592926      0.0003818124532699585      -0.00097835808992385864    
464080100     0.0010580942034721375      -0.00023061782121658325    -0.0020294636487960815     -0.0045871883630752563     -0.004449009895324707      -0.0014675408601760864     0.00034306943416595459     -0.0010133013129234314     
466082603     0.001088269054889679       -0.00025316327810287476    -0.0022362619638442993     -0.0045061856508255005     -0.0045277848839759827     -0.0012426525354385376     0.00034528225660324097     -0.0010571405291557312     
468085106     0.0010981112718582153      -0.00028620660305023193    -0.0024500340223312378     -0.0044356659054756165     -0.0045932158827781677     -0.0010215640068054199     0.00031796097755432129     -0.001063808798789978      
470087609     0.0011044666171073914      -0.00031161308288574219    -0.0026517435908317566     -0.0043543428182601929     -0.0046469047665596008     -0.0007973015308380127     0.00029128789901733398     -0.0010939911007881165     
472090112     0.0011203587055206299      -0.00034655630588531494    -0.0028556734323501587     -0.0042428523302078247     -0.0046894624829292297     -0.00056573748588562012    0.00025952607393264771     -0.0011460781097412109     
474092615     0.0011327415704727173      -0.0003919750452041626     -0.0030487999320030212     -0.0041478723287582397     -0.0047196447849273682     -0.00032813847064971924    0.00024522840976715088     -0.0011743530631065369     
476095118     0.0011451244354248047      -0.00040850043296813965    -0.0032435208559036255     -0.0040211305022239685     -0.0047485530376434326     -9.3065202236175537e-05    0.00021632015705108643     -0.0012096166610717773     
478097621     0.0011419504880905151      -0.00046122819185256958    -0.0034309402108192444     -0.003904879093170166      -0.0047574490308761597     0.00013024359941482544     0.00018233060836791992     -0.001230582594871521      
480100125     0.0011673644185066223      -0.00049871206283569336    -0.0036154910922050476     -0.0037755891680717468     -0.0047609433531761169     0.00038086622953414917     0.00014580786228179932     -0.0012664645910263062     
482102628     0.0011727660894393921      -0.00056541711091995239    -0.003798462450504303      -0.003617405891418457      -0.0047514066100120544     0.00061243027448654175     0.00010831654071807861     -0.0012801289558410645     
484105131     0.0011902377009391785      -0.000605754554271698      -0.0039598271250724792     -0.0034849420189857483     -0.0047240927815437317     0.00086432695388793945     6.9886445999145508e-05     -0.0013058632612228394     
486107634     0.001189596951007843       -0.0006375238299369812     -0.0041253268718719482     -0.003317221999168396      -0.0047075673937797546     0.0010904967784881592      3.5256147384643555e-05     -0.0013604983687400818     
488110137     0.0012038946151733398      -0.00070264935493469238    -0.0042866840958595276     -0.0031523630023002625     -0.0046542063355445862     0.0013306364417076111      -6.3329935073852539e-07    -0.0013919472694396973     
490112640     0.0011889636516571045      -0.00074933469295501709    -0.0044372528791427612     -0.0029859170317649841     -0.0045875012874603271     0.0015663281083106995      -3.2082200050354004e-05    -0.001420535147190094      
492115143     0.001193411648273468       -0.00079063326120376587    -0.0045782923698425293     -0.0028121545910835266     -0.0045153945684432983     0.0018064752221107483      -9.2431902885437012e-05    -0.0014519840478897095     
494117647     0.0011841952800750732      -0.0008452683687210083     -0.0047155097126960754     -0.0026091784238815308     -0.0044315457344055176     0.0020478889346122742      -0.00014484673738479614    -0.0014767572283744812     
496120150     0.0011692717671394348      -0.00090879946947097778    -0.0048565566539764404     -0.0024198591709136963     -0.0043432265520095825     0.0022848546504974365      -0.0002055242657661438     -0.0014824718236923218     
498122653     0.0011657774448394775      -0.00097741186618804932    -0.0049953684210777283     -0.002200685441493988      -0.0042272880673408508     0.0025253146886825562      -0.00025951862335205078    -0.0015081986784934998     
500125156     0.0011371821165084839      -0.0010399818420410156     -0.0051059126853942871     -0.0019760951399803162     -0.0041059479117393494     0.0027708560228347778      -0.00032304972410202026    -0.0015317127108573914     
502127659     0.0011384636163711548      -0.0011044666171073914     -0.0052164569497108459     -0.0017550140619277954     -0.0039661750197410583     0.003000207245349884       -0.00038117170333862305    -0.0015561729669570923     
504130162     0.00109843909740448        -0.0011724457144737244     -0.0053193718194961548     -0.0014904141426086426     -0.0038089379668235779     0.0032308176159858704      -0.00044725090265274048    -0.001580946147441864      
506132665     0.0010844618082046509      -0.0012308955192565918     -0.0054159313440322876     -0.0012604370713233948     -0.0036297887563705444     0.0034712851047515869      -0.00052571296691894531    -0.001574590802192688      
508135168     0.0010415762662887573      -0.0013112574815750122     -0.0055036023259162903     -0.00099265575408935547    -0.0034283995628356934     0.0036920458078384399      -0.00058288872241973877    -0.0015857070684432983     
510137672     0.00099233537912368774     -0.001378282904624939      -0.005573175847530365      -0.00072773545980453491    -0.0032457485795021057     0.0038928017020225525      -0.00067723542451858521    -0.0016038119792938232     
512140175     0.00096756219863891602     -0.0014252960681915283     -0.0056214556097984314     -0.00047774612903594971    -0.0030332431197166443     0.0040992721915245056      -0.00074520707130432129    -0.001600317656993866      
514142678     0.00090593844652175903     -0.0014907270669937134     -0.0056637004017829895     -0.00018519163131713867    -0.0028093010187149048     0.0043159127235412598      -0.00082653015851974487    -0.0015923753380775452     
516145181     0.0008592456579208374      -0.0015669688582420349     -0.0056821331381797791     8.6717307567596436e-05     -0.0025675669312477112     0.0045058652758598328      -0.00089862942695617676    -0.0015774518251419067     
518147684     0.00080587714910507202     -0.0016352608799934387     -0.0057119876146316528     0.00037133693695068359     -0.002318844199180603      0.0046627894043922424      -0.00096724927425384521    -0.0015818998217582703     
520150187     0.00076013803482055664     -0.0016959384083747864     -0.005704045295715332      0.00065467506647109985     -0.0020513832569122314     0.0048241540789604187      -0.0010657161474227905     -0.001564420759677887      
522152690     0.00068199634552001953     -0.0017489790916442871     -0.005684979259967804      0.00094977021217346191     -0.0017782002687454224     0.004964873194694519       -0.0011476725339889526     -0.0015263035893440247     
524155193     0.00061433762311935425     -0.0018061548471450806     -0.0056465491652488708     0.0012604370713233948      -0.0014751628041267395     0.0051074996590614319      -0.0012140572071075439     -0.0015113800764083862     
526157697     0.00053682923316955566     -0.001841418445110321      -0.0055982694029808044     0.00158730149269104        -0.0011870637536048889     0.0052234381437301636      -0.0013080909848213196     -0.0014621391892433167     
528160200     0.0004475712776184082      -0.0019081234931945801     -0.0055261626839637756     0.0018852502107620239      -0.00086114555597305298    0.0053292214870452881      -0.0014024302363395691     -0.001420535147190094      
530162703     0.00037228316068649292     -0.0019503682851791382     -0.00543975830078125       0.002194330096244812       -0.00053238123655319214    0.0054073631763458252      -0.0014773905277252197     -0.0013773366808891296     
532165206     0.00027857720851898193     -0.001995481550693512      -0.0053107887506484985     0.0025199204683303833      -0.0001959875226020813     0.0054594501852989197      -0.0015501305460929871     -0.0013255476951599121     
534167709     0.00018359720706939697     -0.0020307376980781555     -0.0051891356706619263     0.002828352153301239       0.00013500452041625977     0.0055169463157653809      -0.0016209706664085388     -0.0012645646929740906     
536170212     6.2577426433563232e-05     -0.0020767971873283386     -0.0050455555319786072     0.0031320303678512573      0.00048917531967163086     0.0055280700325965881      -0.0016956180334091187     -0.0012016743421554565     
538172715     -2.5406479835510254e-05    -0.0020939484238624573     -0.0048702135682106018     0.0034436509013175964      0.00082939118146896362     0.0055337846279144287      -0.0017632767558097839     -0.0011225789785385132     
540175218     -0.00013468414545059204    -0.0021253973245620728     -0.004668503999710083      0.0037368312478065491      0.0011753067374229431      0.0054997950792312622      -0.0018395110964775085     -0.0010387152433395386     
542177722     -0.00023888051509857178    -0.0021400079131126404     -0.004449009895324707      0.0040360689163208008      0.0015221759676933289      0.0054486542940139771      -0.0018839836120605469     -0.00095485150814056396    
544180225     -0.00035863369703292847    -0.0021365135908126831     -0.0041926577687263489     0.00430288165807724        0.0018607974052429199      0.0053759142756462097      -0.0019611716270446777     -0.00086114555597305298    
546182728     -0.00045900046825408936    -0.002150803804397583      -0.0039261579513549805     0.0045868679881095886      0.0022149756550788879      0.0052714049816131592      -0.0020167604088783264     -0.00076934695243835449    
548185231     -0.00058193504810333252    -0.002130165696144104      -0.0036647319793701172     0.0048346370458602905      0.0025405660271644592      0.0051503852009773254      -0.002035185694694519      -0.00066769868135452271    
550187734     -0.00069374591112136841    -0.0021377801895141602     -0.0033537521958351135     0.0050893872976303101      0.0028775930404663086      0.0049975961446762085      -0.0020688548684120178     -0.00055906176567077637    
552190237     -0.00081191211938858032    -0.0021209493279457092     -0.0030348300933837891     0.0053142905235290527      0.0031768232583999634      0.0048346370458602905      -0.0020980760455131531     -0.0004615485668182373     
554192740     -0.00093071162700653076    -0.0020745769143104553     -0.0026968494057655334     0.0055178999900817871      0.0034884288907051086      0.0046348348259925842      -0.0021177753806114197     -0.00033862143754959106    
556195243     -0.0010422095656394958     -0.0020504370331764221     -0.0023325011134147644     0.0057148411870002747      0.0037870258092880249      0.0044026300311088562      -0.0021517649292945862     -0.00021345913410186768    
558197747     -0.001158788800239563      -0.0019856244325637817     -0.0019668862223625183     0.0058743059635162354      0.004050038754940033       0.0041586682200431824      -0.0021517574787139893     -9.9740922451019287e-05    
560200250     -0.0012559890747070313     -0.0019344910979270935     -0.0015637949109077454     0.0060118511319160461      0.004306696355342865       0.003888353705406189       -0.0021530315279960632     2.3499131202697754e-05     
562202753     -0.0013547763228416443     -0.0018855705857276917     -0.0011632293462753296     0.006146848201751709       0.0045522451400756836      0.0035957992076873779      -0.002141907811164856      0.00013500452041625977     
564205256     -0.001470714807510376      -0.00180806964635849       -0.00075601041316986084    0.0062310248613357544      0.0047456920146942139      0.0033026114106178284      -0.0021203160285949707     0.00026396661996841431     
566207759     -0.0015561655163764954     -0.0017378628253936768     -0.00034052133560180664    0.0062936022877693176      0.0049353316426277161      0.0029776543378829956      -0.0020930022001266479     0.00037546455860137939     
