! PocketVna 1.81  pocketvna.com
! Live measurements ((Reflection-S11, Transmission-S21, Transmission-S12, Reflection-S22) Linear 10000000-4000000000/101 non-calibrated)
# GHz S MA R 50
! GHz                   |S11|                     <S11                    |S21|                     <S21                   |S12|                     <S12                    |S22|                     <S22                   
0.01                    0.00071612395275466513    114.21282340986997      0.00010272398313701924    -17.818606320585371     7.825330471532182e-5      -31.565331222105577    0.00071025964687764529    114.59417438725787     
0.0499                  0.0028978880689339999     -20.424459592016756     0.0018287325549707055     140.4032273134612       0.0016868272463975906     134.00839895716723     0.0027818786371988824     -26.804900234659026    
0.089800000000000005    0.0020403808201360477     -112.73030056133997     0.0025573146133430337     -30.171798374729619     0.0023492355622481346     -40.345838314407295    0.0020116788592079607     -122.65928654550669    
0.12970000000000001     0.0015746634580257549     -127.52824452462337     0.0025586653733796687     -150.28858075923063     0.0023183701832547171     -162.95729709548598    0.0015652728845575866     -141.77945010129883    
0.1696                  0.0025999809440611244     -153.62262934744618     0.0029015264781035825     95.828543476894524      0.0027659921862745341     77.967686602273915     0.0024854852088795191     -173.14726090236911    
0.20949999999999999     0.0034767984187423673     143.63869491758294      0.0035453019613301976     -19.226817479652585     0.0032617042646561566     -44.451754788203012    0.0035060034726364197     115.57642248782896     
0.24940000000000001     0.0024207409610201161     71.287004051737483      0.0027413558123465897     -150.77776566296473     0.0024796296364624718     -177.49017410122144    0.0025312768387738428     42.794046974744788     
0.2893                  0.0015249929631970555     42.958229843001561      0.0018014247108529041     107.76417190213319      0.0017687846543197247     75.083243057941104     0.0015000045074000004     8.6067549055135579     
0.32919999999999999     0.0011453025762523884     41.200651768914277      0.0016412598740302448     32.076128437075724      0.0014569622349456766     -2.5730930711124436    0.0011312395261186743     -1.8176803313082064    
0.36909999999999998     0.0013528514055962484     38.424594139998533      0.0015837302511931286     -48.193584852706998     0.0015263814849427397     -90.631792828863084    0.001241441342396819      -10.611332660640066    
0.40899999999999997     0.0017007839892173937     2.3645339818167832      0.0019413318375745008     -142.7364893668738      0.0017183186159612509     172.70695300543073     0.0015696044368753096     -53.000208913120993    
0.44890000000000002     0.0012901415727421448     -46.944664972470434     0.0018069360231459765     109.93145536724931      0.0017301040063844892     60.876063515174074     0.0013355625126314434     -106.78940565717629    
0.48880000000000001     0.00087873460407176       -65.333671560974267     0.001695938282995544      14.928693200949134      0.0014300955606894234     -39.468474886637004    0.00088744503784927737    -130.4144559127019     
0.52869999999999995     0.0010703772363240753     -72.048844248386828     0.0016999531870725997     -81.936414034188871     0.0016157994179134057     -138.13836936421788    0.00098660696982003668    -140.65491218454622    
0.56859999999999999     0.0017380956169363397     -106.63400996508521     0.0021001690355323815     -177.47852074729585     0.001823363225999924      113.63232698562186     0.001436798981360757      -174.20390914888355    
0.60850000000000004     0.0023981816230448524     -153.47562748056851     0.0027727953444810849     69.767940229150582      0.0023393723125082612     3.5017660196915572     0.0018884669357202616     127.58861796590463     
0.64839999999999998     0.0017853144587264833     162.58331308889177      0.0024704356876413987     -38.335455250855468     0.0022217201746689693     -112.66189981425048    0.0016338319052052388     71.790284345842849     
0.68830000000000002     0.0018724375360785681     130.48873091373184      0.0028214768302154197     -141.00189417356734     0.0021377154921530992     142.63489748353479     0.001597268413812808      40.170144973312368     
0.72819999999999996     0.0023263756943649005     76.22170816469901       0.0032303096029940247     105.53618605993665      0.0027137798154388739     29.471256774175874     0.0018658761619435385     -11.62343148097019     
0.7681                  0.0015356121299440082     28.382563223814028      0.0028667372807521735     -15.672451244509071     0.0024242901447763979     -100.13840307500666    0.0012412146164070984     -80.903841082827455    
0.80800000000000005     0.0014057614869874815     2.2395250982205641      0.002814406314861535      -126.63327746291722     0.0021492359631813517     151.5948534004896      0.0010980526719529284     -113.80775335286444    
0.84789999999999999     0.0011230511841469838     -24.985456456904245     0.0024076216416095918     131.71752790566509      0.0022269233692970443     44.295404767336748     0.00094727666277829648    -150.28094256690645    
0.88780000000000003     0.0012579714596910069     -43.915825701931581     0.0026575119214550897     37.377764813925396      0.0019861720590240639     -56.33025972237715     0.00098272630453410557    -166.77649329850692    
0.92769999999999997     0.0011278667915501871     -76.91803483994633      0.0022661547126266186     -64.131578357825319     0.0020913519332701582     -155.34151931726026    0.00094118273214757145    142.92518159723664     
0.96760000000000002     0.0011393502498838303     -85.060153100386742     0.0022742737758220206     -154.61174593590673     0.0018122432687237388     100.04991229811085     0.00061122108967167927    117.40371752122293     
1.0075000000000001      0.0015445139945332619     -109.82827252300481     0.0021872065379321712     109.0820923668536       0.0019660789007090026     11.90161862363918      0.00089693878571790102    103.2195357952251      
1.0474000000000001      0.0018200936650657668     -127.47971609467115     0.0025730579096159972     27.007706566370381      0.0019961469731667224     -86.069034561478176    0.0011899454541626213     72.899512943955699     
1.0872999999999999      0.0021600997947063948     -155.32600519292745     0.0025174503965724885     -68.879105827580943     0.002261604751530723      -171.91319505708631    0.0015973897105609417     48.158488716601113     
1.1272                  0.0013924048165735272     -132.52331015895606     0.0022249730973121543     -106.66881191208455     0.0019370336971935187     143.16963883834694     0.0015678559173029729     57.336542326079147     
1.1671                  0.0011910611203077898     -135.09731843954242     0.0018438741512312536     169.18143641146682      0.0018207754813861906     48.683594316362488     0.0011862655528226556     30.01706568120311      
1.2070000000000001      0.0014225716508397123     -161.62948419383625     0.0020423177004889746     76.367748204398737      0.0017554653147192508     -42.595759030238263    0.0013709001256110534     10.448645019061729     
1.2468999999999999      0.0010230783848001895     168.10766719787162      0.0020113951753870005     -13.836574053920287     0.0020187575995466479     -143.91244470558698    0.0014207413716392026     -31.967195645949367    
1.2867999999999999      0.00087087296326084519    148.35563210345032      0.0020655293491375717     -117.95953460450511     0.0017799778111120686     106.64748996690155     0.0013471604006115516     -68.441789158999271    
1.3267                  0.00067564213556672251    120.31305937026822      0.0018231024933725148     139.85325047051663      0.0017580616804421651     1.0555841250086175     0.0014991772114638163     -110.31182302856229    
1.3666                  0.00094327788204746682    105.84189368747698      0.0018563884482954861     34.540772331409123      0.0016880276260328795     -113.43083532495375    0.0012931206942920464     -144.5343152916889     
1.4065000000000001      0.0013982245587889181     57.84005374690242       0.0017644077326442412     -70.586833225398991     0.0016110933644144607     143.44620977216894     0.0015088059671793178     -168.11043851817576    
1.4463999999999999      0.0013852230484734216     -1.0376715230858424     0.001982365804539895      176.39106452980246      0.0018662005027130872     21.540768747996026     0.0017901454550886139     134.46091347612557     
1.4863                  0.0010418170176274858     -62.146248965242954     0.002087044028409374      59.490690896978073      0.0017587664806347474     -101.54946240698041    0.0020889612354527765     83.830912138086561     
1.5262                  0.00050327377935586754    -82.641840468031077     0.0016628840270281719     -35.001042450442121     0.0014698055760994447     163.13459337481467     0.0020768836074325559     49.948733042711424     
1.5661                  0.00069302930495149804    -72.013456648130358     0.0018223979979829811     -120.07168766018307     0.0015357357313056277     73.434784099888333     0.0018226737151977659     32.803941147405716     
1.6060000000000001      0.00092928672674730641    -118.66611221091331     0.0021781407934560017     156.79466709283682      0.00179951232229194       -11.934242051433731    0.002222218697308848      18.631587753713333     
1.6458999999999999      0.00025604072592999409    -137.86481902105061     0.002453392797502626      47.622434298213385      0.001951993935436079      -124.62321670903782    0.002018907014583867      -17.802396592793901    
1.6858                  0.00042952660726399268    -121.8572632846186      0.0018867583998090213     -38.83167772758582      0.0015350839600919907     145.30398466836596     0.001757672847364987      -30.001843066542857    
1.7257                  0.00022905718543712723    -128.18800077162183     0.0020558460727669097     -129.33424457034761     0.0016841153832681188     52.892693832975311     0.0018182915814235891     -54.222616977188437    
1.7656000000000001      0.00048584233958543974    -120.60315837971        0.0016383550199749795     140.9464087443331       0.0013481649884781372     -42.489498117347537    0.0016475333451125031     -70.559390265815964    
1.8055000000000001      0.0004782751207806252     -162.93579111527401     0.0018225486373348275     53.986695828369271      0.0014630837329627645     -130.67009548633473    0.0019810075870922896     -85.882326136074184    
1.8453999999999999      0.00029531243813470489    163.76708714426394      0.0017305119914730164     -40.229564521420677     0.0013915847140732779     131.7256325415708      0.0021692240490277137     -110.02123865827929    
1.8853                  0.00014106861088353259    133.17446621332869      0.0019235541569282083     -133.13366966138241     0.0015852486022809107     37.668467137976279     0.0021956357149321205     -129.06596197087202    
1.9252                  6.5137838899164311e-5     -177.76465808600508     0.0016319378108370526     128.16536592904333      0.001465896820468501      -65.616634845761936    0.0021811653744766486     -151.20377421489076    
1.9651000000000001      0.00017667978077121925    -87.733049417347758     0.001611821480588046      30.140927477765576      0.0014441821235531844     -163.62884229243451    0.0021223623188537134     -177.71930213633917    
2.0049999999999999      0.000534117920297767      -146.76347090032215     0.0011504056040908235     -70.674841988864699     0.0011477364892391033     87.38362273038986      0.0018050706964666736     151.98795793771626     
2.0449000000000002      0.00051314207386825316    158.053995793453        0.0010433354805883389     -145.71528965286964     0.00090946627027239111    5.931369280950328      0.0016896731110257726     133.17249144193724     
2.0848                  0.00028544278627256584    121.07353021970066      0.0011004226595441064     127.37894592284056      0.0011031651762812133     -85.791061854230932    0.0020313480078145755     105.05740540377477     
2.1246999999999998      0.00048030638676505749    151.23199930878619      0.0014831557338879095     20.37090019564674       0.0015329922975504144     162.99501040149988     0.0020861683616201147     57.853129898387117     
2.1646000000000001      0.0007825371535172777     91.20840833244732       0.0013666431399370236     -105.92510128490046     0.0014187656394972412     32.822563501109144     0.0014429816846666639     32.847298347397491     
2.2044999999999999      0.00081959075277424293    42.503983929521908      0.0010308492886992847     145.60494120175983      0.0010617648425136309     -86.296111484222209    0.0014848361862097824     7.4455629484647483     
2.2444000000000002      0.00062503484774058401    5.0119559353886496      0.00098831499945723367    42.278570249991304      0.00086828196963208842    172.9631013823045      0.0015518543258688446     -27.251889984663887    
2.2843                  0.00052394153734466105    -0.76345309815716556    0.00083604591566820564    -57.028083732599399     0.00095416982314724106    64.705556258937989     0.0016662074089310406     -67.868128247962133    
2.3241999999999998      0.00073321819054163238    -13.1149717812264       0.00088579257000700085    -149.18782318628081     0.00086268957033764965    -36.680277491780323    0.0014411934342999349     -104.81996990843197    
2.3641000000000001      0.00092694495442568819    -45.999453792626284     0.00073237155839523792    108.37209441418069      0.00080656926479331557    -136.64316106797668    0.0011149306089278329     -124.26479016596116    
2.4039999999999999      0.0010058891026669583     -87.503386772612984     0.00068448000964247996    21.040734940639005      0.00063114437177410015    117.63499095689342     0.0010504502667036861     -142.56538115524188    
2.4439000000000002      0.00097922030524197454    -124.32400931581013     0.00073350751022041583    -85.183097735522608     0.00067107434742989358    21.162101819848385     0.001135623154409762      -178.92635147864735    
2.4838                  0.0010152816745002842     -153.35465738843354     0.00082121507203909813    174.38628664059718      0.00093103226816014766    -98.373264286258362    0.0010069098559672524     121.67013346023904     
2.5236999999999998      0.0013129699697304782     164.25651298272189      0.0011851731093746498     44.022952653449906      0.00097639959892479244    124.27927471172497     0.00039296632105796479    97.149135042701516     
2.5636000000000001      0.0014695231057555653     106.35188447730769      0.0010287563096075586     -94.035446211456218     0.00081589532248877838    -2.5871195891153458    0.00069720226075511548    92.323035245186929     
2.6034999999999999      0.0014406618680947037     66.186226417069534      0.00077275508086641174    161.13321058913164      0.00071001212554006727    -117.02323125402826    0.00093889241916216741    53.110551515981136     
2.6434000000000002      0.0012848854396880168     43.177597197071655      0.00070815450844808703    67.263513272967401      0.00053448456862366649    147.51839408158295     0.00099624219282705428    25.625831961906588     
2.6833                  0.0011437931749296163     29.283018218362386      0.00049920992853670642    -20.35957838143101      0.00049859805873817941    52.451140276851717     0.00081563660724156487    7.8078309639431795     
2.7231999999999998      0.0014347589303969521     97.208567744974644      0.00078269203011074786    -28.467686593740659     0.00058291670232867314    42.108218452128199     0.00095070002210401899    79.181716943539257     
2.7631000000000001      0.0018480951298871509     64.671864636238126      0.00082813009445203262    -131.11362276476243     0.00075333487350408247    -57.950948708953341    0.0013314086285352231     53.944268251518253     
2.8029999999999999      0.0024548064488906373     25.537736004903955      0.001030859592533714      132.77841647147349      0.00086049608140921811    -166.75368520942985    0.0018246882438768502     15.823601961558834     
2.8429000000000002      0.0029905859349950614     -3.4147336972682294     0.0010053102398547239     30.963683708299047      0.00086566942301096936    91.828833402841582     0.0021591643044586626     -11.984150000635976    
2.8828                  0.0035332327185017996     -27.969768163568826     0.0012143598762844061     -63.542480568231845     0.0010671023197911774     -15.214594262347177    0.002456119613281133      -31.051360450693863    
2.9226999999999999      0.0042920581254765958     -55.512888792281636     0.0014841199275406462     -173.16857012132476     0.0011683206654986584     -122.99891496436172    0.0032896129904046046     -52.869085897659119    
2.9626000000000001      0.0049604012461221128     -36.931533063327436     0.0016381139386994401     133.60199225264844      0.0014299965107309276     177.37835203280213     0.0040633052025351715     -35.053627466350669    
3.0024999999999999      0.005245435149369519      -67.240845571605931     0.0014962240920196345     27.364582696494832      0.0013076648978232401     72.141407730680299     0.0044780450907695021     -64.89398556547853     
3.0424000000000002      0.0053700839021853502     -95.248104173755252     0.0014759166746165704     -68.269702041189603     0.0012897864547092859     -31.890204789923569    0.0047865619492914171     -93.030562238411335    
3.0823                  0.0052634117478120267     -121.90863175018477     0.001490552863643201      -168.79773909970822     0.0012558248932905654     -134.25220767240933    0.0048236001312275097     -121.13067958624985    
3.1221999999999999      0.0058920105080703016     -157.25021769969783     0.0015139799850390596     96.345578557591864      0.0014250788742095619     126.28258351342471     0.005433684694271578      -156.7037700760927     
3.1621000000000001      0.0066492389018531937     170.95282375827688      0.0015293337503332193     -10.817737537308346     0.0013189649728769241     16.545978447491798     0.0062825090022343268     171.18847199767913     
3.202                   0.0060477415176359538     145.41387270333132      0.0013669065490965102     -109.01990482621697     0.0011990680060691465     -81.610452494490417    0.0057171639921321914     145.05757649902313     
3.2418999999999998      0.0062644813832416768     106.49229835756438      0.0013224620877942286     150.61013830120615      0.0010629438667603332     170.21389457769774     0.0060011100546496932     105.74599676847303     
3.2818000000000001      0.0066412274210326493     79.866681948970012      0.0012779029797397804     48.364158114021727      0.0010236476857251847     59.999438198831371     0.0063321329934878517     79.439462212777343     
3.3216999999999999      0.006207504910310223      47.35271782333237       0.0014635195585708425     -51.996131735850376     0.0013091550454129893     -45.029513224178615    0.0060829807920385068     46.063725923508144     
3.3616000000000001      0.0071675634092090348     9.5520497150980148      0.0016239475625586808     -159.13053399846865     0.001531965631140389      -151.00193505482676    0.0072255269352585194     6.9357699314977967     
3.4015                  0.0085136742644216952     -20.435504147667864     0.0019044898214907839     98.253158966843117      0.0017283974762265699     105.67785539613647     0.0082490139498328056     -24.726299449296377    
3.4413999999999998      0.0084405232860028431     -52.377005939354298     0.0021798967214062166     -14.560411004800676     0.0016918891440697522     -13.467793203689837    0.0079704135896614993     -56.729637374764927    
