! PocketVna 1.81  pocketvna.com
! Live measurements ((Reflection-S11, Transmission-S21, Transmission-S12, Reflection-S22) Linear 10000000-4000000000/101 non-calibrated)
# GHz S MA R 50
! GHz                   |S11|                     <S11                   |S21|                     <S21                   |S12|                     <S12                   |S22|                     <S22                   
0.01                    0.00061504675990231431    123.24692585852698     0.00042108230231996575    -95.971861210988138    0.00039364825768965691    -97.554369529916897    0.00058738009224974406    123.75839913564106     
0.0499                  0.0027131019236300937     -7.7886714735290568    0.0026584271453088506     111.04789854642648     0.0024509497485501576     104.08854020424558     0.0024578145216724175     -16.264539899198592    
0.089800000000000005    0.0027571166251522767     -97.457254476916432    0.0039955540769849671     -39.557300729527398    0.0036523985225313262     -49.915754101279347    0.0023686599267987722     -101.66239128494675    
0.12970000000000001     0.0020184212846218728     -149.86949398177384    0.0041735977811029768     -163.46480516851102    0.0038015339999547858     -176.31266264492763    0.0022255835469636295     -154.45114683929108    
0.1696                  0.0020521003156601415     -158.46864790830091    0.0043149155575742315     82.584181690753013     0.0041429736489302822     64.735078651357966     0.0021463479874363227     175.39252581855118     
0.20949999999999999     0.0029920424040558026     141.60996023773728     0.0049093684392604083     -26.939572541208076    0.0045680463046295578     -52.304848651990739    0.0029769129560131406     113.27002864000575     
0.24940000000000001     0.001860004340393886      87.40727564121336      0.0044758118724538111     -149.46913341180007    0.0040301309310223962     -175.88418108915658    0.002162462891487991      57.343578762134634     
0.2893                  0.0024993539070528284     54.910830600622063     0.0043647688546991819     94.242651528871122     0.0042570769970627156     62.615105222725035     0.0024912507077366236     16.162128243889466     
0.32919999999999999     0.0012013203416787288     8.4962037862273281     0.0028990615961027241     -7.9827494813119451    0.0025696416720271385     -47.168182446770835    0.0011631851619508752     -39.272751736139469    
0.36909999999999998     0.00090302028776947083    45.313548877390808     0.0021989369522891315     -91.530728796638769    0.0021123756559822235     -130.23227604572003    0.00082155828938764244    -6.6581410073115688    
0.40899999999999997     0.0017103756880421509     17.691443081829178     0.0023465781841902717     -179.36418054205916    0.0020735352408074613     132.26302560071775     0.0013914674227838415     -41.345897885131087    
0.44890000000000002     0.0017575898117934436     -38.898968860939448    0.0025321307810608333     65.382546352898103     0.0023000445867138878     17.829591637664485     0.0014093884534913264     -94.353963508183625    
0.48880000000000001     0.00092175547748381921    -86.979033838419767    0.002144817106042645      -53.087668769141203    0.0020341323897886078     -107.90893918347435    0.0010428233119300749     -132.14938996538356    
0.52869999999999995     0.0014593693733806444     -89.414083079070153    0.0024135083058183199     163.73463057142496     0.0021694588085675245     100.60101626856104     0.0013887923019938234     -149.30124380357572    
0.56859999999999999     0.00092125627536001633    -86.482630851721694    0.00070018698921304209    1.8970469372215748     0.00063943187251178698    -64.720064273410728    0.00087328501955621517    -168.37974386655051    
0.60850000000000004     0.0027579800732072039     -119.68755487670454    3.9719290439420476e-5     -140.84670892398455    1.5620420749496655e-5     -116.57727297286385    0.002097838718733164      161.92424869727702     
0.64839999999999998     0.0042955442567201556     156.79303196420878     0.00020134238767194142    84.297845587628586     0.00014951075999709021    5.1176544134681334     0.0033871020936895378     67.960246029142837     
0.68830000000000002     0.0019385164136149281     69.190080042279888     0.00031179069345141429    -67.928328207903547    0.00025670330002714988    -132.1920292331462     0.0016376448339971844     -9.0130782927004063    
0.72819999999999996     0.00069490247024608486    85.9125887358299       0.00033935840683452803    -148.77801132492385    0.00025802198358946166    136.14655819701662     0.00058516967834756591    -23.742202870479026    
0.7681                  0.001596970759638881      73.968463870124808     0.00043857340303067577    118.40188292279181     0.00040315822231143736    34.053051062509418     0.0010197382120273062     -25.072784379894511    
0.80800000000000005     0.0026509758945411446     20.683791265093557     0.0008455536558465848     20.026714152669992     0.0006264397724515487     -71.501265197848781    0.0017279298167717136     -91.126378150332641    
0.84789999999999999     0.0023435087480592285     -54.462301032689602    0.0011421562572661839     -104.53835441436395    0.000863674713910253      177.26071152241224     0.0017948730686074277     -155.84692940352093    
0.88780000000000003     0.00098728520389648202    -114.652864548087      0.00094320404306375471    158.14110422497436     0.00089769890334894995    65.710004189136455     0.0010440259975096433     145.78316179093704     
0.92769999999999997     0.00052121815812267343    -7.6320418139706332    0.00098250221193485411    73.439214127305689     0.00082609222745367856    -20.308312092562787    0.00032335031318999041    117.29540939873699     
0.96760000000000002     0.001609725392922466      -53.607029742973083    0.0012903593986111881     -4.9121924633892489    0.0011249385328322157     -113.50463308125985    0.00073844310498578643    172.53890844371534     
1.0075000000000001      0.0025444537457525256     -109.81878491313249    0.0021135057752342408     -111.41137299219919    0.0015319356839388922     149.73078571574013     0.0014930292206992418     109.00123234457713     
1.0474000000000001      0.0023470870542248081     -153.68449750330805    0.0021610881268462417     142.46167408359858     0.0020502852624367947     39.911378210903649     0.0017777235121033995     56.894560956043691     
1.0872999999999999      0.0011514010263288079     179.27330218817332     0.0018777532946232481     49.649901199936977     0.0015510421186696525     -60.627493831941443    0.001393949371398035      17.237889108468107     
1.1272                  0.00094971016508679546    -99.273443746293495    0.0016706415107356134     35.133968609695835     0.0013849510209067209     -84.962542838444804    0.00081881567719959303    52.943981267170145     
1.1671                  0.0016950077313150759     -122.72552655176514    0.001827921724519993      -49.077992794655955    0.0017405522936162062     -166.04501189938168    0.0011422544795632787     57.290529432029004     
1.2070000000000001      0.0016985220559977466     -168.02415066502388    0.0027035424295663709     -150.65326473561169    0.0024577463090745761     82.651877184676266     0.0016943428627440344     10.669847393784716     
1.2468999999999999      0.0011849304229745565     161.16220825836459     0.002569217093920456      98.771957803963559     0.0024327363711600623     -24.678479227453284    0.0013800914855302859     -27.455386050399142    
1.2867999999999999      0.00063779404088010791    129.36362549399436     0.0024742968423498591     -2.5447699081342896    0.0024346304122029165     -140.03662822363847    0.0015755389979097223     -69.669617191634984    
1.3267                  0.00078780227624149007    141.54557938192505     0.0023594155944903186     -112.1191443860839     0.0019788250685122948     108.56279133412048     0.0014189131932363394     -110.85609135876703    
1.3666                  0.001045590197685193      85.750877741866276     0.0022406137136409222     143.65629417112237     0.0021480340725868966     0.40641388564332337    0.0015767149074529968     -141.68086933879724    
1.4065000000000001      0.00096545816291309522    59.133229810929585     0.0024042516063274102     31.576095809922926     0.0021572158601153597     -120.97821390188112    0.0015110085052990061     175.95125874626953     
1.4463999999999999      0.0013249503098802912     13.116932698010148     0.0022818226656477268     -91.514975487192217    0.0019620905694889418     115.91799859644416     0.0015162502394937018     132.31781573088824     
1.4863                  0.0011685447242373481     -43.535701788497349    0.0023019005330807271     160.6928000297456      0.0021198907799782176     2.721560160454235      0.0018352412409436928     86.796519376889123     
1.5262                  0.0010011418214466701     -90.381630777555145    0.0024838061609441303     50.165293698870542     0.0021110640248155365     -115.42027566846194    0.002084431289376353      60.646998931923555     
1.5661                  0.00042001960951244295    -112.62940299953986    0.0019294668656365957     -56.511509028793206    0.0015881508885195077     138.29034194052866     0.0022002975336184497     29.354096816231369     
1.6060000000000001      0.00062351661159275936    -93.5322608385477      0.0019643638881682939     -144.93812009121186    0.0016513213630491123     44.898913884284951     0.0018458598472136812     13.407399878795964     
1.6458999999999999      0.00033108261090387416    -142.20790762548       0.0020708198544250834     97.710147526316931     0.0016012104809840712     -73.408491768614965    0.0021696335535041208     -9.9696492445930609    
1.6858                  0.00061276405187117122    -104.30996671050133    0.0012605067819124256     -4.9710316103642542    0.0010312890733406015     177.98868985880713     0.0016794465106047753     -29.579487664980629    
1.7257                  0.00057369670358610393    -155.71936097156959    0.0012872560542461784     -119.17007813040166    0.0010238562947890392     61.432132912112948     0.0020075899787097445     -47.544570722300548    
1.7656000000000001      0.00046203637720858368    159.27353029041049     0.00056410780680716426    73.789226004060993     0.00047357384352119563    -102.70382029658138    0.002157219332879269      -73.109526602595139    
1.8055000000000001      0.00041755184850413853    -19.455006303200808    5.5098145221949978e-5     -116.71057715463193    2.9873888692824263e-5     92.429965531413359     0.0018874514388702258     -108.41663930391677    
1.8453999999999999      0.00086836029886345372    -122.9869156385611     3.4852342767614338e-5     -96.789264159132188    1.9093192538106445e-5     93.803664180113131     0.0014729038749603887     -106.18469904277531    
1.8853                  0.00087717589871117742    163.88073230196136     3.0721803934467797e-5     -119.74832828162782    5.311633397981521e-5      -18.109639163084584    0.0020575476174112032     -114.53616114510821    
1.9252                  0.00077669847619554126    65.278985008660811     9.7465761875377676e-5     114.6451316820127      9.9625450640484803e-5     -72.952716916221334    0.0026637182184500894     -143.3651079145387     
1.9651000000000001      0.00062589631457054466    -61.78396338558489     0.00012634604683928663    -6.9297258249264209    0.00013263166007059895    163.73451680546128     0.0024151795849075472     176.7141546914159      
2.0049999999999999      0.00076113263098093198    -146.50235293382212    0.00018802189773816879    -97.568837704601265    0.00014406052113364966    54.416852110580919     0.0017926984971977649     146.90387741918394     
2.0449000000000002      0.00063278339436691319    152.76637050935412     0.00025248523525421996    -167.06443767523703    0.00021521746776964509    -21.189602941075194    0.0016417994048297049     130.80452022007353     
2.0848                  0.00036564247395234358    102.33391925753013     0.0004575938741025171     107.69328012577287     0.000451930940566584      -106.74194832322205    0.0019619723585914952     105.95926345649687     
2.1246999999999998      0.00030954751830779238    158.01292758762611     0.0010159973026297063     -7.8314543318062766    0.0010711743731090584     136.66960636816233     0.0022098281826637796     59.149148851404263     
2.1646000000000001      0.00072470658913332826    104.77330472754885     0.001400936831584865      -149.61088465378464    0.0013892754033292462     -13.58834576271625     0.0015242382763471581     26.127551547228304     
2.2044999999999999      0.0009298720286249596     48.252811086009345     0.0013430320557318647     79.648841642199969     0.0013172485683692382     -148.70455009392111    0.0012624945267369324     4.4861526780481622     
2.2444000000000002      0.00073397606562999418    11.528933658397495     0.001184358930750023      -31.06921202930576     0.001206274250392552      90.467492156312417     0.0014077486978769373     -24.57628814199537     
2.2843                  0.00071379217823912342    -15.718335079038408    0.001282057354338894      -140.39637928167127    0.0011679074748776621     -17.188373704551623    0.0014406682792159127     -57.318522933228209    
2.3241999999999998      0.00056949101252359315    -38.070834540302997    0.0011491157975617276     113.37741546815344     0.0012545864159637619     -124.7638884114585     0.0017230283698202809     -87.909237235245939    
2.3641000000000001      0.00057200284033326755    -40.543174107770696    0.0011683963051229351     15.025392442952974     0.001195714959591461      123.67303645872738     0.0017134589965771244     -130.57381250548596    
2.4039999999999999      0.00090539007911908786    -63.731417813441617    0.0011510279066809831     -96.748446898172986    0.0012112940866530347     7.0613708143567813     0.0011169721314169968     -171.92762168809818    
2.4439000000000002      0.0013151301124495591     -113.68712552946033    0.00097144377567253868    154.91806570672705     0.0010345515292847006     -112.92156223049653    0.00061354876669397263    168.41675496953465     
2.4838                  0.0012788808152570438     -166.05005748381646    0.00092266846205855024    42.978096553256592     0.00076826078381412243    137.71364008848153     0.00077941369023206146    150.7614383910614      
2.5236999999999998      0.0010722259307930279     153.34378729712159     0.00089082721992539394    -70.641543467037536    0.00083630232056365464    23.470377049415116     0.00079426475671420186    103.24184323859016     
2.5636000000000001      0.0012927233770899586     112.77369818655761     0.0011511823842266684     175.41207663687962     0.0010331452169842974     -104.08755286818958    0.00060290153052225913    75.949159625349409     
2.6034999999999999      0.0014291679815017447     72.466576276883174     0.0011981821660240416     56.204695567314481     0.00098687347467680013    139.9723374697528      0.00087411236710502273    54.670105997360231     
2.6434000000000002      0.0014212260977083855     45.39844732218063      0.0010148808900234737     -47.193178928418064    0.00089437718864646782    30.461479301960338     0.00098851025645420895    31.269927953445784     
2.6833                  0.001224329563221302      23.912359649807286     0.00078618277670242597    -152.03780332131194    0.00071159021609609545    -71.314637471358893    0.00095756290098241109    9.0811382342508775     
2.7231999999999998      0.0014015064009633355     90.013097431122432     0.00095696919483183448    -159.550672000612      0.00082304553194679597    -83.799163877607569    0.0010161265399842815     71.338539565843135     
2.7631000000000001      0.0016138378659742748     61.528976769719314     0.0010965550470668998     92.605302155671367     0.0010402503845095565     159.41321551893571     0.0012481170090166732     44.618602931517721     
2.8029999999999999      0.0022181504026406508     32.514100695816197     0.0013928418216908147     -23.397515087865049    0.0011717147310539087     36.171320549526776     0.001397550906055519      15.374977450184687     
2.8429000000000002      0.0031327840953671352     3.32344341910906       0.0016271274876571789     -151.93448864990253    0.0013087845685906276     -85.282487440723628    0.0020722995140522935     2.5818060588957503     
2.8828                  0.0039568135741359436     -27.47799619170501     0.0015628927123466534     77.361220232270696     0.0013855082588690472     134.78627336539628     0.0029659854741870516     -27.4838555085257      
2.9226999999999999      0.004637794340766087      -58.921892318433457    0.00089453319939668448    -69.448367252265754    0.00081345865709628751    -19.566137527229717    0.0037306100844986573     -58.322863327934101    
2.9626000000000001      0.0046796282875034446     -43.859107527100839    0.00023425875563208852    -161.09712453351494    0.00013424530468004539    -86.474444971224941    0.0039533319653441415     -42.620645369497836    
3.0024999999999999      0.0045814500592886295     -66.00368896999889     8.5236778508120378e-5     86.587366514152322     5.9980915175756444e-5     -32.681345924830836    0.0039651884449794653     -67.112295925572667    
3.0424000000000002      0.0054031677474727108     -88.235420916631369    0.00010923476924189168    30.963086319771232     0.00012181384046257074    -34.808854393899324    0.0045300984653682715     -88.425632049406502    
3.0823                  0.0059900593466682226     -120.38041499078372    0.00010512184380297838    21.998226275420322     2.777092356435121e-5      -67.838926633917481    0.0050766613827774448     -117.84881696124367    
3.1221999999999999      0.0061370048136002199     -164.79890971872882    0.00015887704505915135    -102.23212526269512    8.4725431626495328e-5     -139.86542079665304    0.0057256454085675501     -159.0623362793113     
3.1621000000000001      0.0060537582470548785     168.98767595111258     0.00030494448767866164    143.59654876129082     0.00028888277039082125    151.29460292785043     0.0060030128304448486     168.98600782925919     
3.202                   0.0057555794049831957     149.34629293201255     0.00075569859728445514    -1.709611785462821     0.00067362829101844243    22.007345554152277     0.0054821529023966961     148.1427357158571      
3.2418999999999998      0.0063293373280363576     110.25764555595427     0.0014544425796639991     -127.87068471524722    0.0012777935486865332     -104.62329143184688    0.0061032253016019616     108.74788124208246     
3.2818000000000001      0.0069747416099717671     81.68953093932501      0.0015944476500002812     106.04561056567614     0.0013035032062741038     121.48317209374842     0.0067768029690137444     80.030616198372755     
3.3216999999999999      0.0066610094730877945     45.204695697712701     0.0017416928123715164     -19.554686898017806    0.0015357899983464496     -15.455608938706272    0.0063607902581005894     41.330937520143202     
3.3616000000000001      0.0072111428249299033     4.8470097007666659     0.0017129193365600967     -135.57819514577454    0.0015776774731052245     -131.01792880990359    0.0069134593220944538     2.9405814416164922     
3.4015                  0.0078957263334780356     -21.656375515490229    0.0019882234490634695     122.04038650219201     0.0017987712046730019     127.82273934944398     0.0075838332695088925     -23.727447103929251    
3.4413999999999998      0.0081593829596223813     -48.965082981476385    0.0023832911091655681     14.315707853049977     0.00191297693905545       15.203586079129115     0.0078919978735200146     -52.3781387903256      
3.4813000000000001      0.0081027241046784763     -83.000025052070086    0.0027134460496866411     -95.607118820833236    0.0020755053909148526     -102.77117302700137    0.0076850074581302488     -86.638918194994986    
