! PocketVna 1.81  pocketvna.com
! Live measurements ((Reflection-S11, Transmission-S21, Transmission-S12, Reflection-S22) Linear 10000000-4000000000/101 non-calibrated)
# GHz S MA R 50
! GHz                   |S11|                     <S11                    |S21|                     <S21                    |S12|                     <S12                    |S22|                     <S22                    
0.01                    0.00072553946433035268    114.15329916145878      0.00011134069717796818    -16.055465511900216     8.3302028273651212e-5     -29.208406544932366     0.00069825788013836028    115.85417101946035      
0.0499                  0.0028465405679448858     -20.796178888385626     0.0018140879862125953     144.92728219829519      0.0016603877664517405     139.35843726869254      0.0027671872219080088     -26.07700657801006      
0.089800000000000005    0.0020272529186117889     -111.82819477948085     0.0025605235723639304     -18.778639345694838     0.0023421637772804448     -29.122459040123672     0.0021105471198599839     -122.5973278532834      
0.12970000000000001     0.0016494040432625335     -127.2869004563037      0.0025872063536035018     -136.91471071177423     0.002361887741775948      -150.02954822816162     0.0015204993172794749     -145.67935074396138     
0.1696                  0.0025500997941891451     -155.84124744324347     0.0028355947397450004     116.18633899582834      0.00267525262531337       96.932775588413975      0.0022646705350222668     -172.84809624554839     
0.20949999999999999     0.0035241025638318418     146.24549459631226      0.0038633962479851739     6.720804192198238       0.0034957315598037825     -16.321404670980446     0.0035411954855706592     124.61198900361862      
0.24940000000000001     0.0025138973858294181     66.650412368255658      0.002944750867708163      -129.4740528223451      0.002729639021651738      -155.21463576989879     0.0029008756534135336     40.810183484940147      
0.2893                  0.0012996761057793794     42.931099097055558      0.0017473079865546863     137.68073910121927      0.0016496812872177679     102.47129745725265      0.001454866402627398      0.25028801102933229     
0.32919999999999999     0.0011909883885549797     50.300073159119997      0.0016331421047971633     64.281899223562803      0.0014817297190715438     30.978529763202811      0.00098625264709207498    -1.5683649869776144     
0.36909999999999998     0.0014869791164273645     36.140801303440114      0.0016382066014839149     -7.5284851513725313     0.0014772287037022988     -50.153618057440163     0.0011713077756057102     -6.2562362257951447     
0.40899999999999997     0.0016555751959582573     -0.43963522608323857    0.001924163248487246      -102.6488853743339      0.0018150960297800569     -145.26731803671169     0.0015704022153038761     -43.443252915898967     
0.44890000000000002     0.0012964538547910469     -46.975030297490207     0.0019174557813819912     158.95094849843383      0.0017324813204189172     103.79438894020933      0.0017124588344318795     -102.57252902341115     
0.48880000000000001     0.00081921611694225221    -62.232843667490762     0.001806161802964694      58.573302628911939      0.0015732122606110272     6.7922528175495085      0.0010696290954792566     -148.8819003907781      
0.52869999999999995     0.0011872580812243713     -70.649257306337958     0.0016557575240725847     -30.046152997570953     0.0015461106029300896     -91.800492293108803     0.0006570828210835729     -147.79194710300698     
0.56859999999999999     0.001745653521774779      -113.67905851531427     0.0021199086499809564     -130.1273683593605      0.0018174372649121795     169.44006556127189      0.001176057718685666      -160.52297795792549     
0.60850000000000004     0.0021755201119470088     -149.85367697620453     0.0025983503704508186     129.30717382668098      0.0025350054366753447     56.883150919894817      0.0021937275087485111     151.6953957944078       
0.64839999999999998     0.0019719509101306211     159.97206138388         0.0029351873860437292     6.1539491731374376      0.0022763705207229203     -72.565942987121332     0.0027424514075532762     66.07322978827959       
0.68830000000000002     0.0016382524872711991     125.04822710825172      0.0019550327144182375     -110.18900370932623     0.0015529712955411764     -179.90626454459348     0.0014539516420867572     5.7652539337326667      
0.72819999999999996     0.0020559767939698583     87.698817479000937      0.0014818132699438635     163.68516301713174      0.0012591447658219022     80.566326125231996      0.00088254985165744438    -6.2579319842134451     
0.7681                  0.0019348618336617542     30.676832976396547      0.0014252876392542811     55.693798433130041      0.0010833051198748166     -23.619675301245675     0.0012087803263491148     -38.194417517322236     
0.80800000000000005     0.0012774346141323197     -2.2937220658260258     0.0011505133538241099     -39.074420939640319     0.0010230215470876359     -126.29020184746696     0.0017703902386307976     -99.945430885584756     
0.84789999999999999     0.0012301295308204626     -18.916709715428244     0.0011264765266710045     -128.48841336001669     0.00083724736913973479    146.82227617790747      0.0016804969423046432     -163.62642931586635     
0.88780000000000003     0.0013196969373431822     -50.388589933341123     0.0010254569489103504     157.97835373969281      0.000948553315471327      61.684887896213475      0.00086477776937096966    139.46718624842964      
0.92769999999999997     0.0011280624007535419     -79.211807699707208     0.0012401012324679442     73.151624247671876      0.0010063490785333243     -17.119975564246225     0.00027223424697585984    151.43171484981067      
0.96760000000000002     0.0010786402297654749     -90.505792785045884     0.0014103680976017047     -10.178933067273022     0.0012846796358001727     -115.03200950337404     0.00083003751090704372    158.78403276575708      
1.0075000000000001      0.0013778335555666638     -106.81049895693822     0.0017521847834330194     -107.87660980291243     0.0013590535730340562     153.39308802779183      0.0013035105573000283     98.432164289497464      
1.0474000000000001      0.0018840091060627186     -126.17082251907361     0.0018566101979782868     172.40347256606097      0.0016879477938390125     60.17484607367264       0.0013222984991695739     59.956356554370352      
1.0872999999999999      0.0019369076252324213     -157.84956697348784     0.0020811800194569002     79.459751708111497      0.0016851967067437901     -23.425338050787754     0.0013268042406102526     36.455813859212199      
1.1272                  0.0013084314043138104     -122.20119439381797     0.001965516936978785      54.315078043399367      0.0016151824771115906     -59.810624098333761     0.0011060883423649735     62.787516707278677      
1.1671                  0.0014240493056212832     -131.3663206116409      0.0018061774688701664     -28.817741681842211     0.0017735568214392466     -148.84264502811035     0.0012465706696265706     48.645333007898842      
1.2070000000000001      0.0015252549855614876     -164.63270138425875     0.0022384758131438211     -124.21312218680798     0.0019321769006238334     111.49723590832208      0.0017541601343101475     13.321814227845962      
1.2468999999999999      0.0011349404185161589     168.05190939937447      0.0020648786466504181     139.85256733507819      0.0020965302417605067     13.406929207944033      0.0015778623684672701     -36.745121009818831     
1.2867999999999999      0.00087719154897591273    132.09511525077514      0.0021400943060629956     38.567005983396669      0.0019480998352086024     -98.567215473112952     0.0014353887438366597     -76.295702804746142     
1.3267                  0.0005236473706989453     122.49526417606432      0.0017968686191086852     -65.241850451431176     0.001667236482015592      160.18456837198329      0.0013552478544219218     -115.64064234404572     
1.3666                  0.00092849351376967       105.99951827354391      0.001829317060298864      -161.48026131046828     0.0016574038584269788     51.94007318954899       0.0012539197251732041     -140.08484579415503     
1.4065000000000001      0.0013210352041822639     56.539102897931777      0.0018457142917180115     92.602856262150141      0.0015985644248565994     -53.651539403687316     0.0015632198091411129     -170.30611202448424     
1.4463999999999999      0.0012364566873110353     1.4122159882833871      0.001843446659246836      -19.227896049786366     0.001747932061377682      -173.43900415059824     0.0017148019260194674     132.26082832782726      
1.4863                  0.00090942843306691522    -52.162150979928306     0.0019224303183676885     -133.13949064510504     0.001626119679589474      67.049803923306229      0.0019926303394365128     84.422211658667806      
1.5262                  0.00061498513676611847    -63.541115807448051     0.0014756247247000632     133.43061998492013      0.0012515686429704288     -27.449338940942841     0.0019962198616629285     52.100071300229153      
1.5661                  0.00087707888158989375    -78.409340526688737     0.0015290825409151314     51.483113813785053      0.0012862097845572516     -117.41260616771065     0.0018750449492547696     35.461085712197132      
1.6060000000000001      0.00099125251352628657    -119.09367221117462     0.0015213555558661013     -29.796912827188354     0.0012751998450547415     158.74420785061915      0.0021684040546102851     19.690042833398412      
1.6458999999999999      0.00052923663946949145    -158.23678529779664     0.0017855583563789294     -130.02985653372366     0.001433205628866175      57.17266119701668       0.0022473259351734015     -10.01588045464992      
1.6858                  0.00017407107943114019    -164.77112192930704     0.0013722861693283581     132.88103661351138      0.0011002009820556705     -38.520556958428216     0.0020492892844692755     -37.622875539014963     
1.7257                  0.00025373112927761578    -88.997215923720219     0.0010736488539437739     44.688767283423971      0.00091415362740280442    -131.26873193607057     0.0017161841142656878     -63.235716255880284     
1.7656000000000001      0.0004626795895458437     -121.76000307739125     0.00071622050203230272    -33.958363670396615     0.00058916819035792272    144.25410960147295      0.0015126413383630083     -72.280088972708725     
1.8055000000000001      0.00040265623890938879    -151.45460645613375     0.00068159413421495154    -112.02447765728847     0.00054754968153377108    63.182865616075361      0.0018067189806748973     -82.537838557915421     
1.8453999999999999      0.00030671217843686451    -169.56220046282317     0.00049759044978801533    173.80930828366604      0.00043180190085119187    -16.929157906468749     0.0022786813738746243     -104.69086108840476     
1.8853                  0.00029303088751979296    165.3772260847864       0.00047422951118082342    87.39040736971458       0.00040488339646600676    -96.483287975293635     0.002386303420377173      -132.20639781564398     
1.9252                  0.00013832069879073441    110.13920099839832      0.00037743431609483114    26.263081937331524      0.00033556764333637196    -163.05608366514926     0.0019911827397065761     -156.47626832780713     
1.9651000000000001      0.00011557730339532793    -108.08688480653427     0.00041614003216979342    -48.526788686609528     0.00035499807960940054    118.88080904605937      0.0018108918666750815     -172.38273785446512     
2.0049999999999999      0.00032826204612160009    -154.87217581924389     0.00053849883580175386    -119.30122695797799     0.00047720941881424265    39.303442525278477      0.0020525493402359673     168.47083146113602      
2.0449000000000002      0.00030777924151250172    172.94878667534604      0.00070276302650413062    152.99513390427262      0.00065187875450191033    -55.698391432498873     0.0024119638485159078     129.25694246666541      
2.0848                  0.00036130059773405453    177.73323775585968      0.00081837932319334279    45.392822281457875      0.00089129739428403369    -164.88442765094541     0.0020925249926465371     79.172539231604418      
2.1246999999999998      0.00064818315827019988    140.44563026635507      0.00069528417820311807    -59.874954266098761     0.00075049314099212138    80.035514450211863      0.0013752747455433203     61.073860139434828      
2.1646000000000001      0.00088822803999523208    84.173199363390651      0.00062864537216446965    -158.02091821672877     0.00057777276035485313    -24.790724811584376     0.0014805315621950047     43.8618526913951        
2.2044999999999999      0.0008495253116960783     35.062003160804039      0.00058589665462637571    99.860719716458121      0.00056000593556908903    -125.49230721880087     0.0016775226710034762     10.248558765148218      
2.2444000000000002      0.00056427235687360662    0.7421729589533993      0.00063915943399001725    12.275982183137225      0.00057480133798734048    135.67167699382537      0.0016738304593546455     -32.803661579184748     
2.2843                  0.00050377123141031644    1.5898932171701963      0.00064060980845232732    -84.710127686035534     0.00069949753059103973    38.253406594153695      0.0014868905649066822     -74.022739592910952     
2.3241999999999998      0.0007337815258731267     -13.410742662418601     0.00067399935724425024    -173.01890410327246     0.00068314895430008553    -63.29186756430073      0.0012666933019105299     -93.722521751173531     
2.3641000000000001      0.00087873970365492265    -51.20385621342335      0.0007100238866474183     88.129244765585184      0.00072753524101565618    -155.86188009310303     0.001366826937025196      -114.11806455528665     
2.4039999999999999      0.00087071998753804932    -89.143468544346703     0.00073905861837491368    -3.2010405845144869     0.00077298771718149577    99.934527733523652      0.0014227494491457526     -152.12547161532933     
2.4439000000000002      0.00085232466955797819    -114.94182470848075     0.00092354587360637432    -108.21028701077532     0.00084752099076849778    -10.207265316533956     0.0010411968989717281     155.45906885767235      
2.4838                  0.0012051304555976488     -144.6306983535307      0.00093351649215105993    131.47031919431899      0.00096185679537765174    -135.40107143757865     0.00049074335987516957    120.69731502664565      
2.5236999999999998      0.0014950002902238745     158.87439704309415      0.00087721702041408754    8.5552132964014564      0.00082493514008796971    95.056641835085912      0.00067611645198433661    130.46734208161294      
2.5636000000000001      0.0014817553919887576     100.86922700064842      0.00078206678422879084    -106.38941711889451     0.0005942451903491907     -17.795684926236845     0.0008727270052137215     79.094409516320468      
2.6034999999999999      0.0013628736913405088     64.837837214515091      0.0006303831974573225     160.98128156222094      0.0005749280792514814     -119.36774390500842     0.0008787937330597326     45.527260588437379      
2.6434000000000002      0.0012624508372624367     43.94023934441983       0.00062951867792670839    68.923296816465296      0.00051782469330438022    147.46969005124075      0.00087936508907689279    29.054226891347358      
2.6833                  0.0011340718994532388     30.578357776829257      0.00050452158874175008    -20.328867300960926     0.00051674672130892622    63.939248019627826      0.00087652190996468586    12.318985854865163      
2.7231999999999998      0.001451489825110712      96.720644067551078      0.0007303735573675308     -18.765792738711408     0.00059752903376929082    50.303280814809483      0.0010724535970948745     72.707428695634988      
2.7631000000000001      0.0017878844627289578     63.334789505396337      0.00081906437316869364    -113.70323956984089     0.00075577440670852218    -46.549452570063337     0.0011524577516702095     47.545938257805552      
2.8029999999999999      0.0023365677216095945     28.239999971667565      0.0010869550465934254     159.42630371325583      0.00086264076015325341    -139.92698372093199     0.0017452174137525013     19.569136150745582      
2.8429000000000002      0.0030306913631632736     -0.15606709105021702    0.0013524045454541087     64.926928860209514      0.0012790547647198668     125.39047855660705      0.0021237584125882569     -10.579019120143        
2.8828                  0.0037366953572966319     -26.869909560194969     0.0019911932223922761     -37.308495759918934     0.0016231669614067961     11.967151315811218      0.0025315886645855229     -28.528986921917301     
2.9226999999999999      0.0045123430144824693     -57.269440471234823     0.0022390946618264227     -151.05426160452998     0.001822086350690068      -98.195075886653683     0.0034776612409582294     -53.434575672934024     
2.9626000000000001      0.0048871479035786604     -40.837518401447042     0.0022733013349633298     155.306922001462        0.0018270905158398096     -159.02348138230448     0.0041439101699804132     -37.988572421355528     
3.0024999999999999      0.0049075651564357281     -67.884061713393038     0.0018965475716340202     62.165098925608071      0.001754842445572347      107.32675695206122      0.0043030910719271172     -67.075117339933385     
3.0424000000000002      0.0052996129755639781     -93.194114768258217     0.0021041562318761154     -29.915341861099535     0.0017836411295455907     6.7984412184026777      0.0046426681199228268     -92.214489640060151     
3.0823                  0.0053005371521671514     -120.97609055837853     0.0021685016446449106     -127.32456557604839     0.0018537501960295883     -90.588843537058281     0.0048000431202182758     -119.91783503466284     
3.1221999999999999      0.0059280705777477721     -157.29992021095578     0.0025026041121913294     134.39340986037081      0.0021134434927216755     163.01871715982901      0.0054643338771950458     -155.41853132489268     
3.1621000000000001      0.0066667635638448927     170.57038459617903      0.0023747965479586804     25.119407503006695      0.0019881828383314843     55.10674712159333       0.0063890198237343742     171.06849713503968      
3.202                   0.0059889601737665001     145.88445529917948      0.0023848963170135565     -70.243072470471759     0.0021326354989778143     -47.600711218195251     0.0056996860585221409     144.26894942953635      
3.2418999999999998      0.0062837602582684927     107.58165899631639      0.0023191894014031557     -169.81164916510977     0.001921419187697896      -151.08425894133305     0.005933673818812297      106.31895344501244      
3.2818000000000001      0.0067302296843973694     80.323047166373428      0.0022768279829281624     92.837537365345383      0.001836090797897914      106.89940054751064      0.0063821502080330852     80.099461697425824      
3.3216999999999999      0.0063557342320413488     46.834028128867807      0.0024338968381158177     -13.711840182737523     0.001993851103426932      -6.0146652868997226     0.0062133964231318598     46.035225608430423      
3.3616000000000001      0.0072308580524009453     7.4124228929579354      0.00215456003551312       -120.24531292992091     0.0019058036106718347     -115.26730239782627     0.0072872499500919062     5.1019662445104377      
3.4015                  0.0081394334960201327     -21.598027084437767     0.0020479780430954007     135.72238490789888      0.0019775185193130914     137.98063234656763      0.0078531057003176797     -25.89368877430125      
3.4413999999999998      0.0081803163094099594     -50.134916260975281     0.002022494337483749      34.698063658115082      0.0017572052097361507     35.097063112856745      0.0077144295882801322     -53.719653018724166     
