! PocketVna 1.81  pocketvna.com
! Live measurements ((Reflection-S11, Transmission-S21, Transmission-S12, Reflection-S22) Linear 10000000-4000000000/101 non-calibrated)
# GHz S MA R 50
! GHz                   |S11|                     <S11                   |S21|                     <S21                    |S12|                     <S12                   |S22|                     <S22                    
0.01                    0.00072913308964645083    114.65647445236668     8.6083536508822688e-5     -24.863806311707453    9.2737554170029245e-5     -34.393541356152419     0.00068717293586605739    115.88993576292043      
0.0499                  0.0029030635303412527     -20.012579495347808    0.0017855489777479194     140.28825135080848     0.0016351280376614859     133.39482482480867      0.0027824602741116288     -26.85747591249115      
0.089800000000000005    0.002133113708241592      -113.24110758120436    0.0025130465716491483     -30.365370994865188    0.0023239565307893216     -40.867140767663059     0.002015131179749231      -122.18996420704578     
0.12970000000000001     0.0015190179652384878     -130.20133991348891    0.0025299888936386123     -151.31196166641149    0.0022929171527136896     -164.56464435250686     0.0015597300036369547     -141.15622284933625     
0.1696                  0.0025123639379442861     -151.80904265973248    0.0029131557597001051     94.388107053302917     0.002788340433109127      76.16482401663616       0.0025500440465435772     -172.97674745209287     
0.20949999999999999     0.0035205399316209258     145.43856932131959     0.0035617376398595075     -22.694967034298937    0.0032823596105819915     -47.972002842499698     0.0035453923534997742     113.52540273655039      
0.24940000000000001     0.0025673239060555186     71.795884115353914     0.0027568438308985628     -155.59860438198857    0.0024514219242686612     178.0107651116785       0.0024556967907365225     42.348526970719846      
0.2893                  0.001585104077881626      38.036097143551828     0.001771598605399686      99.626085900224965     0.0017256921262858637     68.476456712368673      0.0014703926993803738     8.9944814292694879      
0.32919999999999999     0.00097673138666268147    38.453467618797525     0.0015178113666178853     24.983676015608843     0.0013461677142675393     -10.986662413605671     0.0010937046821830507     1.048048032727591       
0.36909999999999998     0.0012576372868780379     46.330054702778789     0.0014488655120586771     -54.157078973473951    0.0014199865186518509     -96.987049738772257     0.0013020067463595771     -8.5550188333649473     
0.40899999999999997     0.0018398040220199625     10.078303369518974     0.0018394744435982992     -147.13299137643463    0.0016124161534946239     168.5970237919104       0.001659001289904732      -53.812313450041337     
0.44890000000000002     0.0016133634092972869     -44.067095877160433    0.0017870286669955612     102.67592632582006     0.0016968893159183367     53.897515106445404      0.0014127446773432495     -110.00280412274913     
0.48880000000000001     0.00099868004945063288    -84.929371204401889    0.0015891149689379518     4.9745928296625888     0.0013697075354211301     -51.371050774795798     0.00085142420276000544    -136.96447550893413     
0.52869999999999995     0.0007180410354380944     -75.662106961937965    0.0015464157829008544     -92.93043539493722     0.0014615744104776989     -147.84275926053681     0.00086171862188426135    -135.44767984891695     
0.56859999999999999     0.0015970546201761733     -92.518474953257055    0.0019176072590241938     174.06003314103586     0.0017245367736621572     104.59927542708581      0.0015683190137125297     -169.39530978324669     
0.60850000000000004     0.0029123583518390591     -145.36571585090635    0.0029246924848259069     57.817976316056644     0.0023686499269613658     -9.8956444915210398     0.0020315234364181411     123.8292984847005       
0.64839999999999998     0.0023882328152758864     154.02761673211791     0.0025700889242880917     -65.489787679712762    0.0022987011414665518     -135.9681022548636      0.0015815992589070932     69.247525405298347      
0.68830000000000002     0.0017292390797656926     100.20617007472532     0.0022276095551928528     -176.15868410611344    0.001775466634344171      103.68606334638181      0.0015681461902103634     35.073688129904887      
0.72819999999999996     0.0011703075623636389     82.830826004397011     0.0018969959474064392     76.605886455615391     0.0015977983038923894     2.8478892078004141      0.0014852363393938052     -6.5672620436245142     
0.7681                  0.0016896049426659478     62.731903244828359     0.0018209472843299544     -28.289943063759477    0.0015967504755018361     -113.91965416234395     0.0013869252300633443     -63.000798084913988     
0.80800000000000005     0.0024199742441002865     10.622786952787182     0.0022182993493361273     -141.43885871027183    0.0016001917381089619     133.01401455583587      0.0014260038309169658     -119.18460434297712     
0.84789999999999999     0.0017753508980111327     -56.378089066161955    0.0019445907148549076     100.33746010261932     0.0016943223359389306     20.261864888806109      0.00094137831764313259    -159.11345711019925     
0.88780000000000003     0.00069921121771450055    -89.32352116588423     0.001642133899710552      4.1914104090935673     0.001417798063072935      -91.835466087336016     0.00086124850179684616    -171.98983365524884     
0.92769999999999997     0.00078456233020394929    -28.525477762187869    0.0013817537349733496     -95.736815418181109    0.0011970478356286686     172.63917785601529      0.00085682554684293885    150.64202933943398      
0.96760000000000002     0.0016929480468409672     -70.052870510301815    0.0013259578702883499     172.57057687988842     0.0011700736333999056     66.133639323930282      0.00078887808986934506    112.70511401128996      
1.0075000000000001      0.0022416939904172052     -120.78981680167217    0.0014193380212591139     65.665219257871144     0.0010543963352076908     -31.316272916040123     0.00071914040484168942    92.353126246449463      
1.0474000000000001      0.0016885049333859225     -153.71467095765024    0.0011245133255385282     -28.446280493462265    0.0010746180258345845     -135.69410791819604     0.0011205639563291821     80.722057784781882      
1.0872999999999999      0.001067439288016265      -156.84383889411239    0.00093096600125930481    -124.95824907488441    0.00076928282440935007    125.55973939015257      0.0015800979237996569     45.854914935055831      
1.1272                  0.0012914848738371273     -97.245551689089027    0.00069445800821425969    -151.2200419281512     0.00060335124321440469    90.87453636243319       0.0014560834649982521     62.210927920389715      
1.1671                  0.0018530173508121708     -126.80120013413386    0.00058251992881718114    114.60910295454819     0.00053438247019065434    3.952606093244694       0.0013041552010092847     32.451761074820226      
1.2070000000000001      0.0019401393217449233     -168.65502872679855    0.0006045046191651321     24.020351963992159     0.00051511140558498688    -101.80824583867891     0.0012941322835698119     9.2332032176429504      
1.2468999999999999      0.0011988084186365904     140.92320686660295     0.00048048164980785097    -86.248924943268051    0.00045860241395723086    147.2670108851847       0.0014827250863949115     -22.446079631133632     
1.2867999999999999      0.00041949764296619283    125.91492412047553     0.00033880697820691991    168.59518086774142     0.00035003490562122443    27.030283838197185      0.0016008588521529209     -72.107779189270389     
1.3267                  0.00070779415662430714    154.26249308082365     0.00023301401451446374    48.424578594229544     0.00022713681945728343    -91.844035153719432     0.001488032974836902      -116.08919356804329     
1.3666                  0.0011737674931057169     104.12242236635797     0.0001828482996644572     -71.155301605277955    0.00019017604273633364    154.59147085879175      0.0012802190709964969     -145.80552963277353     
1.4065000000000001      0.0014636669553518061     49.398705354995542     0.0001878018860207389     167.30353869614811     0.00017688023966593516    30.292397616276407      0.0014500914457048785     -170.70048478997637     
1.4463999999999999      0.0011367434116471443     -10.428252045187435    0.00019705009600129125    28.379987972429404     0.00017586138149917118    -127.73894201100468     0.0017636686841357814     133.92048352619713      
1.4863                  0.00069848114609339577    -45.350050566230422    0.00019379568272043137    -107.84075864646472    0.0001652143082367614     97.399993982309795      0.0019667436705808473     82.775156597017315      
1.5262                  0.00072115740048835921    -54.280450679218461    0.00021728582932735831    148.25992905384624     0.00016626195036114575    -11.568248910643693     0.001938367174727455      54.742708005631549      
1.5661                  0.00091442017241932566    -81.594325023953175    0.00028654273245027739    59.428177196948432     0.00023491005121437561    -115.45646970587016     0.001971677699784596      37.218609893304716      
1.6060000000000001      0.00096592575602428231    -118.63740679806463    0.00034420456731586727    -38.106237454305706    0.00028561832504971866    148.50000836126318      0.0022104808353798351     17.625564780175466      
1.6458999999999999      0.00059746025251361783    -159.36877481567763    0.00048988623917042059    -145.26918889301578    0.00041828312817049422    44.662265231054143      0.0022464254748381105     -12.016809263344463     
1.6858                  0.00012381024248413417    -170.84830393146837    0.00047994184093690611    106.80420375454885     0.00036642321464286121    -61.481309604908866     0.0019121420766647873     -39.900642542314237     
1.7257                  0.00027763656791376928    -91.768491123548912    0.00046001784385789904    22.140022897869493     0.0003696131350557342     -154.99810780947152     0.0016206404834630036     -56.636858718984499     
1.7656000000000001      0.00042908043969229807    -119.77153583258789    0.00045304115586672215    -67.370929804596514    0.0003719799986351213     111.90135590228999      0.0016813384672197007     -69.378162660210606     
1.8055000000000001      0.00039874179648079612    -147.48643889890451    0.00054939119340529198    -151.18365744772638    0.00043718468360625512    23.362960468242271      0.0019592088864034511     -88.384151149994011     
1.8453999999999999      0.00036496510284908729    -163.83449139458909    0.00054180403797968971    108.20173861295561     0.00048440504928565659    -80.340642967938379     0.0020874062863664505     -109.31967549159168     
1.8853                  0.00032452292301650583    160.09275315463697     0.00059781188416946427    17.462778856980382     0.00048160372995481262    -170.97207615735294     0.0021240288930164668     -128.51799818422487     
1.9252                  0.00018543677709047653    89.511957108445642     0.00062167220863598022    -87.452969938108254    0.00051197711930631401    80.216232950718435      0.0021416192246820464     -148.5321844218123      
1.9651000000000001      0.00023644260705941262    -94.853452789414575    0.00053380991072708381    175.94053526800613     0.00047619329188495503    -25.557117054883197     0.0021542711652419548     -174.11206744780222     
2.0049999999999999      0.00042642592722704994    -170.09611420081109    0.00037572952541852287    71.932600847705416     0.00039255056751616674    -126.01641991201639     0.0020136082407261249     157.38148859636985      
2.0449000000000002      0.00020058430569663702    114.90208016003916     0.00024660236159612377    3.7643303308546816     0.00025168966701814729    160.23961492583709      0.0019595085116080762     125.94885828769311      
2.0848                  0.00059299670019171021    -138.23356331260553    0.00035679265760203124    -70.614585595118243    0.00038545791685966411    83.424867999420698      0.0018899511504996017     94.374417691545958      
2.1246999999999998      0.0010546785913823596     131.75384072380882     0.00050992951080682035    -176.5010555413443     0.00048462280754311369    -41.733172111337389     0.0017689999718673774     63.384334571216122      
2.1646000000000001      0.0009527980429571819     63.562983647411805     0.00050283034087031571    71.633778803240901     0.00050101501114946725    -154.31176908962789     0.0015818117981734672     32.98205239155763       
2.2044999999999999      0.0005987413998518326     24.567041634339535     0.00047297660328267328    -28.509327199639788    0.00049166145613539151    96.340767041322053      0.0014292189642331173     4.2299409640438439      
2.2444000000000002      0.00047541072334908213    26.325314560257631     0.00056289822332361019    -133.26228133295851    0.0005785650759639817     -2.7997304561394447     0.0014515252032569884     -25.124454658289391     
2.2843                  0.00078549454328310901    9.3520708004611084     0.00064379582924571144    119.48572736864878     0.00070331156550843801    -116.40327043432636     0.001646865556474087      -62.150298459148139     
2.3241999999999998      0.00085681425750535483    -34.308862703884166    0.00071907527570987768    16.891041448835711     0.00072722773899777692    129.47216664823355      0.0015967217618289462     -101.14466642593571     
2.3641000000000001      0.00064535449960038504    -67.004566369910989    0.00070236712904342641    -90.466174728765097    0.00072987011133453575    18.805787121005867      0.0012353028658285887     -127.82724740841319     
2.4039999999999999      0.00063802385186518065    -70.401489506735132    0.00065921656546971794    170.54672683603309     0.00067552467598272687    -87.198153175100956     0.0010631272844791252     -148.56948264699835     
2.4439000000000002      0.0010634460910271938     -97.583236984608348    0.00066925283637105332    61.708878067740287     0.00071054318838771841    162.31000842125871      0.0010626658460864179     175.18381557797554      
2.4838                  0.0015643384601831789     -151.94749798651279    0.00072037115218807467    -61.774658775552552    0.00069255129011524304    27.14009030887188       0.0008120109836876468     121.04841631244685      
2.5236999999999998      0.0014488865585810741     145.06660884675534     0.00065410443008417809    166.84053426848004     0.00059006732953108721    -110.47331875502849     0.00048218528811601872    109.78364941409941      
2.5636000000000001      0.0012438127340793819     96.257794913961945     0.00049613199742713711    49.490445569825788     0.00046029897136679444    136.92901151840979      0.00070610922104540487    92.345146299259184      
2.6034999999999999      0.0011979639275555042     71.358948491617568     0.00041379216738601045    -44.719877211787136    0.00036336024977745264    41.27986617732374       0.00099608537143893675    53.659901331348983      
2.6434000000000002      0.0013174088481316343     51.920194659282039     0.00038080087098485551    -132.9385781894658     0.00034845420145581817    -45.442667121986922     0.0010379847782106312     22.784339543292749      
2.6833                  0.0013337914220580636     29.475767860582216     0.0004192790071903135     138.49963071845113     0.00032401870329739355    -149.69149896974636     0.00079885508684916491    3.212732405376058       
2.7231999999999998      0.0014737130680919598     86.763852009406591     0.00045436876913841189    133.44193470990035     0.00036685298399470172    -160.4827664119141      0.00090145685051425096    77.613162370596442      
2.7631000000000001      0.0015572926903266965     60.74333837789635      0.00052816861637068472    17.781652193628855     0.00042242637910285577    95.17503266221749       0.001321082260166304      55.794334208022043      
2.8029999999999999      0.0021831067606979289     33.082209202444325     0.00062506427018127974    -71.05881715063019     0.00056746089581677795    -9.8261715011342101     0.0018842192290836226     15.15105663454934       
2.8429000000000002      0.0031670182921434251     4.4735527012279599     0.00084448960818965643    -172.67716739057843    0.00073135798767189476    -110.74835462497354     0.0020739716861356452     -12.663876882041894     
2.8828                  0.0040984260609032049     -28.056097254281006    0.0010948159728303621     91.429192213513616     0.0010415591666081167     139.92181307354966      0.0024619414096286501     -28.409373772826996     
2.9226999999999999      0.0044803091109896827     -62.130988150332904    0.0012709494418846716     -23.529234325658784    0.0010141436792351875     26.436666557906221      0.0034970529802855659     -52.629631568335718     
2.9626000000000001      0.004587483218468409      -41.08516831452156     0.0010872429246234173     -72.020231194693125    0.00092733969676208445    -21.892020491015632     0.0041674879773622112     -37.147552664397793     
3.0024999999999999      0.0048482679070938253     -65.558202176261815    0.0010785698912755242     -165.31751731195868    0.00086877168110504894    -114.18605060706862     0.0043951398093103949     -67.406837511551757     
3.0424000000000002      0.0054590294710746088     -92.693594148625593    0.0013663819813215735     107.98868148221699     0.0011127937845955827     144.10123740354905      0.004601673288988758      -92.994142582038435     
3.0823                  0.0052972322847129215     -122.10589055189473    0.0018125325035408966     -0.75274210677311004   0.0013009613260830115     30.702305947493013      0.0047168669560678014     -119.23777773397124     
3.1221999999999999      0.0059744784920030001     -156.4103898460628     0.0018639880439853731     -108.10166158003233    0.0015393025009396632     -80.609393905906089     0.0055199362808238247     -154.71291873423351     
3.1621000000000001      0.0067712298652034125     169.85040805093561     0.0016924445150417328     139.08509578437483     0.0014833905953465462     160.98744333258207      0.0064364763447398235     171.11205905224915      
3.202                   0.0058683298974244683     144.86706285689397     0.0012041705306117716     27.00421218603449      0.0011355016999993718     53.024611970262754      0.0057245101927552835     143.76889731842442      
3.2418999999999998      0.006157775497355928      108.2798254450464      0.0011803857730161617     -72.320331943907846    0.001125392507658422      -51.921111481971231     0.0058531828585246829     105.84422367142307      
3.2818000000000001      0.0067825356810143188     81.487546217181489     0.001329712069504183      -177.53656598483857    0.0010874848306686963     -159.25765182878035     0.0063749643883545069     80.936029056525555      
3.3216999999999999      0.0064630605682738027     47.000764011131857     0.0014245777065939951     82.095731189004056     0.0011000980458228415     94.50245449744412       0.0062598937658248279     45.791177209537217      
3.3616000000000001      0.0073237928659129082     7.1826442630598679     0.0014773092050367363     -25.226515889340444    0.0011474189603549187     -22.278386584968171     0.0072780360519858677     4.845030585482097       
3.4015                  0.0081343059382244856     -22.556045450020935    0.0011962090628696823     -126.76626358648163    0.0010300862040057248     -132.60166144181633     0.0078829299246544367     -25.99124212437054      
3.4413999999999998      0.0079636209422493266     -50.020387367786789    0.0011640295278881102     133.57437827621652     0.0011252361904865911     129.41216692895699      0.0076723112103717966     -53.944331043535222     
