! PocketVna 1.81  pocketvna.com
! Live measurements ((Reflection-S11, Transmission-S21, Transmission-S12, Reflection-S22) Linear 10000000-4000000000/101 non-calibrated)
# GHz S MA R 50
! GHz                   |S11|                     <S11                   |S21|                     <S21                   |S12|                     <S12                   |S22|                     <S22                   
0.01                    0.00046187416747289967    137.64648246906884     1.7797403535772518e-5     -34.821064782372851    2.098016953098873e-5      -92.605333953046539    0.00072692163904501694    117.15833723423195     
0.0499                  0.0020655952436033115     21.157088156819114     1.3509926414878029e-5     -29.576353257132421    1.5704908454001197e-5     -104.0296509263018     0.0034107908101595791     -27.330774170755831    
0.089800000000000005    0.0035195997064278654     -60.502547840209942    1.0552707886061663e-5     -6.9343489012695594    6.6759613565122509e-6     -2.7506429935107661    0.0026624912856851222     -143.08100819864126    
0.12970000000000001     0.0048444437752803255     -139.31639328238469    1.6629784351052935e-5     61.471487972958336     8.2840706927872231e-6     -32.475144541619152    0.0006658848965885103     -172.24424654091999    
0.1696                  0.0032357974175733655     144.27152515684216     1.4286355698907698e-5     88.715020635545514     1.4788689313888334e-5     14.918401326586556     0.0017342571214781824     -148.07928475637308    
0.20949999999999999     0.0016567559943575882     96.337801588195006     1.2351202091297185e-5     133.92460825204043     2.1628900730637792e-5     86.642811248377441     0.0037441472300846742     157.54531588302004     
0.24940000000000001     0.00077260761894202548    89.105421910611028     1.7540434329061355e-5     132.05595365001238     1.693859143917965e-5      173.53456873537536     0.0053831718305291888     54.29331061167882      
0.2893                  0.0012674586883791381     100.65381411494583     8.3359478431681709e-6     139.67643357007552     1.3266798048228173e-5     132.10918946779282     0.0025536694392850681     -22.841154766410465    
0.32919999999999999     0.0024216324478586069     72.959701326416905     9.2066055980688827e-6     -43.590027951956039    1.3694161056692581e-5     -134.09621695991135    0.00096373507024776015    -63.274492930378138    
0.36909999999999998     0.0032302682356511216     22.072258852593205     7.0971619964756846e-6     -153.43494882292202    2.5015381772951109e-5     146.91103094846844     0.00033163969559947429    3.9535553470695137     
0.40899999999999997     0.0021723229015398297     -50.682276436568415    5.1626932610733604e-6     -169.35494766012121    1.6522915249289093e-5     -2.2224573615227037    0.0012333369823739446     -3.5278419126443259    
0.44890000000000002     0.00076680999676135393    -110.3032989574864     7.01728020044523e-6       -174.82209395430255    9.5428791879201502e-6     93.80514794064463      0.0020870741410397753     -64.382279714752116    
0.48880000000000001     0.0004909161887549201     22.152297746208369     9.888312776076529e-6      174.46552918676966     9.6800476692382201e-6     138.96342270127792     0.0023726061119337242     -133.7257376163052     
0.52869999999999995     0.0015852864541469        -29.836030324846803    1.5880419237385283e-5     -178.84402429794812    1.6189235578741292e-5     151.91355323834196     0.0014566714830328736     166.93606006733262     
0.56859999999999999     0.0031261258458260832     -97.693092868757617    2.0189684977600247e-5     -143.31193940836371    1.3119158677008022e-6     -76.200514603980636    0.0006112468161443901     123.83902122488701     
0.60850000000000004     0.0039650386961990712     -168.84931249936818    3.2844725801318548e-5     -150.45179458853599    1.4089646779318344e-5     -104.35957135531442    0.00063502555057013549    168.6676553611276      
0.64839999999999998     0.0022068943748994752     119.67439147322676     3.3369793924750241e-5     -81.797531685570661    2.7895562790292111e-5     -138.68163256477581    0.0016392196350450729     134.69431737617711     
0.68830000000000002     0.0009591742993166996     83.423207780268427     2.351425073382351e-5      -124.53096295303999    9.9243355661171892e-6     172.62422618357843     0.0034463625255029312     59.517887778621493     
0.72819999999999996     0.00086833111162253995    109.36932360753045     4.5438830420803385e-6     -155.28391369514168    8.3875008276478128e-6     -119.47974185641141    0.0033685161276786847     -27.398425132408967    
0.7681                  0.0017023727580827781     74.963185317364008     2.9284178861932714e-5     -9.3712548754145981    1.3478627472674399e-5     -43.096070178573143    0.0019538692351102139     -117.24394557459219    
0.80800000000000005     0.0026008850241672418     25.163524624505381     4.2681163226657403e-6     -41.957475490824578    6.9628456136360894e-6     24.261290852477785     0.00065567367586614263    -179.72264481009955    
0.84789999999999999     0.0026026425806219694     -39.882538597654438    7.3635863778645895e-6     -82.558594510256285    4.2291020735674673e-6     76.967554229351379     0.00028632432241366089    -75.747880013392333    
0.88780000000000003     0.0016904729759834021     -103.5899369619614     1.8514805216323138e-6     -121.00329812656406    5.6228194553983983e-6     -73.606175228710569    0.0012185212114448091     -124.88683351930771    
0.92769999999999997     0.00032246446660446395    -130.08795680636368    1.1949254076050804e-5     50.413986943423396     4.2731012153704131e-6     -137.96823402987172    0.0017692409193593123     175.91428007603895     
0.96760000000000002     0.00080376189460995193    -35.416728248013349    1.430423966415914e-5      177.46248347369342     5.4111633670178992e-6     176.60574384416157     0.0017243228846295781     103.75235422174904     
1.0075000000000001      0.0018252873826225624     -77.573929388073907    1.2387008700257749e-5     88.517948847332718     1.1455543275363161e-5     133.89322749701719     0.0013537678865708168     50.968869473692415     
1.0474000000000001      0.0031705952383294369     -120.14701948461347    9.9693390089792976e-6     99.159619714254191     1.8461848670669572e-5     -3.9571178780764722    0.0007048737675937588     23.100221726345175     
1.0872999999999999      0.0032317397266734033     -173.9201600022871     1.7467099264902881e-5     88.949043428135099     2.364882941299424e-5      -14.784907741628905    0.00037524128453588824    58.811875100805359     
1.1272                  0.0014891519959271578     -169.67007757035017    2.8743688154580343e-5     106.02495632123227     6.355349616455062e-6      90.067169699020724     0.0010412077309795481     121.16428974620871     
1.1671                  0.00032539703170248564    -152.13471579636899    2.5248724915462432e-5     83.493636582725784     2.3257100410471426e-5     94.704193606253639     0.0023370411274862427     65.46844129232791      
1.2070000000000001      0.00094995110934627464    -121.31534129332061    2.4027752781028168e-5     43.404324930648229     1.280124449128632e-5      113.38687554616128     0.0027510968584520184     1.0581622100934158     
1.2468999999999999      0.0016038806661812914     -151.54226890060374    2.7132344713560827e-5     -16.314957306595051    2.7654403415781598e-5     21.560624157860833     0.0019264748731452025     -63.354580409471673    
1.2867999999999999      0.0018640560827871174     158.20229027770469     1.6193663388116144e-5     -48.18913591473337     2.3353749505349682e-5     -97.018455526923901    0.0011332668914803988     -106.17026690062322    
1.3267                  0.0017684679079437793     86.78858335519358      1.3984186036914578e-5     -140.53447081323034    1.074568235924133e-5      -145.88022218461919    0.0006464103265530469     -100.6150711140085     
1.3666                  0.00088099362203806152    16.887304459547533     1.6763880848719016e-5     170.17346139014452     6.6353893663684871e-6     -163.29459360432728    0.0013907310473647374     -112.89461110345736    
1.4065000000000001      0.00022720249166547881    116.02727568284216     2.3705126030705499e-5     97.69460474927871      1.1939396746506657e-5     61.403807921645921     0.0022691268869355079     -163.29698970799814    
1.4463999999999999      0.0011374821903116406     53.398511455597088     2.12581920928979e-6       116.6548564005779      1.5762909017370202e-5     -99.275329108667833    0.0023203675475390703     120.57242339134386     
1.4863                  0.0016983658072122971     -2.4642558868095836    1.4874930689828693e-5     -140.16135881484985    2.3154517800962706e-5     153.08041046142785     0.0020351360585693949     66.078423979170552     
1.5262                  0.0020576992863735022     -65.475572345772093    2.4118883900601138e-5     106.04993681767382     3.0031796905969857e-5     123.35101987417607     0.0015318166216457989     44.177063365559754     
1.5661                  0.0020178924508704905     -139.42220196669302    1.2447474309763323e-5     95.840267699977929     1.326150186550168e-5      -16.683828053040479    0.001488749646910802      41.714954692119051     
1.6060000000000001      0.00067427407298887307    124.9324779651452      1.9984158609995282e-5     162.4229712539717      1.0612014977382439e-5     38.929950826768284     0.0020940394081363726     32.649277504497974     
1.6458999999999999      0.00048498048644242593    -5.2587394535111169    2.4798479373939268e-5     87.055069515008412     7.0493872171968372e-6     144.15961971425421     0.0028663263549001143     2.7492913542891779     
1.6858                  0.00076826855558817617    -76.521016173807766    2.7620178561334155e-5     19.47604240583841      2.8265724526178031e-5     104.97033102189565     0.0027137330897556481     -46.474434628682012    
1.7257                  0.00094591193865268392    -121.171644591534      2.4287426582869705e-5     -48.170867851907751    1.6761448482422079e-5     -18.773210670144536    0.0017488964996191267     -79.338765573379789    
1.7656000000000001      0.0008689080604672826     -170.36564219554205    1.4770159210161418e-5     -151.79320374719063    2.2655250575591847e-5     -84.356904068177599    0.001214754338328318      -77.699930969636455    
1.8055000000000001      0.00058117828620276506    106.83087708573213     1.7620591608184653e-5     -123.98571569341679    1.7796074767045654e-5     -177.93661220191277    0.0015256957687926692     -74.798231089371043    
1.8453999999999999      0.00042495088626543214    -9.5044349352860404    2.4767706784385794e-5     -90.723915369365088    7.497035428888517e-6      -53.608410213066556    0.0022262911901123404     -94.605374817077021    
1.8853                  0.00067614197340807355    -108.53697132781862    8.9793870643763694e-6     -98.156995466244908    1.1752322040085852e-5     -51.589795542976653    0.0028316638467949145     -126.47805280121803    
1.9252                  0.00077160174831656845    -166.60422177256626    1.4808007849822236e-5     -149.02141152947624    3.1704892380423903e-5     -55.193291727866388    0.002474322500581448      -162.44875807751001    
1.9651000000000001      0.00070860140823902614    121.04733991709041     2.2369826967474735e-5     -96.521426871857543    2.610537147124532e-5      -108.43494882292202    0.0017334786748708483     171.18111829634208     
2.0049999999999999      0.00066603098111679845    27.359063030839518     1.3162542438252761e-5     -98.331911822070467    2.0914173893311029e-5     -131.90983706939534    0.0015291065073986772     160.87281063205194     
2.0449000000000002      0.00096004966563114876    -100.49996226276157    1.5673301736413443e-5     -173.010114955999      2.4767802038234334e-5     -126.12874809654872    0.001780459374705358      143.88628627346279     
2.0848                  0.0011676166937198832     177.55335721532384     2.339505679361566e-5      -97.797216149921951    9.8100722706172599e-6     -155.06985849616296    0.0023459826421357798     109.14354397259663     
2.1246999999999998      0.001053894535819276      108.80602846413913     1.800514157652046e-5      139.29584051127154     2.7843131708186293e-5     -151.39810564003807    0.0026942114061949429     54.279292642982789     
2.1646000000000001      0.00090235359251844452    55.63851957865684      9.5480084240647522e-6     158.58050137061744     3.4301018199861529e-5     120.59237648377459     0.0013097973432585491     4.5745580252195612     
2.2044999999999999      0.00055199553930733306    12.692964607684665     2.5691887966509297e-5     39.988528922740464     3.5944962979358208e-5     65.469552188274392     0.00095036540001904144    11.407626321895151     
2.2444000000000002      0.00028446414290660978    15.33935391501436      1.5900895332684908e-5     -26.072790246782446    2.0447489638905765e-5     36.151702330032194     0.0014169210953652359     -9.8315691227997561    
2.2843                  0.00063218897824604678    27.002627117269544     6.9631844358156987e-6     46.864382216390226     2.0254367381077626e-5     -41.181959785446537    0.0018385501633355888     -49.819461220522008    
2.3241999999999998      0.0010103190737956022     -10.758959178822691    1.2066743752607891e-5     178.47860441541997     2.5561464247033993e-6     29.703452685569928     0.0021465177088777695     -97.470977317484312    
2.3641000000000001      0.0010597769261427763     -62.329353067699181    1.41725006000474e-5       -74.38559856547181     1.4278712609963124e-5     20.846475717269982     0.0016681862871235377     -147.98883912097722    
2.4039999999999999      0.0008900760826283928     -104.3339123230914     1.0127183690538813e-5     -131.18195978544654    2.9327575898431057e-5     -70.391215935704295    0.00063773501578796344    -176.6035871537126     
2.4439000000000002      0.00065301768163369132    -118.58385191456378    2.1675863381934578e-5     -121.82167660896722    2.5894093857272326e-5     -130.519039977788      0.00063825604110157681    -166.91795441899009    
2.4838                  0.0010653643509370703     -134.57726096204377    1.9074989481737418e-5     -177.1342420521448     2.2298168760317836e-5     -116.21402045862463    0.00097196753524640982    161.15047044375888     
2.5236999999999998      0.0017146356129248074     170.36319361406052     8.5915403491448684e-6     85.772781334673269     1.2166435389738687e-5     172.50505781842452     0.0010566203292729634     100.87779058656233     
2.5636000000000001      0.0017840609272307239     99.423811196125328     9.6541643786696786e-6     136.31331947307712     3.9435805562316435e-5     139.9047577523711      0.00078010198051381148    46.05563871211622      
2.6034999999999999      0.0014930842910961984     56.870967701413612     1.8292723078421856e-5     141.33290267025265     3.0489459055696263e-5     89.397940410541878     0.00038047866504384249    60.118459884588923     
2.6434000000000002      0.0011703867889463989     37.227272169660381     2.5912070686717325e-5     162.8936373564527      2.0827367446563752e-5     37.558594510256285     0.00096475392954248774    50.247173873906206     
2.6833                  0.00094304888141847742    28.869019589262862     1.4200988385722393e-5     153.44839222471967     1.0968843845749787e-5     22.104941301124743     0.0011584107941958086     16.726316978514351     
2.7231999999999998      0.0012418591641489801     103.75553158576253     5.8475137915057648e-5     -56.743231518734611    4.1097186456600312e-5     20.813782092063978     0.001295950805416004      62.763483647729629     
2.7631000000000001      0.0018721862722448925     78.307104442409994     5.0425109502389679e-5     -143.70747688775836    5.5109825394252434e-5     -41.497807234559595    0.0011365100090048302     25.376851937482673     
2.8029999999999999      0.0028936841153045247     31.722781615655997     3.9663192224491529e-5     165.63223879574213     5.8657245666303968e-5     -115.31190585793499    0.0010512424314651969     29.275044968818325     
2.8429000000000002      0.0035308167464599277     -8.3246641210568626    3.9979146924659963e-5     112.89995132316663     6.4090620986401398e-5     157.88071679524683     0.0023180135030618351     9.5641701228117704     
2.8828                  0.003478439744320216      -36.836467721577812    2.8015471014131305e-5     72.191472922693691     4.8237767801202275e-5     106.04993681767382     0.003372319795164455      -29.45648410731766     
2.9226999999999999      0.003698368500977503      -58.580688357730587    2.6957254945348798e-5     43.096070178573143     4.3440259235802811e-5     35.781002040169568     0.003685304836271473      -64.044318184704665    
2.9626000000000001      0.0044772890464874404     -31.787394663538496    1.2642443211698394e-5     38.876017716552454     8.6702032179904582e-6     -113.76752110299215    0.0037508087310833232     -44.331219319333549    
3.0024999999999999      0.0056856622417454546     -59.957018241875076    1.3538008377073652e-5     50.695062820102962     5.0426491617291121e-5     61.821942903785889     0.0037757796909735648     -66.93432053377272     
3.0424000000000002      0.0061978162675868234     -99.340256892163737    3.6070022078773277e-5     -26.115162847320168    9.9140418824332762e-5     -35.876050526270966    0.0043986187335528955     -86.751542580878947    
3.0823                  0.0050077221304793045     -130.54381103897953    7.4926173943816682e-6     -36.345726538455935    0.00012422326753559716    -142.16510207928675    0.0050771903707589345     -114.078967387498      
3.1221999999999999      0.0051955329827306513     -158.15370291659318    4.6389842731342527e-5     -40.564364404108247    8.5839019852117321e-5     132.59751337814595     0.0060659754397352226     -155.65653005348179    
3.1621000000000001      0.0062240022368811451     175.69636058918593     5.0771331344954023e-5     -132.97220407050821    5.0639353529963721e-5     100.11785489274466     0.0066457186520236912     166.89135399269202     
3.202                   0.0063111583769083351     151.1693339464118      3.6051628850611149e-5     -162.04060159250378    5.9723802944418925e-5     44.565336758135238     0.0053456466004323201     141.16269630328304     
3.2418999999999998      0.0070047063175373439     109.12813469413729     3.4680868093654584e-5     139.45210930505584     7.4896134581652472e-5     -24.28310077974486     0.0055052027913328012     107.84773246474511     
3.2818000000000001      0.0071517632582682455     75.748455774553463     6.2976154908793517e-5     124.72602086527941     6.5893769235349288e-5     -59.610659772364457    0.0065008058623024553     84.419422223211427     
3.3216999999999999      0.0061164232942221529     40.591574543978297     5.1784757558465344e-5     56.501984646970911     7.256122317655658e-5      -102.63920160584331    0.0067055083277712379     45.986122219168102     
3.3616000000000001      0.0066363361901697624     6.1137218342865136     6.310499129786092e-5      16.066192519543463     8.8804656568790722e-5     -164.87009796096214    0.0075374941292898909     1.583492761337929      
3.4015                  0.0076658318679774448     -19.245482712999586    3.7537685789048945e-5     -51.867683786422418    7.5863392180644448e-5     166.19303668970397     0.0075670591526837312     -28.186661975639829    
3.4413999999999998      0.0081467132184120973     -45.314242241288191    1.7152722054709471e-5     -50.994267967526511    8.2167679529396309e-5     130.77147516478047     0.0072870301534679596     -53.221009518818882    
3.4813000000000001      0.0088267928071094522     -79.06594848878872     4.0971447243054973e-5     -54.465955805706812    0.00012098558377209724    90.755101738886736     0.0074567352887258678     -82.210440284892954    
