! PocketVna 1.81  pocketvna.com
! Live measurements ((Reflection-S11, Transmission-S21, Transmission-S12, Reflection-S22) Linear 10000000-4000000000/101 non-calibrated)
# GHz S MA R 50
! GHz                   |S11|                     <S11                   |S21|                     <S21                   |S12|                     <S12                   |S22|                     <S22                   
0.01                    0.00075102681097334058    116.81467450442759     2.1869713225469454e-5     -64.168238888355575    1.9046664296265704e-5     -126.87438018217607    0.00073081896927776726    117.53398801981707     
0.0499                  0.0035462806485512385     -20.317166606153922    7.9993702546088048e-6     83.152987793301691     2.5406479835510254e-6     -90                    0.0034100649934716422     -27.318899510148757    
0.089800000000000005    0.0027573623661082264     -133.66563201647659    6.3538558319853634e-6     36.896771836890622     1.7155479150633325e-5     2.1155705386917272     0.0026643323084252438     -143.15320648473619    
0.12970000000000001     0.00063274095549372973    -154.65700101159266    1.4770959713029505e-5     8.6450883584425373     7.8635010340569887e-6     -43.387541956409237    0.00065939202839836414    -170.96904676206043    
0.1696                  0.0018336413143390246     -129.76619466596685    1.2775190983555133e-5     55.142116832828812     1.2453495586047056e-5     70.64362801677251      0.001736808971941925      -148.08220861599528    
0.20949999999999999     0.0038509599162664574     -177.30163956123585    2.4004111472758584e-5     142.52899535918164     1.7609164709142179e-5     140.8555763432376      0.0037578527561674341     157.67353531055593     
0.24940000000000001     0.0051603724696462835     84.552193599008419     3.1633912313009806e-5     125.60670125816148     2.1084565200654017e-5     161.5842586116629      0.0053871075596848058     54.327683425197534     
0.2893                  0.0027145724303222238     11.660933011339917     1.0568784482646508e-5     138.65828723756613     2.1668180402517791e-5     -169.01848400193546    0.0025318756242015466     -22.799533296432429    
0.32919999999999999     0.00082383491275546384    -22.90860663160786     1.5243887901306152e-5     180                    2.7852396934218333e-5     133.15728161266441     0.00096401835454516512    -63.493963330188826    
0.36909999999999998     0.00044223658590644612    69.665732561975645     5.5409282145123624e-6     -76.785948721448406    1.8584599265186445e-5     -106.87305395279367    0.00032501096595205205    4.8194888084030847     
0.40899999999999997     0.001436033707034454      46.06619692978412      8.3092948752213538e-6     -173.46123965776866    8.3316881651676866e-6     -107.75443140752533    0.0012358051862189406     -2.930887971112202     
0.44890000000000002     0.0022826535360697142     -3.1894776028394589    1.4624853950490523e-5     152.87362740654106     9.3789878308752133e-6     23.999459951549341     0.0020889912014786542     -64.27237066763962     
0.48880000000000001     0.0024209744847058382     -73.347538877783052    1.8884270741265532e-5     -163.40252051566267    1.4937262092320462e-5     92.458518486992247     0.0023504962555660406     -133.84502603587691    
0.52869999999999995     0.0015923898888232819     -130.8603741504422     7.3015689849853516e-6     180                    1.0926875295113455e-5     -125.56492689241509    0.0014397505795128809     166.54603756240547     
0.56859999999999999     0.00065655114876418306    -148.86987379652422    2.0487098433851516e-5     -161.00496076543644    1.0285755210064121e-5     -171.12446649789166    0.00061987669433589087    123.76360295214953     
0.60850000000000004     0.0010613784252402369     -120.03163193186532    2.9724619569221267e-5     -130.66983396032356    2.8288756638520252e-5     177.41867951968027     0.00062538017462791578    168.93598673643623     
0.64839999999999998     0.0022535593622033043     -149.23977245776882    3.6196273213650858e-5     -90.495340219436088    3.0274196363127566e-5     -85.186005392091943    0.0016567193994462361     134.79046932968731     
0.68830000000000002     0.0037426522935628858     147.33456673030997     2.9779335932437237e-5     -111.91853505719908    2.178101768333265e-5      -149.31186341863398    0.0034489184360552939     59.518464859975623     
0.72819999999999996     0.0044539039078811161     57.07234881144467      1.3211516071430025e-5     -80.325196735600329    1.6097580708385833e-5     -157.98191648865182    0.0033721674440957169     -27.761830536341193    
0.7681                  0.0017218991092859985     -24.873127469971525    5.3964118595804306e-6     118.08644676165804     2.9302765029263349e-6     77.518596399871967     0.0019583566820806559     -117.09284019166523    
0.80800000000000005     0.00019114054960158597    -31.551318169003874    1.5268995636443503e-5     46.680615964773366     2.3054617482376659e-5     -51.719015636532667    0.00066504946937008568    -178.68722556748136    
0.84789999999999999     0.0010728288941467185     29.562023046994703     2.2202730178833008e-6     90                     1.1506642035680662e-5     155.55911556841033     0.00028757117822597649    -78.342461169398902    
0.88780000000000003     0.0019021214252278888     -10.979827928855975    6.5465127508147642e-6     -39.087532754035593    1.4874389560360131e-5     106.11096739129452     0.0012136775528084778     -124.6628087770372     
0.92769999999999997     0.002379500632315474      -67.747179953962103    2.1443296478908408e-5     27.321827873898933     2.0700862661077885e-5     -41.27904163753351     0.0017527547780248778     176.34399690289501     
0.96760000000000002     0.0021540635121599632     -125.73303753671118    1.2062489986419678e-5     90                     1.2513639936631159e-5     144.30369642417841     0.0017166912781536577     103.82545626163905     
1.0075000000000001      0.0010232814726036342     -157.947982872111      1.7369334502751665e-5     -18.092981329221359    7.242516214041222e-6      118.77980630439721     0.0013496753801247121     51.226580946455655     
1.0474000000000001      0.00064230256774800072    -121.43473259666965    1.858205272123398e-5      56.845153279945357     2.2488628139715733e-5     48.424787387407058     0.00069847505223225958    23.523446358130858     
1.0872999999999999      0.0013365827707938899     -114.08682113301644    2.2234102960229448e-5     88.367809657925918     2.1579273900342963e-5     32.965815460013204     0.0003853458823261692     58.3397360831068       
1.1272                  0.002123114576740138      -84.602235461730757    2.5782601474478576e-5     94.242510328021211     1.7043184794353582e-5     63.43494882292201      0.001045666033694965      120.99666276531472     
1.1671                  0.0031816343713000862     -135.02827247076422    3.759292901800318e-5      81.256427767406706     2.3695528823963629e-5     35.194217184922785     0.002334286409446485      65.71154231266793      
1.2070000000000001      0.0024969186887094843     149.23110677338983     3.3558137892348737e-5     57.364899649690294     2.1622002089952632e-5     60.069006640489008     0.0027427074078749179     0.89545821275216031    
1.2468999999999999      0.00068046231780081285    66.078468560523774     3.7811946104663581e-5     -7.7229634977519366    1.8586763179900435e-5     -16.895032466995453    0.0019166737803483673     -63.324686424648036    
1.2867999999999999      0.00064927708478101649    -132.02650407367668    2.841075885563347e-5      -64.859655730461981    1.9838326170347335e-5     -50.210959714983296    0.0011288555218652999     -106.6049969970328     
1.3267                  0.0013447470418474783     167.50941185234939     2.2540283235890255e-5     -90.814397552828268    1.4711076581616376e-5     -147.32405361981441    0.00065687006210918383    -99.403026196857837    
1.3666                  0.0018841448205101561     98.225682331074225     2.6793805456049252e-5     -174.55891270575984    1.5483814091865745e-5     164.53934762450203     0.0013909192435483146     -112.43767822950917    
1.4065000000000001      0.0020509826717950022     31.032113089262129     8.9110750499803514e-6     85.924622532392391     1.0412324332319751e-5     52.383913552892032     0.0022578615082377274     -163.10155281822225    
1.4463999999999999      0.0010715090977516119     -53.507308077047149    1.12593828714849e-5       158.49428987151879     6.8472619261772448e-6     -166.59883813327804    0.0023219998865846685     120.39398540121364     
1.4863                  0.00015725330485685148    -72.371158540108169    9.0402810231915878e-6     161.55011873553099     2.0438686313669358e-5     83.76360066412829      0.0020360373573020648     66.109167488034188     
1.5262                  0.00061617167437493284    -9.8502564537082673    1.3370593642835988e-5     94.090166230458649     2.1176108538922799e-5     -130.13337020057401    0.0015345757152538289     45.125692868317444     
1.5661                  0.0010490950470511131     -52.377297975031794    1.4478694314940082e-5     142.12760224859372     4.8468703993004206e-6     -121.6132722139548     0.0014967182043370175     41.232771733145377     
1.6060000000000001      0.0014729234460118107     -97.331934040692303    1.9276899719397305e-5     107.24437662505252     1.2196700566730771e-5     51.323793412209668     0.0020886608751139709     32.80584963781105      
1.6458999999999999      0.001651849680912187      -153.40536207659551    1.8774039457195781e-5     86.108786679670104     2.580763786669818e-5      85.064650061900181     0.0028583995551100519     3.0117278374582601     
1.6858                  0.0010561686818865404     109.98769925091986     4.487292951095675e-5      26.922427212151014     1.5123417832884024e-5     39.021291025730584     0.0027190816935269021     -46.239561566366888    
1.7257                  0.00070862221008131466    -2.285577851722731     1.9412873424454357e-5     -86.259062449847377    1.4232974595396255e-5     141.35424401333086     0.0017333345338978626     -79.348937120771197    
1.7656000000000001      0.00090194913964601468    -86.387322503901345    1.3261803245957235e-5     -101.04479303348941    5.7936253199925142e-6     80.525564519530533     0.0012257277915194102     -78.069943529200955    
1.8055000000000001      0.001047315084922937      -140.27693812993292    6.5368602040680956e-6     -150.95173884117295    1.150547209065956e-5      -152.04100447958518    0.0015194378796847326     -74.709053297485127    
1.8453999999999999      0.00088765589567832491    160.9170304444439      3.0990877846558201e-5     -43.343950683724351    1.1999099331620425e-5     -37.481826320165013    0.0022328246259107317     -94.755496682981729    
1.8853                  0.00072235377997454482    75.645848054502167     5.7260511240070527e-6     -70.621995944606979    2.5187584439454407e-5     -33.68536691236222     0.0028369062172020842     -126.38373335542148    
1.9252                  0.00050006639928642745    -29.185277962781605    3.3212629216334163e-6     73.313066848651701     2.4748567897627735e-5     -81.133187613295362    0.0024600289647021992     -162.39769501677466    
1.9651000000000001      0.00066392347433617892    -126.67790466945222    2.8041725754600512e-5     -105.77183622377071    1.4660868492233746e-5     -107.6614751633555     0.0017223190581490072     171.02742492674815     
2.0049999999999999      0.00064547816471943373    176.92655668380041     1.3293558411231956e-5     -123.31599811068219    2.4765157207016858e-5     -112.63047257644217    0.0015142757724541237     160.55077034777602     
2.0449000000000002      0.00047284811763563376    116.47905367250249     1.3576382870131319e-5     -100.78576872497136    1.5332708368400743e-5     -103.14486761755074    0.0017918923498309312     144.03990249329541     
2.0848                  0.00012061332375721394    19.530737053095713     3.0209113834687297e-5     176.98869791994559     2.3946421035246856e-5     -173.92754359279232    0.0023338384958994239     109.32962461199085     
2.1246999999999998      0.00067492415254342855    -165.5066113039131     1.3918996720722755e-5     135                    2.0095530797723568e-5     174.55362591623594     0.0026827315729304321     53.994082627038765     
2.1646000000000001      0.0012195726942963157     108.04841937485025     1.4683627603798573e-5     111.55307354425878     1.6097580708385833e-5     112.01808351134818     0.001299076472900194      5.1324878059122012     
2.2044999999999999      0.0012843194816609313     38.898593142939987     1.1659111221179584e-5     29.349775573752694     2.5162502482943438e-5     60.520258143588592     0.00094967770175711098    11.963620322121237     
2.2444000000000002      0.00087498012688298245    -13.814139938502056    2.0604266437000631e-5     56.309932474020215     1.3929425833634806e-5     24.220758539032008     0.0014194706051188651     -9.7487339516650788    
2.2843                  0.00041605974169132433    -49.271391996944658    9.4462461634312229e-6     -42.282808665319529    1.8413211196137765e-5     43.590027951956039     0.001825430772457527      -49.627854986500971    
2.3241999999999998      0.00032323132716185939    -2.5325780997771772    1.0518837238838127e-5     -5.2017773467753248    3.3067011320071244e-5     -11.634005897316506    0.0021510268645833037     -97.66843824489861     
2.3641000000000001      0.00081699726229361583    -17.202724518857195    9.2765682720672853e-6     -128.08485736266576    1.6943768623931954e-5     -77.014825180825724    0.0016625947408894488     -148.04913133276486    
2.4039999999999999      0.0011665899315647485     -66.058317413519219    1.1683465417742931e-5     -137.22245736152271    1.5512287730212008e-5     -67.10494130112474     0.0006456825980978118     -175.77014970099049    
2.4439000000000002      0.0014228984502643769     -120.58229111236592    9.8033164203112741e-6     -155.05150365503641    3.0047493220542332e-5     -105.9317354632869     0.00064263558264509831    -166.13517823138156    
2.4838                  0.0012670044592005692     -168.69845925892534    2.3819506168365479e-5     180                    1.7848310189979516e-5     -141.50827980127929    0.00096394021300273117    160.62783893944766     
2.5236999999999998      0.0010434554896035621     144.63686008833719     1.8475061850514306e-5     160.95857597096068     4.3057706531563572e-5     151.35947294987696     0.0010561569671602065     101.37406025606961     
2.5636000000000001      0.0010694257648265074     114.86050766779252     1.2136215949046738e-5     42.860492363768813     2.8313563025742044e-5     107.61485885299139     0.00079038178407236535    45.846342946077641     
2.6034999999999999      0.0014394236498195276     84.976229909325014     1.8358667521049465e-5     127.26519504732322     1.0242142177996919e-5     97.145695145987546     0.00038950571629024408    56.503256209152241     
2.6434000000000002      0.0017999741212751269     44.735369417097139     2.7510376737321599e-5     161.13323093627139     2.1106086458681059e-5     74.290753722382192     0.00096389809723725626    50.426407214984458     
2.6833                  0.0012820815982131368     13.27211137490762      1.7189769907486754e-5     168.27121770765834     1.6660099648318713e-5     97.684384896783186     0.0011665043076807243     16.086698370969312     
2.7231999999999998      0.0011650013122535318     83.42693161082822      4.8433966656283165e-5     -64.779173703856458    5.3997357474170685e-5     15.345950947176783     0.0012974247970094332     63.472323659348206     
2.7631000000000001      0.0014137039528057537     73.050456658860313     4.6434018368745499e-5     -144.45590993697357    4.5005636507296509e-5     -55.631191560201955    0.0011233578108616029     25.587137362075556     
2.8029999999999999      0.0023118426515376135     40.555289536784585     4.6112399321189662e-5     172.48916705011041     4.129220391678739e-5      -102.44134357633151    0.0010508340315032922     28.950397714492471     
2.8429000000000002      0.0035322752745620745     5.2554170408035867     5.329458630384084e-5      118.85465901711588     4.9933865088253282e-5     -176.71536816231333    0.0023030475132568401     9.0025472366442365     
2.8828                  0.0043645508523003432     -31.479157958689644    1.6275119268898623e-5     84.404243601115738     5.9656532713578889e-5     152.06515601995389     0.0033672613112416929     -29.38107480496312     
2.9226999999999999      0.0044124137540108698     -66.343965210265026    1.3033195244405731e-5     55.928390192605818     5.7413298586491348e-5     78.198652081393647     0.0036990867365207392     -64.044267088928748    
2.9626000000000001      0.0043220088510578002     -43.124566828524081    1.3694331308367674e-5     45.94786216124438      5.0735900800844562e-5     52.63199316776349      0.0037507158285419425     -44.475187871006725    
3.0024999999999999      0.0045257960962663546     -64.835464366012687    2.683932442772385e-5      27.475560540420247     4.5115947889740214e-5     -20.604772700704931    0.0037778123479227255     -66.874112860609458    
3.0424000000000002      0.0053004286628466875     -87.967676374250189    2.3814210703561145e-5     -90.770829122504168    3.7486080472019781e-5     -63.867842030816242    0.0043908521160120643     -86.708493664149714    
3.0823                  0.0058225269364595277     -117.42445948357498    2.8434095180503442e-5     60.573549456497553     7.5210970348791695e-5     -130.55265960939175    0.0050896605608589949     -114.05142209183917    
3.1221999999999999      0.0065730460944607855     -161.01102486310864    3.9625760033407996e-5     -33.55860059469579     9.9007756176411563e-5     142.68772263652312     0.0060659730054702992     -155.58412366099543    
3.1621000000000001      0.0064325288828865814     165.68526976626035     4.5364223619780104e-5     -133.86208733859317    6.6480318255539625e-5     83.416583284440776     0.0066403863066869526     167.00437614728855     
3.202                   0.0055184573878603073     146.38032551377643     7.3047851788633029e-5     -178.50962877245559    3.1206906028246662e-5     12.3240536198144       0.0053519284015071441     141.2908623535414      
3.2418999999999998      0.0060700773113054199     110.93871944652751     5.7511383451507971e-5     152.72787532524316     5.8995638350440365e-5     -5.2533886417391154    0.005511972880845253      107.90473662315615     
3.2818000000000001      0.0069536968426575189     83.532104940105526     4.1811384443047217e-5     99.176978660635541     6.6112692396437094e-5     -50.652441457621819    0.0065006034666230282     84.323698817075979     
3.3216999999999999      0.0068527965906544086     46.990241596848406     5.421097430522558e-5      48.56591443460912      8.1870771590900765e-5     -94.67184312163765     0.0067059691516548727     45.989926125601485     
3.3616000000000001      0.0076437293890180696     3.6796714564717132     4.5787304676779019e-5     -3.1808644423963788    0.00011601210119609903    -147.74498735254616    0.0075403655974009502     1.7494605126526603     
3.4015                  0.0078344381339132529     -25.259593186722327    3.794370033691981e-5      -24.204661212211754    0.00011319827164903819    159.98950728839441     0.0075664287551704809     -28.091008809237195    
3.4413999999999998      0.0075434779966148278     -49.99772413490529     4.5685473603625746e-5     -30.487811713201658    0.00010719637530723656    113.7518273235452      0.0072913458128695393     -53.392581428485371    
3.4813000000000001      0.0077205251482699525     -79.027895466404374    6.4008709326110613e-5     -43.59453996696346     0.00012182176832876679    68.91569391789082      0.0074662476744318858     -82.252336646314376    
