! PocketVna 1.81  pocketvna.com
! Live measurements ((Reflection-S11, Transmission-S21, Transmission-S12, Reflection-S22) Linear 10000000-4000000000/101 non-calibrated)
# GHz S MA R 50
! GHz                   |S11|                     <S11                   |S21|                     <S21                   |S12|                     <S12                   |S22|                     <S22                   
0.01                    0.00075096444645596119    117.44239596871917     1.6876209769870198e-5     -101.94988815813578    1.2013831917289776e-5     -77.79108333664476     0.00070935200492953541    113.86869527734436     
0.0499                  0.0035458823406409007     -20.270260122445091    1.8935830511225778e-5     -34.759314511708205    1.3655995582852357e-5     -54.436884874973003    0.00256646151836627       -25.07819959642908     
0.089800000000000005    0.002764989174936376      -133.67848609167467    1.9074989481737418e-5     -2.8657579478551947    2.178101768333265e-5      -30.688136581366024    0.0025139609346729003     -118.21248751245167    
0.12970000000000001     0.00066287478928844974    -154.03630906664142    1.840763608713297e-5      45                     1.336316204914052e-5      -4.0924447508069077    0.0012618614883874034     -164.41102346528314    
0.1696                  0.0018365326793146786     -129.62655770527553    1.4910704194473563e-5     63.43494882292201      1.7054626360766113e-5     61.049936817673839     0.0025269567794700986     -155.13845675308781    
0.20949999999999999     0.0038405712886703763     -177.27063314490613    1.8883471168276973e-5     109.64317937277339     1.6119835194328095e-5     122.14012390411889     0.0039599846436212272     114.05150830587573     
0.24940000000000001     0.0051685916229737899     84.451191731321387     1.6617250234326736e-5     153.90598833275888     1.7210475096689962e-5     127.52473473902751     0.0026607301416020626     40.237187387659731     
0.2893                  0.0027145893319672422     11.859395910879996     6.3974417996400541e-6     153.43494882292202     7.0281884002180053e-6     -108.41574138833711    0.0014111665891255395     3.92203169015065       
0.32919999999999999     0.00082524422904655206    -23.250687389526988    9.5507318470740856e-6     -158.53889173590181    1.1468292721453821e-5     138.39737286950148     0.001055824792396146      0.75811456123752397    
0.36909999999999998     0.00043637274255260055    70.311759916631843     7.4720408900588168e-6     -167.73765354512091    1.5878781477380843e-5     -101.55773636160094    0.0012180768288070974     -9.7398557959928223    
0.40899999999999997     0.0014479153243789071     46.03075743359647      7.1395225016239789e-6     122.29693001231226     4.4515582402720983e-6     4.0309582899846861     0.0014432800569341073     -46.185517507002075    
0.44890000000000002     0.0022711462355803212     -3.3020461061006334    1.7880966571342179e-5     163.49055191484067     5.7219149297016089e-6     -56.309932474020215    0.0016532401092286412     -95.002242635243448    
0.48880000000000001     0.0023943311835193655     -73.54530123206726     1.4758819730225356e-5     161.18088982987828     2.5912070686717325e-5     107.10636264354731     0.0012896155222236333     -149.93141717813756    
0.52869999999999995     0.0015872386717896807     -130.52174351960633    1.6510486602783203e-5     90                     1.0149763813866347e-5     69.862380304906708     0.00047422627130887127    -161.33504491123958    
0.56859999999999999     0.00065969992644723818    -147.99989834970836    1.6663376330335373e-5     -107.75443140752533    2.6354650929892173e-5     179.30347832831163     0.0013071383705626658     -149.90966939217967    
0.60850000000000004     0.0010722751018973878     -120.22451347341347    3.2533511948154396e-5     -151.4335229755801     1.5182442434775458e-5     -164.2245405268651     0.0024247599255094029     144.80936243566742     
0.64839999999999998     0.0022649919049976801     -149.17807529555759    3.2037067722344658e-5     -107.89137790223353    5.0813014294016054e-6     -90.084011346703576    0.0024669239344509977     64.081382068669711     
0.68830000000000002     0.0037620862518689202     147.58140750483926     2.4250243534229824e-5     -45.012447486120294    3.0540766886880607e-5     -81.031733352083293    0.0014639664216669211     10.535143585291195     
0.72819999999999996     0.0044570621225629332     57.220157381272969     1.4944081780117634e-5     -77.737653545120892    1.0167408543573047e-5     -141.36642007070319    0.00091642751394277575    -9.0902953194578053    
0.7681                  0.0017245663561009259     -24.61159166571499     1.5175896295239457e-5     -37.359352826677693    1.0852345467308325e-5     69.462370458211666     0.0011709584655322893     -38.504887928385997    
0.80800000000000005     0.00020969546967041636    -31.188595314623566    1.5914447131226828e-6     -36.816249927895427    6.0244981910344323e-6     -18.457356244350258    0.0017627135296791922     -99.465825794345491    
0.84789999999999999     0.0010749204024916976     29.207661978074157     6.0434680806185162e-6     -3.0387753502980064    1.0743698469408229e-5     34.174959642116676     0.0016692151018865035     -163.28498063160268    
0.88780000000000003     0.0018969472870136736     -11.02963792125872     1.1042949356552058e-5     18.447173226302361     7.9919728607551173e-6     173.14661979354875     0.00084054770796621286    140.74904231027        
0.92769999999999997     0.0023919317280450799     -67.62252479214294     1.558601627149612e-5      176.49200502426615     2.0338474767125201e-5     55.809291178095286     0.00033030493589407438    150.00953411839501     
0.96760000000000002     0.0021408341402949643     -125.58994875170951    2.0094825001576333e-5     148.55532872257632     7.4118898545278743e-6     -9.8978791552732268    0.00076569930074293696    155.99664090980679     
1.0075000000000001      0.0010256373261486008     -158.38323520852109    1.7535349415486651e-5     54.581181206719606     5.8597430939886962e-6     139.38290180291719     0.0012432547367285964     104.43364733005286     
1.0474000000000001      0.00065370039222933224    -121.57503108333893    8.7212220521285055e-6     79.515653319224285     8.8328479104898382e-6     -52.298806373002364    0.0014766064678278709     59.089244739826206     
1.0872999999999999      0.0013344555390669714     -114.74185024627769    1.5217662677632825e-5     113.36434447605961     8.2552433013916016e-6     90                     0.0012056585470000185     30.373827947564063     
1.1272                  0.0021292036533803829     -84.240011570847457    1.5318861173341572e-5     95.946285621073415     9.888312776076529e-6      42.404368459074362     0.0010469472934416738     69.976692789532649     
1.1671                  0.0031755775270627049     -134.83802603978907    4.0957094580474157e-5     90.448184149296964     2.3110975637495632e-5     12.701107247050025     0.0013890010572749694     47.844336096461419     
1.2070000000000001      0.0024933912008564506     148.79970403046281     3.1459935190022595e-5     47.457044445323866     1.5817707192558763e-5     10.420712396794508     0.0016700818821744395     10.184064831982058     
1.2468999999999999      0.00070148554646002649    65.789985237828006     2.3301063971031461e-5     -37.804283863699538    1.0397297903134846e-5     -148.747548976102      0.0015602940638216548     -33.748344354902798    
1.2867999999999999      0.00064147361309826339    -130.94552916969724    1.8689317709493686e-5     -80.222250025771103    1.305268573562266e-5      -18.43494882292201     0.0014659944750388431     -77.237152140318514    
1.3267                  0.0013438200696643545     167.3756808073139      1.9025089285201104e-5     -104.51514840503371    1.8339576519340539e-5     -66.538558613091197    0.0013612729635499022     -114.60434583572467    
1.3666                  0.00187081544543096       97.98020878036391      2.2018877200312224e-5     -132.66884403619656    4.2333840320530671e-5     -158.42891089145363    0.0012473688468346191     -142.36280014976518    
1.4065000000000001      0.0020523065673996969     31.196447554802798     1.3039003516348903e-5     177.21607089592709     1.4153832485645538e-5     70.344147126412921     0.0015076260660083732     -168.44628741606135    
1.4463999999999999      0.0010747867091925401     -52.960743350283103    1.2556350547024005e-5     69.252956292371209     1.4540611197901262e-5     -31.613272213954787    0.0018166788547222387     133.57654960521123     
1.4863                  0.00016712168613099699    -69.187144072078496    5.4032892647504759e-6     86.67993267016638      1.7776943224305573e-5     161.22333089782262     0.0019787204768041433     80.989464224232179     
1.5262                  0.00060681130685941598    -10.1866784445071      2.1012063941811726e-5     153.0533460386533      1.1476682910032006e-5     104.39710016410694     0.0019289805805084268     53.824077422915714     
1.5661                  0.0010455346812480795     -52.775373192180311    1.939997993724572e-5      158.88507723697006     1.3036338164454677e-5     46.968550257863846     0.0019572006117815994     36.124678870479123     
1.6060000000000001      0.0014805713189087659     -97.318562862608161    2.9622538700207796e-5     109.40566184107462     1.7669329532616021e-5     107.8008168689381      0.0021083354848846379     17.665559769603941     
1.6458999999999999      0.001636716803959725      -152.95286258303832    3.2454976234653112e-5     73.516190308515846     1.2892142012880942e-5     51.971097295262588     0.0022370742156917218     -7.519412168470887     
1.6858                  0.0010631173443224702     109.81483489315507     2.6080656012701268e-5     3.4885279494825592     3.8691762456370173e-6     55.116443050038178     0.0021003217436020376     -38.623431860563883    
1.7257                  0.00071217851017809839    -2.4019393901778825    2.6991963551062102e-5     -64.94871071389089     1.9437913661687411e-5     141.61457829606715     0.0016752808271881822     -63.308684620137463    
1.7656000000000001      0.00089693679349059287    -85.207900633766599    2.2438265554231864e-5     -154.89001001317698    1.8894174408761981e-5     24.857196766956935     0.0015205367716197762     -72.136360840654476    
1.8055000000000001      0.0010432913754100778     -140.16079500470121    4.8468703993004206e-6     31.613272213954787     1.4882351507299021e-5     -123.69006752597979    0.0018098329395019441     -82.560741472660681    
1.8453999999999999      0.00089579630619131972    159.93338914484735     1.9258899123416014e-5     -76.646520871426702    2.4232719890673866e-6     -66.824540603186819    0.0022720711218704669     -104.52757090515692    
1.8853                  0.00072092511770589112    74.886297443370708     1.5871020358064485e-5     -109.89808096196678    2.5765931502096426e-5     -22.456734846814172    0.0023874865494902596     -132.40738691394034    
1.9252                  0.00051225359535508332    -31.335347088363807    1.6976675570037234e-5     -97.514883627280881    1.5239805193850989e-5     -91.20457482663943     0.0019943728644002548     -156.26714296541613    
1.9651000000000001      0.00068208553278991388    -127.07217448826994    7.9675277116677209e-6     -94.55896710451367     3.4175385197156396e-5     -48.004431424846402    0.0018164838230467569     -171.42504215881044    
2.0049999999999999      0.00065381276069844784    178.08005863041808     1.8635552388331105e-5     -135.6965216716884     1.6488473214208506e-5     -105.65022442624731    0.0020597810285489819     168.41286888892526     
2.0449000000000002      0.00046459021514425665    114.63870442669749     2.4839106029839731e-5     -141.22209502372689    2.3388273239487203e-5     -138.30583023154969    0.0024160161816627994     128.4633909179602      
2.0848                  0.00012414305578547485    25.122424220786435     2.285928100597281e-5      -152.72505202320545    2.5035043977103822e-5     -167.53962390045368    0.0020656768945768998     80.417544861774914     
2.1246999999999998      0.00068274327012501023    -165.20717282237354    1.7351640820331749e-5     124.55667175497811     1.6313894785228436e-5     127.07400122175201     0.001393276502885439      60.601822887634697     
2.1646000000000001      0.0012250344303577358     107.48193289016737     1.5319895708374289e-5     76.815323906811031     1.8188361259790057e-5     106.2226521791893      0.001458652160807424      44.083006404222679     
2.2044999999999999      0.0012941365130673791     38.855208189135226     1.4514306613764902e-5     -10.081241485593836    1.2641378384206038e-5     25.296382868644766     0.0016883758348100921     10.817639021157342     
2.2444000000000002      0.00086600872057279363    -14.632113968919262    1.7559026896328527e-5     40.577562042550184     1.0401165287825513e-5     -31.287537588844934    0.0016895967994083286     -33.370457554981492    
2.2843                  0.000427822527480495      -48.941545427487348    1.5128109893892654e-5     50.956785976043129     1.7718539625416439e-5     53.756524099771674     0.0014671564910808785     -73.698618342414747    
2.3241999999999998      0.00032914974748684449    -4.0940254537541279    1.3662057133645941e-5     -72.414840022477478    1.4347173919660562e-5     -24.874890111397345    0.0012674158644104408     -94.569382000637233    
2.3641000000000001      0.0008101928678351882     -16.858368207030928    2.7352454346319511e-5     -86.67386394520021     3.7042504210035257e-5     -44.64959638697286     0.0013565536634138336     -114.45965901090223    
2.4039999999999999      0.0011687322392060974     -65.558463525757219    2.8151331345917482e-5     -156.04674905175938    2.8978533026143408e-5     -85.605813952418444    0.0014238610356324996     -151.23444280644634    
2.4439000000000002      0.0014087196239025252     -120.77333985113137    1.4498739867725129e-5     -118.81724335566062    1.6014438495725573e-5     -140.64494937156525    0.00104823878127857       153.13243921380649     
2.4838                  0.0012575364538976951     -168.64166812856283    1.9843095090122292e-5     -129.80557109226521    3.5621451018057913e-5     -143.33383047521377    0.00048486838400742959    126.34480903707563     
2.5236999999999998      0.0010419516629901085     145.0263728030603      1.7787288672266627e-5     -178.99196713574966    3.7162734969003119e-5     178.04683866139172     0.00066044500085244296    126.59402910291918     
2.5636000000000001      0.0010562242948950081     115.47851459493751     1.0550466730325202e-5     74.265801088175991     1.8773535315378777e-5     108.75133796376393     0.00085543015991242576    79.975282388728488     
2.6034999999999999      0.0014471876544856941     85.217593995923963     3.593018835553716e-6      -135                   2.3213744684320359e-5     93.146168126480219     0.00090318895453674161    46.723779786880222     
2.6434000000000002      0.0017964088190383567     44.563280023459626     1.4488620942962658e-5     -151.19436955072626    1.1076497802149962e-5     117.30620072637331     0.00087559174247315826    28.126374557352364     
2.6833                  0.0012861726816685609     13.243788742635212     2.4064130841325047e-5     120.94854499430289     8.5915403491448684e-6     -175.77278133467328    0.00087190772965709115    12.300510105378406     
2.7231999999999998      0.0011554378048552079     83.277428619417421     3.6024361562476396e-5     -55.047782013948222    3.2582780047807659e-5     -15.259715051330222    0.0010810604634418307     72.267844689916885     
2.7631000000000001      0.0014148987437695476     72.67529478083604      4.5156038394596536e-5     -133.00755787086297    2.4014275371916714e-5     -65.804676005531974    0.001148662371053406      47.005218175664709     
2.8029999999999999      0.0023167270132855447     40.648182080561895     2.6583364607472441e-5     -172.44674227422141    1.5762909017370202e-5     -117.5945685371762     0.0017641331860121416     20.150502821435872     
2.8429000000000002      0.003515950573301614      5.0721500472702532     3.715710317417228e-5      160.02081966174131     5.1803533273269332e-5     -130.5262148090475     0.0021225347323931363     -11.441041522043268    
2.8828                  0.0043477362800595082     -31.629693952834877    7.6017553450860283e-5     103.28167835926354     9.0560858588446894e-5     156.22082090237731     0.0025282950059348154     -28.087345186479542    
2.9226999999999999      0.0043922706142570699     -66.355446214650129    8.0812443128849896e-5     3.6050017034251343     8.3265530414847796e-5     61.281520910690055     0.0034879408106393492     -53.689234754183161    
2.9626000000000001      0.0042948576604104043     -43.115730253930373    4.601777326075531e-5      -39.395796497476439    5.8170215602439589e-5     36.116937590391878     0.0041136801689189463     -37.533267714405355    
3.0024999999999999      0.0045299345352126678     -64.77133000737885     3.277802385237574e-5      -144.46383616705586    6.5939604028128967e-5     -28.780445653836466    0.0043376897724225821     -66.803528745723739    
3.0424000000000002      0.0052848501586157028     -88.071926972355456    3.7732060285861376e-5     133.63988088871207     5.1577184339743188e-5     -99.923595858885733    0.0046266591059702725     -92.725942344618502    
3.0823                  0.0058175527691240996     -117.42516153662295    5.7879131760919245e-5     35.173287549005437     5.6081621347350945e-5     -141.8953591211704     0.0047645798263872925     -119.66582336268817    
3.1221999999999999      0.0065799370400396202     -161.04923293150296    9.5283409121400443e-5     -34.274089468558543    6.4989882218734925e-5     122.83744420861272     0.0054986599229193567     -155.52763345437575    
3.1621000000000001      0.0064218484022505618     165.64633815861578     0.00010936624093003944    -125.90340022091827    5.3233498969632366e-6     72.655542998201483     0.0063814124925431715     171.08085382722282     
3.202                   0.0055210184256835118     146.45339829515174     0.00011523942371270811    156.96581446729698     4.5195050559369967e-5     94.027069316001771     0.005717251537017542      144.28585296746681     
3.2418999999999998      0.0060849145225660758     110.84367827790047     6.217209558111438e-5      69.992842052169564     7.17046601709656e-5       26.56505117707799      0.0059379974711563071     105.9782597288366      
3.2818000000000001      0.0069494924261556349     83.512348739075847     4.4322404342437726e-5     -84.656461314345364    0.00014003062239380585    -55.623363020892924    0.0063777771299961972     80.327141680487898     
3.3216999999999999      0.0068700073065436447     47.022667796252243     8.7800748952930835e-5     136.02800214483466     8.5223574853532757e-5     -142.87363953424952    0.0062140762623182962     45.608619340909513     
3.3616000000000001      0.0076230302549577522     3.7518554867003537     0.00010618653332082121    31.553248137739928     7.1546660809788937e-5     -168.74038342275762    0.007252642760896935      5.2523219508719245     
3.4015                  0.0078256761526357774     -25.199883903230475    9.5663874504388035e-5     -43.92395683211506     8.4292251504198746e-5     176.54908059745307     0.0079261423225348918     -25.866995614820464    
3.4413999999999998      0.0075430179947655511     -49.878252165979916    3.8756515199443708e-5     -91.883832955542928    0.00012015879732754111    131.14348063700766     0.0076804497752360704     -54.102704818603449    
3.4813000000000001      0.0077218112892317795     -79.140153498412175    2.6825286464514312e-5     -83.893538168662175    0.00014629142677936071    71.525372026714876     0.0075979321691012026     -85.39064506840046     
