! PocketVna 1.81  pocketvna.com
! Live measurements ((Reflection-S11, Transmission-S21, Transmission-S12, Reflection-S22) Linear 10000000-4000000000/101 non-calibrated)
# GHz S MA R 50
! GHz                   |S11|                     <S11                   |S21|                     <S21                    |S12|                     <S12                   |S22|                     <S22                    
0.01                    0.00059450420236110296    124.66636118259392     0.00047170751682463731    -91.658158520577601    0.00045405102476925053    -96.061317193535857     0.00059545160540527256    125.27499105285554      
0.0499                  0.0026332883399513801     -4.8278854370058015    0.0029364518193128954     126.31487610873879     0.0027063802131130376     119.46720221522895      0.0025524360652514418     -11.335024322253796     
0.089800000000000005    0.0026390503460309148     -91.902944383677465    0.004681462410490239      -10.963122016587761    0.0042512130193960822     -21.269841730446561     0.0025868660754819633     -103.44264530611149     
0.12970000000000001     0.0027350644012945238     -144.77858918035062    0.0050862955958782298     -129.82345241183711    0.0046947883540678212     -142.12877252515025     0.0026105429655841972     -157.68361213837994     
0.1696                  0.0017733935833816276     172.54150527240142     0.004293569211918309      127.3190234920388      0.004069553339180171      107.25594808407759      0.0017792224009469044     151.66014664997883      
0.20949999999999999     0.002151842991430009      162.94200424729988     0.0050342715722267043     42.101079819737741     0.0046225727289832576     21.061870465235184      0.002080229592359953      132.87849543562962      
0.24940000000000001     0.0029397289507168763     85.912272636642101     0.0052780231755507169     -74.443825389103267    0.0052037146356749189     -102.44193701938747     0.0030537794185612772     57.40542599095086       
0.2893                  0.001531579411411182      39.220082310892053     0.0041004448407757259     -169.62372382499001    0.0035925447869729764     157.21965609864151      0.0015829381435620397     5.4327510834130832      
0.32919999999999999     0.001330596905735177      50.315155024151437     0.0033677903889986682     116.88873508770644     0.0032967947120805829     79.282117943075193      0.0012743518031031404     8.2513320510937813      
0.36909999999999998     0.0017124946030138534     23.794352263999599     0.0039083036981402784     41.182503563971117     0.0034811903935508428     1.3118522207297434      0.00162467810013009       -24.611721397042871     
0.40899999999999997     0.0011756593738712505     -12.778740489656215    0.0033927227828530141     -49.988508587496732    0.0032353772644625389     -97.125752799561667     0.001206964509199993      -73.619980430109919     
0.44890000000000002     0.0010853879828602545     -23.828031364227417    0.0034429766520835672     -135.14571194711715    0.0029878830477816174     177.60647243916515      0.0010002666250524227     -89.217700721051145     
0.48880000000000001     0.0011453741380195526     -59.090638037379044    0.0031942509487943764     136.01885094717775     0.0030252889146450039     78.969595523539553      0.0011507686266246577     -122.55022969255367     
0.52869999999999995     0.0011737175692864293     -75.572977028787207    0.0033904457204215767     48.367307611867723     0.0029350736476178923     -8.3037443451261339     0.0010481717068577805     -144.39395753307582     
0.56859999999999999     0.0019905588785421196     -114.84411538160956    0.0036219039396164685     -46.104592079158927    0.0035635798830471223     -113.01483930666339     0.0015947507855940102     -179.109919999976       
0.60850000000000004     0.0019739839444824804     -167.01428200874733    0.0043359165302283426     -145.61055049388045    0.0033295883268121221     145.19142164525738      0.0016744962820704385     113.53678571410882      
0.64839999999999998     0.001378743455162414      173.22864519464434     0.0033675058500506395     125.17653283288807     0.0031716416614678161     52.643724346859436      0.0012087188101896759     77.391207273870833      
0.68830000000000002     0.0020657127701824663     141.90405742469511     0.0043165481785054334     36.812637191074998     0.0033669658016922737     -41.467453542288361     0.0017244641665929621     52.729319655279447      
0.72819999999999996     0.0026080754925128942     73.978858780945316     0.0049778116106464262     -72.236588191724266    0.0041284614171073538     -148.28657232213271     0.0021627582064714557     -11.148203765224329     
0.7681                  0.0014347329762150873     26.553607775963695     0.0039232265269992638     179.86094050603242     0.0031912599808419794     94.834204711010003      0.0012524604109322383     -85.60911084154553      
0.80800000000000005     0.0014610899297643927     10.403993185903385     0.0035723782215629244     82.867365286409878     0.0029456655846207087     3.2872919715721234      0.0010346152922632759     -107.00568636548785     
0.84789999999999999     0.0013777875362760725     -30.755727590317502    0.0034237280139825942     -2.4556706656724541    0.0028450605462199815     -95.706785980994525     0.00124845426802114       -149.10373916339859     
0.88780000000000003     0.0010636902754508622     -49.357961324976323    0.0031357867983626223     -91.166203336987991    0.0026936507380827786     -176.76340749415547     0.00084969074737821873    172.98148068075096      
0.92769999999999997     0.0012211632923567579     -69.736658609070744    0.0031445603850971866     -167.08203298697237    0.0025740050723533103     91.73898983459172       0.00080334534285877275    156.37326942696882      
0.96760000000000002     0.0011370000252484312     -98.883406493480223    0.0028668379570341803     102.38155863472745     0.002558629126260965      8.8661221542144055      0.00083275297718998374    110.90895434768088      
1.0075000000000001      0.0013149347608629063     -103.78790320801058    0.0031303886678532467     30.245030937769886     0.0024469071320101349     -78.927687029276711     0.00066997386380844288    92.525920329943631      
1.0474000000000001      0.0020308243019836027     -129.58872585860786    0.0032306188504073333     -47.262288089214628    0.0030091834396495385     -151.51495166087318     0.0012002432945519437     83.940953000032906      
1.0872999999999999      0.0015974293550826237     -162.60597733158733    0.0035643423797174925     -129.70884128808629    0.002858294786712328      120.49325973765018      0.0016158394894874252     37.912497336799412      
1.1272                  0.0012758901511547693     -106.03547370282729    0.0031423036956034975     -143.44729016989695    0.0026245103259959763     98.018308994913724      0.0011137533768272216     61.10380163584248       
1.1671                  0.0018569579211196582     -132.49848597684351    0.0030719782995147112     137.14867781015687     0.0030000244339817564     22.377000433903547      0.0013226071452760173     51.501292398397077      
1.2070000000000001      0.0015222938725408879     178.61345138111443     0.0037559747743323426     46.997190618950107     0.0032624928508699536     -77.230943815111189     0.0018601048955483753     6.8920826179634203      
1.2468999999999999      0.00081008686778977852    170.72982879305158     0.0029716090758278779     -39.080493693827371    0.0029721287136743771     -167.03563432924071     0.0013797937024177878     -42.556497022910243     
1.2867999999999999      0.00097111509737771628    153.4099821440031      0.0030440605764210571     -126.15397433010666    0.0026346759077167875     97.903734547715445      0.0012622628711090953     -66.581950813837622     
1.3267                  0.00077848708019632009    112.26554137890869     0.0027159431861301124     144.58381006385298     0.0027075290147628977     5.9707549420648176      0.0015557440578332353     -107.65459310143743     
1.3666                  0.0008587307869695126     94.283142706586148     0.0029040931236668662     47.237484578618705     0.0025623643635757573     -99.255783772460362     0.0014382928458292524     -146.79042710246222     
1.4065000000000001      0.0011568189776168217     52.617455951571259     0.002686228217563123      -45.517251452496275    0.0025411809861928402     167.28162263338612      0.0014953282731027787     -174.78564369053714     
1.4463999999999999      0.00096590393543128153    7.0617565171265353     0.0029809014743359652     -151.442194601458      0.0026643484141762176     52.140010244454935      0.0016646361129463202     126.50718008197029      
1.4863                  0.0010568683008762543     -22.373785671210815    0.0026552600459447588     111.69957646297753     0.0023376062840909104     -44.323085985951892     0.0016229099786234413     86.736302408017735      
1.5262                  0.0011879409042704248     -76.112443520950507    0.0032033119261723722     30.675444247156772     0.0028002670016134502     -135.46848195798339     0.0021248380144891794     65.633227172200364      
1.5661                  0.00063175253640760786    -116.86210573232354    0.0029207944827065501     -64.866857149420696    0.0023829748689302437     130.09792181267395      0.0023947945603720712     30.314818939730678      
1.6060000000000001      0.00060137678579598322    -94.936718468237018    0.0028043105971734049     -138.43317049244811    0.0023488085478490903     51.322082770110825      0.0018790803582963999     8.953151178474533       
1.6458999999999999      0.00077885662309738746    -135.18215404668089    0.0027214709608350618     148.98806364234991     0.0021773929935696074     -22.68724724954372      0.0020556271713297594     -3.506784660928969      
1.6858                  0.0002278021762620355     165.30517678825183     0.0030401528735998235     61.218574698430743     0.0023812621504043533     -111.84828102871903     0.0021017099717412246     -37.690587714393509     
1.7257                  0.00030026287844680795    -95.036494664693222    0.0022369852772403977     -14.785824354618857    0.0018651946185101235     167.18449385301921      0.0016297317216488992     -57.709494237253161     
1.7656000000000001      0.00041435813083467657    -133.60335185359281    0.0023089869372836351     -89.795151891047496    0.001866784519543229      88.060237370593299      0.0017581739475215734     -68.726928161697032     
1.8055000000000001      0.000304791382873594      -140.62140992032027    0.002306891695806986      -162.39058569441784    0.0018816927352616837     13.018660611600181      0.0019733875394269402     -92.73902866847051      
1.8453999999999999      0.0003867722391189381     -161.92175778618702    0.0021506621782187976     115.27479064546348     0.001807129300756528      -72.431087076427914     0.001911682350134291      -109.51238551532241     
1.8853                  0.00024105079520147995    157.62275474337596     0.0023755137563080571     41.016604126213167     0.0019759170769390053     -148.14871588521802     0.0021202288467836983     -125.79906905207962     
1.9252                  0.00017095613199091908    -175.84375381137204    0.0021680432046329596     -40.837009862900658    0.0018420712549998784     124.76376157944084      0.0021474263419777313     -149.47648036530586     
1.9651000000000001      0.00017246188011836019    133.95678243389509     0.002499884184854835      -122.55782829506406    0.0021832835222559367     41.675123524791651      0.0021030553167203942     -170.41407379742128     
2.0049999999999999      0.00022342149469315755    -80.015927658033021    0.0024131767289680391     150.90216628607723     0.0022545047599113544     -49.249129004284555     0.0023004295918849838     157.17940683187558      
2.0449000000000002      0.00057146308804099282    -162.34036298165583    0.0022367402416312728     57.692779408907022     0.0023212272677908077     -147.5186662716682      0.0018709591158184132     116.68259944486371      
2.0848                  0.00048567287140815151    143.0251545216058      0.0018420205058117176     -22.85250615461829     0.00179449838260031       122.03649964464412      0.0016967297997921042     99.913377056801508      
2.1246999999999998      0.00045822969288035297    131.01073740117513     0.0020414755864176801     -115.06638807175464    0.0021001830662006073     32.428695412696044      0.0019839907612561975     66.585982563267947      
2.1646000000000001      0.00079791558827597942    89.840034048949107     0.0018658485361169464     147.51598058544255     0.0019680794400471361     -81.295988745187344     0.0015299978724729437     27.633958821702105      
2.2044999999999999      0.00078252991967792584    40.573839715544672     0.0017655112651799845     50.377981081524148     0.0016150655806356875     -177.31806889408807     0.001414160007998542      8.6648488019227532      
2.2444000000000002      0.00064073268950698805    13.031270840914068     0.0015275894028218219     -38.196795066842817    0.0015930888635534114     85.369943244272832      0.0015561796075110779     -27.7362205346308       
2.2843                  0.00064995776978995113    -7.6076205704639035    0.0016683105821232941     -127.14896115776757    0.0016635701004175645     -3.6000244703880213     0.0014953827407437287     -67.148288908516079     
2.3241999999999998      0.00063051120368511971    -25.919801837031034    0.0015712308523310602     146.57306639472878     0.0016721583521251086     -98.242384579627426     0.0014634753301023967     -93.407826852959047     
2.3641000000000001      0.00075171170815384997    -44.555071154905932    0.0016504997962146165     60.382189511959751     0.001655957252410824      173.4160361779914       0.0014303253647723389     -123.41839455191659     
2.4039999999999999      0.00086955462123409393    -80.117832531993713    0.0015999372577374131     -28.910048194537911    0.001643778365535643      73.007134611446517      0.0011569148410731115     -155.32670721685727     
2.4439000000000002      0.00098022000962617243    -113.78353669741868    0.0016988729339827929     -125.49900335406984    0.0016754305865594248     -26.798300477537005     0.0010007864368578585     166.58997547143682      
2.4838                  0.0013052241673459867     -149.47369639234657    0.0018001705331923727     127.8139822837491      0.0018164974957748943     -142.30684991339217     0.00063358971731437266    121.41174351675096      
2.5236999999999998      0.0013932597398912407     152.04484413447221     0.0017270012797760616     12.702515490144586     0.0014654584917598362     99.125610697261166      0.00067096078836201625    122.71190750571661      
2.5636000000000001      0.001288488690823279      102.68343799148414     0.001469308203502483      -91.473470103443063    0.0013060455783840623     -3.1773462244649502     0.00083042719951406674    74.975766158842688      
2.6034999999999999      0.0013512944007558203     71.846368948093854     0.0014581710826195955     178.12837742896517     0.0012541292582133061     -100.47332913392826     0.0007676275842538828     46.961030051241217      
2.6434000000000002      0.0014037360945525807     44.486485842883972     0.0013866621715178278     88.163039848332517     0.0011923457362774605     168.82192958221009      0.00094573551648485733    34.592352753444246      
2.6833                  0.0011492273191428023     25.198751175627379     0.0010844135261861723     6.4051391186700437     0.00092694502835511956    89.09686151664927       0.00095673310889042324    9.9373651826576079      
2.7231999999999998      0.0013455036263892621     94.425545134551612     0.0012877165030262406     14.858705996999946     0.0011026885711329759     91.2873245928171        0.00099646678602736028    69.521020722256424      
2.7631000000000001      0.0017028179237662995     66.097379206821145     0.0018555667556042672     -68.012841094820175    0.0016636292558592899     -6.3884491519247879     0.0012203558617468809     51.072665736337022      
2.8029999999999999      0.0023894466023898129     31.303147794079333     0.0023178839214100595     -168.05432590190628    0.0019420551509560769     -100.70368408558301     0.0016596967026552625     17.398506104847051      
2.8429000000000002      0.0032561212578657659     0.13411835256904719    0.0027209735263579553     105.67261294550823     0.0025246861908892367     158.8341368460049       0.0021229195295879759     -5.1571443251991438     
2.8828                  0.0037699420826844627     -31.2186580638527      0.0032233193396733659     4.3102541919688635     0.0024815481889154398     60.975304092538508      0.0027857633523743265     -31.284114137391985     
2.9226999999999999      0.0041621698092522775     -58.40877827907849     0.0032959022308065296     -81.908931093313527    0.0029717724845987202     -33.53030664327067      0.0032643142643670668     -57.51262949055716      
2.9626000000000001      0.0048296879433100733     -37.09364378913601     0.0036291112072866206     -126.13505240589258    0.0032221142907806113     -77.079860382722117     0.0039168865001186978     -34.487490783447747     
3.0024999999999999      0.0050910315933211407     -67.383701933913784    0.0039201428461396216     139.56281317727311     0.0033092307918090908     179.57120396392821      0.0045118960067279312     -64.841599873402885     
3.0424000000000002      0.0053706066265465152     -93.966487156788105    0.0033772880959485525     53.001882805655924     0.003096755317573481      90.293759019456402      0.0047412633839993635     -93.536177659520845     
3.0823                  0.0053750209314689839     -121.8855365626678     0.0037858544031393179     -34.520346756858167    0.0032404484112897392     -5.0535243222538977     0.0048446201318299567     -120.55680991819123     
3.1221999999999999      0.0058356629844336242     -158.21832787855266    0.0034929324267986722     -126.6844979983095     0.0030953391744822983     -95.89957063087364      0.0054760937906855123     -157.21586644820397     
3.1621000000000001      0.0065731504557269551     171.73759521530465     0.0036028568200199757     141.9868769711106      0.0032372159628679233     163.72656624334289      0.0061753122837418205     170.95370421831731      
3.202                   0.0061351574571987134     146.22845571685897     0.003202901051135141      48.013619668762317     0.0029036886808334991     70.378207460753131      0.0057306180639744107     146.14351237950802      
3.2418999999999998      0.0063441799698736754     106.89864054435726     0.0032774367786771834     -45.887150406849322    0.0029599727282708728     -27.219259251225758     0.0060927500451064482     106.04914407242754      
3.2818000000000001      0.0067411894516733661     79.64013368449362      0.0031287316355913209     -141.6715831023136     0.0026691551216475999     -124.89432979337556     0.0063685756515993877     78.939350248193463      
3.3216999999999999      0.0063130077452581285     45.721399429525732     0.0034125249444836472     126.79959472976279     0.0027849431759116271     138.57750403854365      0.0061149407332720118     44.953697079428878      
3.3616000000000001      0.0070525880877758381     7.3771336086445451     0.003266513126746117      26.385743285558558     0.0026270134523720371     33.503616376988191      0.0071022743078115961     5.374109024197061       
3.4015                  0.0081109424043797843     -20.42556420018693     0.0034287062822755112     -59.090883803701352    0.0028405704215892953     -60.325783709875381     0.0078851266625298965     -23.765710392968085     
3.4413999999999998      0.0083122432388836355     -49.64942908620565     0.0035655897018252655     -157.02644955670985    0.0031014445521542        -162.56297863917482     0.0080922383989891974     -53.639066380308229     
