! PocketVna 1.60  pocketvna.com
! Live measurements ((Reflection-S11, Transmission-S21, Transmission-S12, Reflection-S22) Linear 400000000-2000000000/800 non-calibrated)
# Hz S RI R 50
! Hz          ReS11                      ImS11                      ReS21                      ImS21                      ReS12                      ImS12                      ReS22                      ImS22                      
400000000     0.0018652379512786865      0.0015653818845748901      0.00025095045566558838     -0.0032988041639328003     -0.0019818171858787537     -0.0025888457894325256     0.0023957192897796631      8.9265406131744385e-05     
402002503     0.001955769956111908       0.0015313923358917236      7.5601041316986084e-05     -0.0033464431762695313     -0.0021793916821479797     -0.0024970471858978271     0.0024500340223312378      9.2089176177978516e-06     
404005006     0.0020459815859794617      0.0014897733926773071      -0.00012420117855072021    -0.0033991709351539612     -0.0023372694849967957     -0.0023890435695648193     0.0024722740054130554      -0.00010768324136734009    
406007509     0.0021387338638305664      0.0014186203479766846      -0.00031542778015136719    -0.003441736102104187      -0.0025097578763961792     -0.0022708848118782043     0.0024989619851112366      -0.00022552907466888428    
408010012     0.0022203773260116577      0.0013595372438430786      -0.00050919502973556519    -0.0034865289926528931     -0.0026812851428985596     -0.0021279379725456238     0.0025081634521484375      -0.00033099204301834106    
410012515     0.0022934377193450928      0.0012826696038246155      -0.00073949247598648071    -0.003504633903503418      -0.0028166025876998901     -0.0019961073994636536     0.0025367513298988342      -0.00045614689588546753    
412015018     0.0023703053593635559      0.0012038946151733398      -0.00095199793577194214    -0.0034868493676185608     -0.0029659047722816467     -0.0018379241228103638     0.0025386586785316467      -0.00057430565357208252    
414017521     0.002448447048664093       0.0011092349886894226      -0.0011648237705230713     -0.0034820735454559326     -0.0031205937266349792     -0.0016590878367424011     0.0025602579116821289      -0.00072265416383743286    
416020025     0.0025049895048141479      0.0010218843817710876      -0.0014024302363395691     -0.0034550800919532776     -0.0032606795430183411     -0.0014615058898925781     0.0025323107838630676      -0.00082461535930633545    
418022528     0.0025821700692176819      0.00092627108097076416     -0.0016120746731758118     -0.0034172758460044861     -0.0033636018633842468     -0.0012566298246383667     0.0025307163596153259      -0.00097232311964035034    
420025031     0.0026349052786827087      0.00080714374780654907     -0.001832522451877594      -0.0033470839262008667     -0.0034719184041023254     -0.0010495111346244812     0.0025027692317962646      -0.001099705696105957      
422027534     0.002698749303817749       0.00069882720708847046     -0.0020564645528793335     -0.0032860934734344482     -0.0035656243562698364     -0.00082208216190338135    0.0024675056338310242      -0.0012423321604728699     
424030037     0.0027330666780471802      0.0006092563271522522      -0.0022927969694137573     -0.0032015964388847351     -0.0036548823118209839     -0.00057145208120346069    0.0024230331182479858      -0.0013849511742591858     
426032540     0.0027794390916824341      0.00047678500413894653     -0.0024983212351799011     -0.0030970945954322815     -0.0037133321166038513     -0.00034433603286743164    0.0023798346519470215      -0.0015256702899932861     
428035043     0.002823270857334137       0.00036276131868362427     -0.0027019381523132324     -0.0029760599136352539     -0.0037454143166542053     -8.417665958404541e-05     0.0023036003112792969      -0.0016581267118453979     
430037546     0.0028461441397666931      0.00020425021648406982     -0.002897605299949646      -0.0028356611728668213     -0.0037746354937553406     0.00019313395023345947     0.002228952944278717       -0.0017950385808944702     
432040050     0.0028648823499679565      7.6234340667724609e-05     -0.0031066164374351501     -0.0026752501726150513     -0.0037730485200881958     0.0004536062479019165      0.0021587535738945007      -0.0019268617033958435     
434042553     0.0028747320175170898      -6.1303377151489258e-05    -0.0032937154173851013     -0.0024887919425964355     -0.0037416070699691772     0.00073312968015670776     0.002058371901512146       -0.0020551979541778564     
436045056     0.0028604418039321899      -0.00020647794008255005    -0.0034836679697036743     -0.0023010596632957458     -0.0036901459097862244     0.0010206103324890137      0.0019497349858283997      -0.002177804708480835      
438047559     0.0028645694255828857      -0.00034274160861968994    -0.0036567896604537964     -0.0020767971873283386     -0.0036282017827033997     0.0013052225112915039      0.0018382370471954346      -0.0023197978734970093     
440050062     0.0028467774391174316      -0.00049871206283569336    -0.0037851184606552124     -0.0018572956323623657     -0.0035338550806045532     0.0015771389007568359      0.0016997456550598145      -0.0024242997169494629     
442052565     0.0028073936700820923      -0.00065816938877105713    -0.0039264708757400513     -0.0016111209988594055     -0.0034055188298225403     0.0018595233559608459      0.0015691891312599182      -0.0025269091129302979     
444055068     0.0027702301740646362      -0.00079286098480224609    -0.0040332004427909851     -0.001346200704574585      -0.0032457485795021057     0.0021336525678634644      0.0014144927263259888      -0.002646028995513916      
446057571     0.0027276650071144104      -0.00093071907758712769    -0.0041199252009391785     -0.0010803267359733582     -0.00309772789478302       0.002379201352596283       0.0012791827321052551      -0.0027241632342338562     
448060075     0.0026587247848510742      -0.0010739788413047791     -0.0042044147849082947     -0.00078745186328887939    -0.002900145947933197      0.0026358664035797119      0.0011184439063072205      -0.0028172358870506287     
450062578     0.0025929808616638184      -0.0012197718024253845     -0.004247620701789856      -0.00050760060548782349    -0.0026978030800819397     0.0028731450438499451      0.00094690918922424316     -0.0028744116425514221     
452065081     0.0025018081068992615      -0.0013630390167236328     -0.0042816102504730225     -0.00020360946655273438    -0.0024516284465789795     0.0030669122934341431      0.00078904628753662109     -0.0029277801513671875     
454067584     0.0024255737662315369      -0.0014748498797416687     -0.0042892247438430786     0.00010514259338378906     -0.0022130683064460754     0.0032733827829360962      0.00063338875770568848     -0.0029919445514678955     
456070087     0.0023197978734970093      -0.0016000047326087952     -0.0042638182640075684     0.0004018247127532959      -0.0019510090351104736     0.0034423768520355225      0.0004459768533706665      -0.0030211657285690308     
458072590     0.0022178292274475098      -0.0017146766185760498     -0.004220619797706604      0.00072583556175231934     -0.00167083740234375       0.0035951584577560425      0.00027730315923690796     -0.0030446723103523254     
460075093     0.0021104663610458374      -0.0018255338072776794     -0.0041485130786895752     0.0010237842798233032      -0.0013747885823249817     0.0037142857909202576      0.00010101497173309326     -0.0030599161982536316     
462077596     0.001994207501411438       -0.0019360780715942383     -0.0040459111332893372     0.0012918859720230103      -0.0010971575975418091     0.0038435608148574829      -8.2902610301971436e-05    -0.0030532479286193848     
464080100     0.001867145299911499       -0.0020278841257095337     -0.0039305984973907471     0.0016171559691429138      -0.00078840553760528564    0.003897249698638916       -0.00025188922882080078    -0.0030329301953315735     
466082603     0.0017480254173278809      -0.0021171346306800842     -0.0037838444113731384     0.0018963664770126343      -0.00047139823436737061    0.0039528384804725647      -0.00040469318628311157    -0.0030345171689987183     
468085106     0.0016200169920921326      -0.0021860674023628235     -0.0036215260624885559     0.0021552518010139465      -0.0001877322793006897     0.0039779320359230042      -0.00058860331773757935    -0.0029836893081665039     
470087609     0.0014821514487266541      -0.0022734254598617554     -0.0034255385398864746     0.0024090558290481567      0.00012197345495223999     0.0039776116609573364      -0.00073789805173873901    -0.0029471516609191895     
472090112     0.001352556049823761       -0.0023064538836479187     -0.0032416209578514099     0.0026590526103973389      0.00042247027158737183     0.0039502978324890137      -0.00089196115732192993    -0.0028972849249839783     
474092615     0.0012289881706237793      -0.0023474320769309998     -0.0030214861035346985     0.0028775930404663086      0.00070105493068695068     0.0038988366723060608      -0.0010209307074546814     -0.0028169155120849609     
476095118     0.0010981112718582153      -0.0023776143789291382     -0.0027813389897346497     0.0030630975961685181      0.00095834583044052124     0.0038311779499053955      -0.0011502131819725037     -0.0027626082301139832     
478097621     0.00096756964921951294     -0.002404920756816864      -0.0025453269481658936     0.0032387599349021912      0.0012258142232894897      0.0037333369255065918      -0.0012953728437423706     -0.0026727095246315002     
480100125     0.00082779675722122192     -0.0024300292134284973     -0.0023016929626464844     0.0034090206027030945      0.0014837458729743958      0.0036247074604034424      -0.0014249756932258606     -0.0025913938879966736     
482102628     0.00072138011455535889     -0.0024519413709640503     -0.0020399540662765503     0.0035433918237686157      0.001704193651676178       0.0035132095217704773      -0.0015148743987083435     -0.0025034025311470032     
484105131     0.00059241801500320435     -0.0024535283446311951     -0.0017959922552108765     0.0036777481436729431      0.0019100308418273926      0.0033477172255516052      -0.0016123950481414795     -0.0024135038256645203     
486107634     0.00047425180673599243     -0.0024449527263641357     -0.0015158280730247498     0.0037603452801704407      0.0021139606833457947      0.0032019093632698059      -0.0017178505659103394     -0.0023204386234283447     
488110137     0.00036244094371795654     -0.0024246275424957275     -0.0012566298246383667     0.0038375332951545715      0.0023067742586135864      0.0030214861035346985      -0.001805521547794342      -0.0022019520401954651     
490112640     0.00026619434356689453     -0.0024077817797660828     -0.00098153948783874512    0.0038934424519538879      0.0024668723344802856      0.0028470978140830994      -0.0018738210201263428     -0.002089180052280426      
492115143     0.00013913214206695557     -0.0024128705263137817     -0.00072646886110305786    0.0039274245500564575      0.0026113986968994141      0.0026650875806808472      -0.0019497424364089966     -0.0019932538270950317     
494117647     5.1140785217285156e-05     -0.0023649036884307861     -0.00044725090265274048    0.0039436295628547668      0.0027432218194007874      0.0024452656507492065      -0.0020177140831947327     -0.0018725469708442688     
496120150     -2.7000904083251953e-05    -0.0023347288370132446     -0.00019153952598571777    0.003934420645236969       0.0028661489486694336      0.002244509756565094       -0.0020850524306297302     -0.0017588287591934204     
498122653     -0.00013690441846847534    -0.0023055002093315125     5.8762729167938232e-05     0.0039369538426399231      0.002964310348033905       0.0020250231027603149      -0.0021076053380966187     -0.0016632154583930969     
500125156     -0.00023283064365386963    -0.0022762864828109741     0.00031701475381851196     0.0038975700736045837      0.0030596032738685608      0.0018083825707435608      -0.0021631941199302673     -0.0015418753027915955     
502127659     -0.00031764805316925049    -0.0022346749901771545     0.00056160241365432739     0.0038346722722053528      0.0031218677759170532      0.0015777722001075745      -0.0021965503692626953     -0.0014227479696273804     
504130162     -0.00040595978498458862    -0.0021895617246627808     0.00081572681665420532     0.0037759095430374146      0.0031872987747192383      0.0013554170727729797      -0.0022257715463638306     -0.001320473849773407      
506132665     -0.00048219412565231323    -0.0021342933177947998     0.0010364949703216553      0.0036929994821548462      0.0032117590308189392      0.0011251196265220642      -0.0022353008389472961     -0.0011927708983421326     
508135168     -0.00055493414402008057    -0.0020879209041595459     0.0012744143605232239      0.0035840496420860291      0.0032289102673530579      0.00089863687753677368     -0.0022600740194320679     -0.0010946169495582581     
510137672     -0.00063307583332061768    -0.0020320117473602295     0.0014773905277252197      0.0034877955913543701      0.0032422542572021484      0.00068961828947067261     -0.0022794604301452637     -0.00097391754388809204    
512140175     -0.00069628655910491943    -0.0019894391298294067     0.001672111451625824       0.0033594667911529541      0.0032251030206680298      0.00045805424451828003     -0.0022858083248138428     -0.00086083263158798218    
514142678     -0.00075314939022064209    -0.0019309967756271362     0.0018614307045936584      0.0032212883234024048      0.0032225549221038818      0.00024554133415222168     -0.0022769197821617126     -0.00074997544288635254    
516145181     -0.00081064552068710327    -0.0018754079937934875     0.0020243898034095764      0.0030827969312667847      0.0031682476401329041      3.0815601348876953e-05     -0.0022750049829483032     -0.00065086781978607178    
518147684     -0.00085098296403884888    -0.0018268078565597534     0.0021692365407943726      0.0029315948486328125      0.0031110644340515137      -0.00016772001981735229    -0.0022607147693634033     -0.00055048614740371704    
520150187     -0.00090212374925613403    -0.0017661303281784058     0.0023271068930625916      0.0027762651443481445      0.0030548423528671265      -0.00036530196666717529    -0.0022613555192947388     -0.00043866783380508423    
522152690     -0.00094723701477050781    -0.0017203986644744873     0.0024624243378639221      0.002607591450214386       0.0029782876372337341      -0.00055239349603652954    -0.0022359415888786316     -0.00035132467746734619    
524155193     -0.00098852813243865967    -0.0016517788171768188     0.0025913938879966736      0.0024217665195465088      0.0028928369283676147      -0.00073663145303726196    -0.0022124350070953369     -0.00026777386665344238    
526157697     -0.001031726598739624      -0.0016101673245429993     0.0026879534125328064      0.0022473707795143127      0.0027896016836166382      -0.00092150270938873291    -0.0021733641624450684     -0.00015946477651596069    
528160200     -0.0010587349534034729     -0.0015406012535095215     0.0027832537889480591      0.0020485222339630127      0.0026965364813804626      -0.001097165048122406      -0.0021603330969810486     -7.9728662967681885e-05    
530162703     -0.0011032000184059143     -0.0014761164784431458     0.0028804466128349304      0.0018744543194770813      0.0025824978947639465      -0.0012553557753562927     -0.0021355673670768738     1.4297664165496826e-05     
532165206     -0.0011419504880905151     -0.0014151260256767273     0.0029551014304161072      0.0016790926456451416      0.0024706795811653137      -0.0014071911573410034     -0.002100624144077301      0.00011022388935089111     
534167709     -0.0011660903692245483     -0.0013627186417579651     0.0030116364359855652      0.0014675483107566833      0.0023331418633460999      -0.0015606135129928589     -0.0020504295825958252     0.00020869076251983643     
536170212     -0.0011991336941719055     -0.0013157054781913757     0.0030637383460998535      0.0012785494327545166      0.0021940097212791443      -0.0016822740435600281     -0.0020158067345619202     0.00026301294565200806     
538172715     -0.0012118369340896606     -0.0012664645910263062     0.00309772789478302        0.0010790601372718811      0.0020469352602958679      -0.0018128231167793274     -0.0019795969128608704     0.00035576522350311279     
540175218     -0.0012480467557907104     -0.0011962726712226868     0.0031202733516693115      0.00088433921337127686     0.0018957331776618958      -0.001933857798576355      -0.0019259154796600342     0.00043804198503494263     
542177722     -0.0012601166963577271     -0.0011444911360740662     0.0031396597623825073      0.00068421661853790283     0.0017407238483428955      -0.0020250231027603149     -0.0018728673458099365     0.00050252676010131836     
544180225     -0.0012750476598739624     -0.0010873153805732727     0.0031180530786514282      0.00049109011888504028     0.0015793591737747192      -0.0021298453211784363     -0.0018083825707435608     0.00057017803192138672     
546182728     -0.0012931525707244873     -0.0010336339473724365     0.0031202808022499084      0.00027825683355331421     0.0014176666736602783      -0.0022133812308311462     -0.00176200270652771       0.0006451532244682312      
548185231     -0.0012985542416572571     -0.00097645819187164307    0.0030770748853683472      0.00010196864604949951     0.001251220703125          -0.0022870823740959167     -0.0017216578125953674     0.00072678178548812866     
550187734     -0.0013147518038749695     -0.00092436373233795166    0.0030160844326019287      -8.9570879936218262e-05    0.001084454357624054       -0.0023461654782295227     -0.001647651195526123      0.00076140463352203369     
552190237     -0.0013350844383239746     -0.00088274478912353516    0.0029798746109008789      -0.00027571618556976318    0.00091197341680526733     -0.0023973062634468079     -0.0015971437096595764     0.00083033740520477295     
554192740     -0.0013522356748580933     -0.00082017481327056885    0.0029207915067672729      -0.00047234445810317993    0.00074297934770584106     -0.0024411380290985107     -0.0015310719609260559     0.00089228153228759766     
556195243     -0.0013452470302581787     -0.00076331198215484619    0.0028559938073158264      -0.00065689533948898315    0.00057018548250198364     -0.0024697333574295044     -0.0014592781662940979     0.00093960762023925781     
558197747     -0.001350007951259613      -0.00071503221988677979    0.0027591139078140259      -0.00081858783960342407    0.00039260834455490112     -0.0025030896067619324     -0.0013982951641082764     0.00099647045135498047     
560200250     -0.0013630315661430359     -0.00065468251705169678    0.0026863664388656616      -0.00098312646150588989    0.0002420470118522644      -0.0025043562054634094     -0.0013363510370254517     0.0010472908616065979      
562202753     -0.0013585910201072693     -0.00060099363327026367    0.0025755017995834351      -0.0011454522609710693     4.3831765651702881e-05     -0.0024964138865470886     -0.0012626573443412781     0.0010901764035224915      
564205256     -0.0013690739870071411     -0.00055270642042160034    0.0024687796831130981      -0.0012988671660423279     -0.00011117756366729736    -0.002506256103515625      -0.001199766993522644      0.0011143162846565247      
566207759     -0.0013655796647071838     -0.00051586329936981201    0.0023607686161994934      -0.0014440417289733887     -0.00027763098478317261    -0.0024624243378639221     -0.0011352896690368652     0.0011749863624572754      
