! PocketVna 1.60  pocketvna.com
! Live measurements ((Reflection-S11, Transmission-S21, Transmission-S12, Reflection-S22) Linear 400000000-2000000000/800 non-calibrated)
# Hz S RI R 50
! Hz          ReS11                      ImS11                      ReS21                      ImS21                      ReS12                      ImS12                      ReS22                      ImS22                      
400000000     0.0033728033304214478      -0.0018598362803459167     2.8535723686218262e-06     2.6360154151916504e-05     1.5571713447570801e-05     4.1276216506958008e-06     0.00082588940858840942     -0.0035478323698043823     
402002503     0.003286406397819519       -0.0019338503479957581     2.1591782569885254e-05     2.3186206817626953e-05     1.4930963516235352e-05     2.4780631065368652e-05     0.00070836395025253296     -0.0035526007413864136     
404005006     0.0032308176159858704      -0.0020278766751289368     1.5251338481903076e-05     2.1286308765411377e-05     2.3186206817626953e-05     1.1123716831207275e-05     0.00058956444263458252     -0.0035754665732383728     
406007509     0.0031660199165344238      -0.0021428689360618591     9.5367431640625e-07        3.4615397453308105e-05     1.7151236534118652e-05     2.0645558834075928e-05     0.00047107785940170288     -0.0035802349448204041     
408010012     0.0030786693096160889      -0.002216242253780365      3.2037496566772461e-07     2.3819506168365479e-05     1.3977289199829102e-05     6.9886445999145508e-06     0.00034973770380020142     -0.0035878643393516541     
410012515     0.0030024275183677673      -0.0023010596632957458     3.1739473342895508e-06     2.7954578399658203e-05     1.4930963516235352e-05     1.2069940567016602e-05     0.00023696571588516235     -0.0035916715860366821     
412015018     0.0029242858290672302      -0.0023877769708633423     4.76837158203125e-06       2.7321279048919678e-05     1.6838312149047852e-05     1.0155141353607178e-05     0.00012420117855072021     -0.0035761073231697083     
414017521     0.0028239116072654724      -0.002453535795211792      3.4943222999572754e-06     3.2082200050354004e-05     3.1761825084686279e-05     6.67572021484375e-06       -4.4405460357666016e-06    -0.0035926252603530884     
416020025     0.0027683228254318237      -0.0025342106819152832     1.9073486328125e-06        2.0965933799743652e-05     1.1429190635681152e-05     1.0795891284942627e-05     -0.00010863691568374634    -0.0035633966326713562     
418022528     0.0026784241199493408      -0.0026117190718650818     0                          3.9391219615936279e-05     3.970414400100708e-05      -2.5331974029541016e-06    -0.0002341046929359436     -0.0035510137677192688     
420025031     0.0025824904441833496      -0.0026704892516136169     -3.4943222999572754e-06    3.3996999263763428e-05     2.6687979698181152e-05     2.6367604732513428e-05     -0.00034337490797042847    -0.003535442054271698      
422027534     0.0024871975183486938      -0.0027400553226470947     -8.888542652130127e-06     3.0182301998138428e-05     1.7151236534118652e-05     6.0349702835083008e-06     -0.00044915825128555298    -0.003504633903503418      
424030037     0.0023925453424453735      -0.0028159618377685547     -3.4943222999572754e-06    3.588944673538208e-05      1.9371509552001953e-05     1.2069940567016602e-05     -0.00057208538055419922    -0.0034839808940887451     
426032540     0.0023086816072463989      -0.0028788670897483826     1.9073486328125e-06        2.6993453502655029e-05     3.2082200050354004e-05     1.5869736671447754e-06     -0.00068390369415283203    -0.0034465044736862183     
428035043     0.0022108405828475952      -0.0029369890689849854     -6.9886445999145508e-06    4.0024518966674805e-05     3.6530196666717529e-05     2.0325183868408203e-05     -0.00078903883695602417    -0.0034277588129043579     
430037546     0.0021101459860801697      -0.0029881373047828674     -9.5367431640625e-07       3.0815601348876953e-05     2.6047229766845703e-05     1.3977289199829102e-05     -0.00090435147285461426    -0.0033867806196212769     
432040050     0.0020027905702590942      -0.0030564293265342712     -3.814697265625e-06        2.6367604732513428e-05     1.6517937183380127e-05     2.3826956748962402e-05     -0.0010142549872398376     -0.0033550187945365906     
434042553     0.0018782690167427063      -0.0031145587563514709     -1.4610588550567627e-05    2.0332634449005127e-05     2.3186206817626953e-05     2.0012259483337402e-05     -0.0011406838893890381     -0.0032933950424194336     
436045056     0.0017870962619781494      -0.0031612589955329895     -1.2077391147613525e-05    3.684312105178833e-05      1.7151236534118652e-05     4.7609210014343262e-06     -0.0012280270457267761     -0.0032533705234527588     
438047559     0.0016864016652107239      -0.0032289177179336548     -4.7609210014343262e-06    3.1761825084686279e-05     1.5243887901306152e-05     2.4460256099700928e-05     -0.0013373047113418579     -0.0032060369849205017     
440050062     0.0015539452433586121      -0.0032524168491363525     -1.8104910850524902e-05    3.5576522350311279e-05     1.9378960132598877e-05     2.0012259483337402e-05     -0.0014303773641586304     -0.0031631588935852051     
442052565     0.0014395862817764282      -0.0033022910356521606     -2.8535723686218262e-06    3.684312105178833e-05      2.7321279048919678e-05     2.3826956748962402e-05     -0.0015479102730751038     -0.0030856505036354065     
444055068     0.0013226941227912903      -0.0033451765775680542     -2.9541552066802979e-05    3.0174851417541504e-05     1.1436641216278076e-05     2.6054680347442627e-05     -0.0016508251428604126     -0.0030208602547645569     
446057571     0.0012127906084060669      -0.0033718571066856384     -9.2089176177978516e-06    2.5093555450439453e-05     3.1135976314544678e-05     2.0019710063934326e-05     -0.0017601028084754944     -0.0029550939798355103     
448060075     0.0011000260710716248      -0.0034137815237045288     -2.86102294921875e-06      2.0653009414672852e-05     2.3506581783294678e-05     2.0332634449005127e-05     -0.0018315687775611877     -0.0028861686587333679     
450062578     0.00096279382705688477     -0.0034379288554191589     -3.4943222999572754e-06    4.2885541915893555e-05     1.0482966899871826e-05     3.1448900699615479e-05     -0.0019240006804466248     -0.0028143823146820068     
452065081     0.00085098296403884888     -0.0034627094864845276     -2.1912157535552979e-05    3.0815601348876953e-05     1.1116266250610352e-05     9.8496675491333008e-06     -0.0020129531621932983     -0.0027410015463829041     
454067584     0.00073948502540588379     -0.0034795403480529785     -2.0653009414672852e-05    2.3193657398223877e-05     1.6517937183380127e-05     1.6830861568450928e-05     -0.0021126940846443176     -0.0026495158672332764     
456070087     0.00060480833053588867     -0.0034963786602020264     -1.0170042514801025e-05    1.9058585166931152e-05     1.5884637832641602e-05     2.0332634449005127e-05     -0.0021835267543792725     -0.0025815367698669434     
458072590     0.00048728287220001221     -0.0035230517387390137     -2.3186206817626953e-05    2.8587877750396729e-05     -1.2740492820739746e-06    1.3977289199829102e-05     -0.0022677034139633179     -0.0024922788143157959     
460075093     0.00035608559846878052     -0.0035271868109703064     -2.7321279048919678e-05    3.3035874366760254e-05     2.9854476451873779e-05     1.4610588550567627e-05     -0.0023515671491622925     -0.0024096891283988953     
462077596     0.00023378431797027588     -0.0035297274589538574     -1.7151236534118652e-05    1.8745660781860352e-05     9.8496675491333008e-06     1.0162591934204102e-05     -0.0024144649505615234     -0.0023131296038627625     
464080100     0.00010863691568374634     -0.0035163909196853638     -1.7158687114715576e-05    1.4930963516235352e-05     2.5726854801177979e-05     1.8738210201263428e-05     -0.0024833902716636658     -0.0022098943591117859     
466082603     8.2552433013916016e-06     -0.00351734459400177       -2.5413930416107178e-05    1.7471611499786377e-05     2.2277235984802246e-06     1.6517937183380127e-05     -0.0025637522339820862     -0.0021136477589607239     
468085106     -0.00013054907321929932    -0.0035186111927032471     -1.6517937183380127e-05    3.1761825084686279e-05     8.5756182670593262e-06     2.6993453502655029e-05     -0.0026158541440963745     -0.0020072311162948608     
470087609     -0.00023664534091949463    -0.003510989248752594      -2.0325183868408203e-05    1.2390315532684326e-05     4.4479966163635254e-06     2.5093555450439453e-05     -0.0026673078536987305     -0.0019020885229110718     
472090112     -0.00035544484853744507    -0.0034909695386886597     -1.9058585166931152e-05    1.7791986465454102e-05     1.9058585166931152e-05     7.6219439506530762e-06     -0.0027260705828666687     -0.0018074288964271545     
474092615     -0.00045519322156906128    -0.0034785866737365723     -2.1278858184814453e-05    1.7151236534118652e-05     -2.2277235984802246e-06    3.0174851417541504e-05     -0.0027749985456466675     -0.0017191246151924133     
476095118     -0.00056255608797073364    -0.0034592151641845703     -2.3819506168365479e-05    1.9691884517669678e-05     2.1599233150482178e-05     2.2232532501220703e-05     -0.0028112083673477173     -0.0016120746731758118     
478097621     -0.00069215893745422363    -0.0034233182668685913     -2.4773180484771729e-05    2.1278858184814453e-05     8.2552433013916016e-06     1.2703239917755127e-05     -0.0028417035937309265     -0.0015069320797920227     
480100125     -0.0007992088794708252     -0.0033880546689033508     -1.2069940567016602e-05    1.9066035747528076e-05     -6.3329935073852539e-07    1.3656914234161377e-05     -0.0028871223330497742     -0.0014059171080589294     
482102628     -0.00089577585458755493    -0.0033496171236038208     -2.3186206817626953e-05    2.6360154151916504e-05     9.842216968536377e-06      2.0012259483337402e-05     -0.0029185712337493896     -0.0013172999024391174     
484105131     -0.00099647045135498047    -0.0033232495188713074     -1.8738210201263428e-05    1.5884637832641602e-05     1.2069940567016602e-05     1.5564262866973877e-05     -0.0029385834932327271     -0.0012239068746566772     
486107634     -0.0010987445712089539     -0.0032765641808509827     -2.2552907466888428e-05    1.8745660781860352e-05     -4.4479966163635254e-06    1.0170042514801025e-05     -0.0029433444142341614     -0.0011149495840072632     
488110137     -0.001185782253742218      -0.0032308176159858704     -1.5884637832641602e-05    1.5243887901306152e-05     3.4943222999572754e-06     1.4930963516235352e-05     -0.0029798746109008789     -0.0010050460696220398     
490112640     -0.0012813955545425415     -0.0032069981098175049     -1.6517937183380127e-05    1.1749565601348877e-05     6.9886445999145508e-06     1.6197562217712402e-05     -0.0029973462224006653     -0.00089735537767410278    
492115143     -0.001389719545841217      -0.0031485408544540405     -2.2239983081817627e-05    2.4139881134033203e-05     1.2062489986419678e-05     1.5564262866973877e-05     -0.0030116438865661621     -0.00079254060983657837    
494117647     -0.0014637336134910583     -0.003109470009803772      -3.5576522350311279e-05    6.4074993133544922e-07     -8.5756182670593262e-06    4.1350722312927246e-06     -0.003023393452167511      -0.00069501996040344238    
496120150     -0.0015688762068748474     -0.0030446797609329224     -2.4139881134033203e-05    1.3656914234161377e-05     2.5480985641479492e-06     9.842216968536377e-06      -0.0030100494623184204     -0.00057494640350341797    
498122653     -0.0016381144523620605     -0.0030068680644035339     -3.2402575016021729e-05    1.2665987014770508e-06     -4.1276216506958008e-06    -2.2202730178833008e-06    -0.0030160918831825256     -0.00050125271081924438    
500125156     -0.0017407238483428955     -0.0029404833912849426     -1.4610588550567627e-05    3.4943222999572754e-06     -6.9886445999145508e-06    1.3336539268493652e-05     -0.0030205398797988892     -0.00037482380867004395    
502127659     -0.0018204525113105774     -0.0028699636459350586     -1.5884637832641602e-05    2.3186206817626953e-05     -8.2552433013916016e-06    1.0162591934204102e-05     -0.0030087828636169434     -0.00026015192270278931    
504130162     -0.0019182935357093811     -0.0028045326471328735     -1.5243887901306152e-05    1.9371509552001953e-05     8.5756182670593262e-06     2.5406479835510254e-06     -0.0029951184988021851     -0.00016390532255172729    
506132665     -0.0019837319850921631     -0.0027444958686828613     -3.7163496017456055e-05    1.3977289199829102e-05     3.4943222999572754e-06     1.2077391147613525e-05     -0.0029862299561500549     -4.8600137233734131e-05    
508135168     -0.0020707547664642334     -0.0026676207780838013     -1.9378960132598877e-05    1.1436641216278076e-05     -6.67572021484375e-06      -1.2740492820739746e-06    -0.0029681175947189331     6.0357153415679932e-05     
510137672     -0.0021536648273468018     -0.00260886549949646       -3.5896897315979004e-05    0                          8.8959932327270508e-06     8.2552433013916016e-06     -0.0029452592134475708     0.00015819072723388672     
512140175     -0.0022156089544296265     -0.0025205537676811218     -2.0012259483337402e-05    1.3023614883422852e-05     1.0162591934204102e-05     -3.2037496566772461e-07    -0.0029226988554000854     0.00025825202465057373     
514142678     -0.0022988319396972656     -0.0024481341242790222     -1.1757016181945801e-05    7.3015689849853516e-06     -6.3329935073852539e-07    6.67572021484375e-06       -0.0028902962803840637     0.00037102401256561279     
516145181     -0.0023547336459159851     -0.0023782476782798767     -2.2232532501220703e-05    6.9886445999145508e-06     8.8959932327270508e-06     -1.8998980522155762e-06    -0.0028572604060173035     0.00046218186616897583     
518147684     -0.0024208128452301025     -0.0022927969694137573     -2.2865831851959229e-05    7.3090195655822754e-06     -6.9886445999145508e-06    1.4290213584899902e-05     -0.0028394758701324463     0.00056985765695571899     
520150187     -0.002480529248714447      -0.0022019445896148682     -2.7321279048919678e-05    3.1739473342895508e-06     1.9073486328125e-06        -7.3015689849853516e-06    -0.0027835667133331299     0.00064197182655334473     
522152690     -0.002533257007598877      -0.0021244436502456665     -1.0162591934204102e-05    -7.9423189163208008e-06    -8.2552433013916016e-06    -1.7158687114715576e-05    -0.0027457699179649353     0.00074107944965362549     
524155193     -0.0026031434535980225     -0.0020113587379455566     -1.4290213584899902e-05    -2.2202730178833008e-06    5.0887465476989746e-06     -5.7145953178405762e-06    -0.0026990696787834167     0.0008312910795211792      
526157697     -0.0026526972651481628     -0.0019259080290794373     -9.8496675491333008e-06    -3.4943222999572754e-06    -6.3329935073852539e-07    1.6197562217712402e-05     -0.0026619061827659607     0.00093547999858856201     
528160200     -0.002702564001083374      -0.0018525421619415283     -1.5243887901306152e-05    6.0349702835083008e-06     -1.2077391147613525e-05    6.67572021484375e-06       -0.0025971084833145142     0.0010209232568740845      
530162703     -0.0027502179145812988     -0.0017454922199249268     -2.3506581783294678e-05    3.2037496566772461e-07     -1.2390315532684326e-05    -4.4479966163635254e-06    -0.0025361180305480957     0.0011448115110397339      
532165206     -0.0027994513511657715     -0.0016581341624259949     -2.86102294921875e-06      -2.2232532501220703e-05    5.4016709327697754e-06     -5.7145953178405762e-06    -0.00247926265001297       0.0012369304895401001      
534167709     -0.0028442367911338806     -0.0015491768717765808     -1.3336539268493652e-05    -2.2277235984802246e-06    -1.3023614883422852e-05    -6.9886445999145508e-06    -0.0024303421378135681     0.0013188794255256653      
536170212     -0.0028734654188156128     -0.001453883945941925      -2.1278858184814453e-05    4.1276216506958008e-06     -1.1757016181945801e-05    6.6682696342468262e-06     -0.0023506060242652893     0.0013960674405097961      
538172715     -0.0029236525297164917     -0.001325555145740509      -1.0482966899871826e-05    -1.0170042514801025e-05    -3.2037496566772461e-07    5.0812959671020508e-06     -0.0022937580943107605     0.0014796182513237         
540175218     -0.0029462054371833801     -0.0012096166610717773     -1.4290213584899902e-05    1.5869736671447754e-06     3.1813979148864746e-06     -1.9073486328125e-06       -0.0022092536091804504     0.0015558525919914246      
542177722     -0.0029840022325515747     -0.0011343285441398621     -1.0162591934204102e-05    -7.6219439506530762e-06    0                          3.4943222999572754e-06     -0.0021298453211784363     0.001642569899559021       
544180225     -0.0029982998967170715     -0.0010145753622055054     -1.4610588550567627e-05    7.3015689849853516e-06     -1.2665987014770508e-06    -6.0349702835083008e-06    -0.00205964595079422       0.0017261132597923279      
546182728     -0.003028474748134613      -0.00090403109788894653    -1.3023614883422852e-05    -1.2069940567016602e-05    -1.2069940567016602e-05    5.3942203521728516e-06     -0.0019700676202774048     0.0018207728862762451      
548185231     -0.0030341893434524536     -0.00079603493213653564    -1.7471611499786377e-05    1.1116266250610352e-05     -2.2545456886291504e-05    -3.2037496566772461e-07    -0.0018890649080276489     0.0018728598952293396      
550187734     -0.0030434057116508484     -0.00068485736846923828    6.3329935073852539e-07     -2.2202730178833008e-06    -7.9423189163208008e-06    -1.9073486328125e-06       -0.0018150582909584045     0.001936398446559906       
552190237     -0.0030535683035850525     -0.00056447088718414307    -6.6682696342468262e-06    -6.3553452491760254e-06    5.0812959671020508e-06     -1.2069940567016602e-05    -0.001710548996925354      0.0020024627447128296      
554192740     -0.003052935004234314      -0.00044629722833633423    -1.1757016181945801e-05    -9.8496675491333008e-06    -1.2740492820739746e-06    -8.888542652130127e-06     -0.001609213650226593      0.0020701214671134949      
556195243     -0.0030665919184684753     -0.00033321231603622437    -1.5869736671447754e-06    -2.2232532501220703e-05    -6.6682696342468262e-06    -5.0812959671020508e-06    -0.0015256702899932861     0.0021282583475112915      
558197747     -0.0030548349022865295     -0.00022871047258377075    -7.9423189163208008e-06    -1.5243887901306152e-05    -3.1739473342895508e-06    -3.1739473342895508e-06    -0.001425616443157196      0.0021927431225776672      
560200250     -0.0030513480305671692     -0.00010768324136734009    -8.5756182670593262e-06    -6.3478946685791016e-06    -9.8496675491333008e-06    -1.3023614883422852e-05    -0.0013160258531570435     0.002249598503112793       
562202753     -0.003032289445400238      1.0482966899871826e-05     -9.5292925834655762e-06    1.2665987014770508e-06     -2.0012259483337402e-05    -9.5367431640625e-07       -0.0012105628848075867     0.0022750049829483032      
564205256     -0.0030198991298675537     0.00013086944818496704     -8.2626938819885254e-06    1.0482966899871826e-05     -8.2626938819885254e-06    -1.0795891284942627e-05    -0.0011127293109893799     0.0023547336459159851      
566207759     -0.0029792413115501404     0.00023411214351654053     -1.1116266250610352e-05    -1.3656914234161377e-05    -1.1436641216278076e-05    -4.1350722312927246e-06    -0.00099615752696990967    0.0023785606026649475      
