!Created with skrf (http://scikit-rf.org).
# GHz S DB R 50.0 
!freq dBS11 angS11
0.001 -0.1606604499211235 0.9503164799369146
0.008998 0.05500576494887901 -6.055017255215274
0.016996 0.06574025256027535 -9.273695398157386
0.024994 0.0047417336286792264 -15.404606319406408
0.032992 -0.06826376888637176 -19.18782860217798
0.04099 -0.06015902457916813 -24.66549282210049
0.048988 0.00185790070529044 -30.504653098443264
0.056986 -0.1354908364967466 -34.51976724704807
0.064984 -0.10274011700240061 -37.905905216539644
0.072982 -0.3738716551921528 -42.71371282278079
0.08098 0.126207541587306 -47.66729880024896
0.088978 -0.1125113545696047 -50.5087070493065
0.096976 -0.069671825813375 -57.03848484673318
0.104974 -0.4067937011417011 -58.6744258050211
0.112972 -0.6415524443704166 -63.54869743701813
0.12097 -0.4308795459701291 -68.86633560413142
0.128968 -0.5465487190004092 -74.38831870576001
0.136966 -0.5029282100988766 -80.14799269916729
0.144964 -0.6062944296770398 -84.90931397611988
0.152962 -0.44579800092289534 -88.31794398050485
0.16096 -0.21649504931211375 -94.55297955796294
0.168958 -0.6925024936747601 -96.95807547276286
0.176956 -0.6259272623633315 -101.43314261554545
0.184954 -0.5967590084733133 -104.75561462351298
0.192952 -0.661194749718605 -110.14186871995703
0.20095 -0.7450928544071738 -112.63475222644965
0.208948 -0.732647751657036 -117.44378714784509
0.216946 -0.714992283199873 -122.97284457517111
0.224944 -0.9698792226937253 -127.73554757545146
0.232942 -0.7065562659387936 -133.44451920311187
0.24094 -0.9321983279450288 -136.92245155232254
0.248938 -0.7556650482300249 -140.50238010099622
0.256936 -0.7638305359476818 -144.3968816904598
0.264934 -0.7092420712281868 -148.91130809646532
0.272932 -0.9065341011812538 -152.70609706658968
0.28093 -0.6675140727876996 -156.60258108080066
0.288928 -0.9147385327439067 -158.2289860435
0.296926 -0.9793940282816718 -163.64094019402808
0.304924 -1.169237291630704 -169.56418051856423
0.312922 -1.3793940954442658 -173.3411243191946
0.32092 -1.3493605588466853 -177.01454312422467
0.328918 -1.1023402973660743 178.45187259765711
0.336916 -1.1383903696045083 174.94531706897388
0.344914 -1.3040573074388022 170.04185359388285
0.352912 -1.292707663102881 166.78119368415938
0.36091 -1.570294527442754 161.87182589509712
0.368908 -1.1561621017254888 159.86971127977395
0.376906 -1.3378490731673434 153.13920676304173
0.384904 -1.4703950013873897 148.83666690121487
0.392902 -1.4308519078842028 146.91901001239162
0.4009 -1.5363433794066226 143.9357459122008
0.408898 -1.7370931344058849 137.6661216290433
0.416896 -1.8400588024368858 133.36124084760613
0.424894 -1.788172004773184 132.07031867641797
0.432892 -1.4671581757933296 125.24716547247459
0.44089 -1.8190794078310566 123.52040614964174
0.448888 -1.7091136942430434 119.19366275355283
0.456886 -2.10762635092828 113.65885321386477
0.464884 -1.9401061023188775 109.96282754463495
0.472882 -2.036271199112725 105.65760388284991
0.48088 -1.9590863559759653 102.13029197147671
0.488878 -1.978995523213193 97.07175867798136
0.496876 -1.8932572588671805 94.3388762974787
0.504874 -2.0532255134912534 91.04751798905139
0.512872 -2.2004484805207896 88.35582738042562
0.52087 -2.1963172564400106 82.72720389031649
0.528868 -2.487889294806599 79.87363393422555
0.536866 -2.549591639456752 76.6248818024796
0.544864 -2.737179163915984 71.29612828166276
0.552862 -2.81759509737109 67.64359511646711
0.56086 -2.9372854456210677 61.662086026876814
0.568858 -2.83857879922392 58.78369794974286
0.576856 -3.0483643523696378 54.238959126481596
0.584854 -2.904083697271565 51.41084984554015
0.592852 -3.0194780579965093 48.743909465493914
0.60085 -3.1369416220819297 44.490838720608984
0.608848 -3.3445271814362187 40.316427837631004
0.616846 -3.3453850335833817 36.9679605652019
0.624844 -3.7154537958259803 30.919944766600864
0.632842 -4.029558026274428 27.55187681566616
0.64084 -3.832078110541801 22.726194669404048
0.648838 -3.983874076366104 19.01464368870186
0.656836 -4.10131648961781 14.450808780378772
0.664834 -4.310534227413713 11.65229736724783
0.672832 -4.3426251139486585 6.6007556916047125
0.68083 -4.4682736253189015 2.5808798432622737
0.688828 -4.578959296355245 -0.5937653471069603
0.696826 -4.781580676606283 -5.614501967110204
0.704824 -5.124027907997619 -9.145246863049277
0.712822 -5.009732176039123 -13.567355601576384
0.72082 -5.328789551413882 -17.163656086815184
0.728818 -5.357668001807695 -21.71838406953966
0.736816 -5.3865396223873185 -27.61119176383656
0.744814 -5.599382676089036 -29.767289245354966
0.752812 -5.96975337250216 -33.00820367454747
0.76081 -5.809730903991182 -40.41986069432287
0.768808 -6.1108098594107965 -40.142694825983625
0.776806 -6.065684985255207 -45.203519261271964
0.784804 -6.241673679241504 -52.2347428646984
0.792802 -6.425295228485669 -53.24405851844568
0.8008 -6.999154866127317 -59.759058251291314
0.808798 -7.484304263802786 -64.30019477620272
0.816796 -7.593285219924619 -71.22837091872822
0.824794 -7.23008996413923 -74.86730365396417
0.832792 -7.663640144051947 -80.96657470781989
0.84079 -7.878018105545142 -85.29376472823735
0.848788 -7.497389404453245 -89.72612522629164
0.856786 -7.8399479961467655 -94.67522617474728
0.864784 -7.686161809243714 -96.41373959766963
0.872782 -8.113291413941612 -100.9932374564515
0.88078 -8.114796235473454 -103.97136284733071
0.888778 -8.28719120157516 -109.8143132877771
0.896776 -7.895266837680848 -111.41413194882243
0.904774 -8.156635581962236 -113.5751242200035
0.912772 -8.1931532958113 -121.18914157385342
0.92077 -8.893354876184569 -125.757116832875
0.928768 -9.259955253136562 -131.67083230345136
0.936766 -9.160229440757746 -134.60239242357778
0.944764 -9.129829168864662 -140.5469631534549
0.952762 -9.371827214167883 -148.20452032826338
0.96076 -9.19017023099727 -150.46514724423463
0.968758 -9.298503430910602 -156.2367013228267
0.976756 -9.204167948308516 -160.32716403604246
0.984754 -9.11883308076495 -163.15062462807734
0.992752 -9.194358855829192 -168.72310620941536
1.00075 -8.993622152708483 -170.9839450077229
1.008748 -9.368042670019673 -173.19668259766823
1.016746 -9.885206242556748 -179.76933093779112
1.024744 -9.284091991417407 176.62916003669727
1.032742 -9.528452369820677 172.88960975853422
1.04074 -9.580926470404128 170.44029231209151
1.048738 -9.547058354780626 164.2839387884539
1.056736 -9.581287870461846 157.09134475407964
1.064734 -9.30997154969386 155.99119377360293
1.072732 -9.395579771199788 152.00333673663127
1.08073 -9.251853149588324 151.05216291059423
1.088728 -9.047673810345056 145.4528653894001
1.096726 -10.140015233735047 143.29649897486777
1.104724 -9.717077989355602 138.73087771530066
1.112722 -10.264781435050507 135.16057303169504
1.12072 -9.991517551825055 134.62200226525223
1.128718 -9.467003544123253 128.53618731557034
1.136716 -10.02573957122193 125.44831578817322
1.144714 -10.185032802293417 120.93025432127543
1.152712 -9.779297162620509 116.95808897674455
1.16071 -10.241792067981269 117.07493692250762
1.168708 -9.835870999676345 110.06088048907823
1.176706 -10.391087748312522 106.39349627537015
1.184704 -10.99698729769174 99.90273569977501
1.192702 -10.301945838050168 101.27758911208447
1.2007 -10.57281206998504 93.55201756067218
1.208698 -10.778720291658674 97.3330540653688
1.216696 -11.375644769186861 87.5172294956435
1.224694 -11.69396205023202 86.50844108683802
1.232692 -10.819014287795387 79.75510923220645
1.24069 -10.99915802331115 77.9220610156054
1.248688 -11.08268282257869 79.30789345214798
1.256686 -11.274857738879 72.36242824922542
1.264684 -11.589286361270466 73.70561412777899
1.272682 -10.815498735254705 68.06649761864348
1.28068 -12.094013997668004 67.96300926737119
1.288678 -11.909845063161042 68.96579811617303
1.296676 -12.396980309362085 61.62752640180923
1.304674 -11.910735675285844 59.17832845140927
1.312672 -12.23388694607099 61.303878051779066
1.32067 -12.703077757786742 56.790068904018035
1.328668 -12.509905096434352 48.6283817465754
1.336666 -13.348178697925011 51.59209167312889
1.344664 -13.07144051644201 44.43094112364406
1.352662 -13.059996659230478 39.37360845919389
1.36066 -13.205703578949418 38.92363176732031
1.368658 -13.403763039509462 34.53529903286709
1.376656 -14.173932135675757 35.70860332392075
1.384654 -13.449906807841705 29.046286112772414
1.392652 -13.664133317640896 32.665758657872836
1.40065 -12.91716460599957 37.96354540133595
1.408648 -15.175351224228821 27.9392113199489
1.416646 -14.750493100514376 25.258999216863735
1.424644 -14.437904821570736 18.39574675518533
1.432642 -15.503427940617154 17.36442763343115
1.44064 -14.662204369314631 16.95805568406506
1.448638 -14.8329055276656 19.10799076709759
1.456636 -16.242388553863766 9.243128671964957
1.464634 -16.088526666868525 9.81953195880427
1.472632 -15.832124563193899 8.72672273537876
1.48063 -16.469395595259083 11.780513991654507
1.488628 -16.186204908627996 5.048200683366532
1.496626 -17.821964887861384 0.26435864576583
1.504624 -16.808182783362646 -1.1530190603856627
1.512622 -17.35546881542579 1.3185849008223562
1.52062 -16.86819673730925 -1.9863835955860196
1.528618 -18.70976298588038 7.987549824542509
1.536616 -18.032619122510958 -4.396836230507713
1.544614 -17.61148647420185 -15.980211494255526
1.552612 -17.73094215879601 -13.11139258542777
1.56061 -18.643552967379417 -7.631268606369828
1.568608 -16.99315326218107 -9.006766222033562
1.576606 -17.464499553125762 -27.290124801522904
1.584604 -18.590662635406748 -16.748260277851724
1.592602 -17.305493200220184 -17.445456063606226
1.6006 -17.35687615742207 -13.397596308105594
1.608598 -18.850769481626305 -29.930611214915597
1.616596 -18.337563832345317 -22.23705156954134
1.624594 -17.34100304436214 -20.786180366412548
1.632592 -17.64956870663843 -26.418600625165105
1.64059 -19.100041351186356 -15.492212564593533
1.648588 -18.79504875159635 -21.314433578126955
1.656586 -17.877076040114357 -34.832817354145625
1.664584 -18.441446106519287 -37.94643953824667
1.672582 -17.41818745273118 -22.08136322123023
1.68058 -17.911024624419166 -45.4276408352839
1.688578 -18.696598660290327 -36.75311493657658
1.696576 -16.6473777821571 -38.451193351711545
1.704574 -17.692086587856423 -27.095336528944962
1.712572 -18.71124196412343 -45.621441719196014
1.72057 -16.903836181036475 -50.791452118025845
1.728568 -18.052746349560707 -52.588776664297825
1.736566 -16.464841061580962 -50.43429340251596
1.744564 -16.649170394862317 -53.30986790667975
1.752562 -17.769503743250617 -52.01923322718434
1.76056 -16.94576782257276 -51.313762571858206
1.768558 -17.25944395543327 -56.0015437207381
1.776556 -16.56493494914538 -66.55232435605026
1.784554 -17.871472226308978 -69.58079240982899
1.792552 -16.779047579345466 -61.634150771303716
1.80055 -17.291199490631396 -74.51914202276957
1.808548 -18.180324474846614 -51.50821487456285
1.816546 -17.623349008977588 -70.75292677824645
1.824544 -17.449071504103944 -73.45622752881239
1.832542 -16.240081996334364 -69.76738133111219
1.84054 -17.577216577713166 -79.10281143227162
1.848538 -16.334894956661937 -89.06609600553914
1.856536 -16.009793592741236 -87.20617099757268
1.864534 -14.901811318289123 -99.43081209110247
1.872532 -16.64836216355904 -93.04599117439503
1.88053 -16.08720407352799 -101.8866471338321
1.888528 -16.54784219679281 -91.3682745059146
1.896526 -16.18402447845918 -101.75127458796536
1.904524 -16.845115648435296 -107.55129016657105
1.912522 -16.684985662864822 -112.49816472962512
1.92052 -14.782387993155787 -115.77098604407718
1.928518 -14.80703325059613 -109.46029678978994
1.936516 -16.27471873318776 -124.92241323366073
1.944514 -16.626006598433268 -129.81140446009366
1.952512 -15.795188200277625 -131.4674074872614
1.96051 -15.849306973713837 -127.38239579637606
1.968508 -17.644019277659147 -130.31983050048203
1.976506 -18.85387845472932 -157.63276949883644
1.984504 -15.149809098823601 -139.00244295911213
1.992502 -15.013146960087319 -151.28034311746444
2.0005 -18.032064474534476 -152.56939993208672
2.008498 -14.770147927608175 -161.6469680998969
2.016496 -13.987820516703277 -155.83736754851603
2.024494 -15.171582218351746 -166.62818340258767
2.032492 -13.28269022981013 -165.768062689264
2.04049 -14.83368520276297 -160.33389560755512
2.048488 -13.907277223402403 -179.42678395546804
2.056486 -14.686582310707049 -179.01510765148524
2.064484 -16.00228938505197 -174.42242085146248
2.072482 -13.40242010776159 -174.36046206777485
2.08048 -15.480835212162145 163.98065638802507
2.088478 -14.589295083370128 171.01522433300775
2.096476 -15.974589368449955 155.51641519795746
2.104474 -14.478668159467308 162.27660692274475
2.112472 -15.04412047189712 165.52264790628308
2.12047 -14.432917481660837 160.65668406402563
2.128468 -16.322590023292843 146.53528989969033
2.136466 -15.975267872547274 146.43011373868762
2.144464 -16.51674555507078 127.16781423725031
2.152462 -15.111924968972819 118.54004456771328
2.16046 -15.989357804409622 118.73548829209
2.168458 -15.435026170153225 125.69723004993624
2.176456 -14.96215966806634 117.46917727282829
2.184454 -13.846184452517342 109.5170002505374
2.192452 -13.36999307624346 99.87596104936037
2.20045 -14.260357795242015 101.07893490955473
2.208448 -13.609255068850938 99.56370180078136
2.216446 -14.915374831048972 98.4040075957637
2.224444 -16.494046382220912 97.63668505749858
2.232442 -13.403778574213705 97.45758621090414
2.24044 -12.69152550588382 78.60709720948014
2.248438 -13.67520461920013 68.22549145188036
2.256436 -16.04160360663334 53.92400044546362
2.264434 -15.014228505954998 45.10392596612671
2.272432 -14.830180855810626 40.85027053064291
2.28043 -12.39875821654403 39.70176785941244
2.288428 -11.229034217917064 21.65552266842809
2.296426 -11.40020340320911 28.11873994200595
2.304424 -11.242397058455897 41.676965187295664
2.312422 -11.950914794105579 45.64610901453162
2.32042 -10.766928089163628 20.291296014347875
2.328418 -11.360590518895386 10.37950855865422
2.336416 -12.358577786822853 23.458751333373815
2.344414 -12.406394388519741 15.83640107400314
2.352412 -12.361807489442265 -3.653919886010483
2.36041 -10.514552411976748 14.03371862915294
2.368408 -12.672545101105632 -19.595854040431004
2.376406 -12.287478193799913 -16.083253806913795
2.384404 -8.351597263842338 -20.10697043454919
2.392402 -8.922219645791792 -8.620895494308039
2.4004 -10.112592577234036 -22.41653958632255
2.408398 -9.042399265535813 -14.479594991899555
2.416396 -9.067729271939275 -22.21744524306749
2.424394 -8.93933270823997 -26.495506874016304
2.432392 -8.964040061699286 -27.03219619531021
2.44039 -8.749753182231501 -31.716011070525493
2.448388 -8.69488135693947 -42.201049088285906
2.456386 -9.01537386744325 -46.69927864644323
2.464384 -8.479565161225436 -56.072155901444454
2.472382 -8.485910086085397 -61.67702854884634
2.48038 -9.957143874394134 -61.69491797326867
2.488378 -7.750862817038511 -75.13826021666016
2.496376 -7.0560224488357814 -52.102352583204876
2.504374 -9.062089986131799 -67.0698953364848
2.512372 -8.131733845822167 -66.30355317785964
2.52037 -8.68944051003256 -69.80057420565309
2.528368 -6.492037861996629 -73.22544008942646
2.536366 -7.480172004132591 -81.21040986625167
2.544364 -8.673391773510478 -80.5360006772983
2.552362 -8.460963451849338 -92.33622295646143
2.56036 -7.475515662756264 -92.5768083250594
2.568358 -6.5327347055139695 -84.6644529394619
2.576356 -5.3568628677337236 -96.51885420543526
2.584354 -6.447034884800846 -91.83637239423946
2.592352 -7.945955116176727 -91.14604547737343
2.60035 -4.144960863422493 -93.15196162272669
2.608348 -5.3013004224729485 -86.38916514230297
2.616346 -10.453331213130607 -117.40164205558442
2.624344 -7.333489229125851 -106.37539277793192
2.632342 -13.084869884004707 -108.55849473134842
2.64034 -10.687966356395087 -134.92278686061982
2.648338 -12.053750741392722 -157.6603527421839
2.656336 -7.9266585817985815 -165.51458071043385
2.664334 -5.884577906597625 -179.3793556884131
2.672332 -6.618711027189809 -168.61311645989056
2.68033 -2.831249018510906 -164.09809029593433
2.688328 2.415077247614737 -178.72083826858372
2.696326 0.2869762703828627 -174.9098374558619
2.704324 -5.580224570764879 -142.24902851878988
2.712322 -6.7562300561684445 -132.61187534341218
2.72032 -5.068416565571681 -142.57607088663016
2.728318 -4.67994684945611 -156.8650727831642
2.736316 -5.281200143329592 -158.38947460398626
2.744314 -5.85163479656503 -163.98458472319376
2.752312 -5.349930760584741 -166.71092636202798
2.76031 -6.593161564349884 -169.45183560215185
2.768308 -6.490214723279668 -169.52635074583904
2.776306 -5.7368044113911365 -170.26248573968374
2.784304 -5.340006234767843 177.9989713280607
2.792302 -5.100912241584746 174.821552032416
2.8003 -4.598776335364363 168.69196139578847
2.808298 -4.5807414494123995 170.1911143111588
2.816296 -5.246978341854537 156.21884538604573
2.824294 -5.0121821521394425 168.7814694961728
2.832292 -6.13610715415393 156.8498506330813
2.84029 -6.776993710628504 154.30660293855084
2.848288 -5.93361098650213 140.13217700197126
2.856286 -6.15507092279067 149.27186771595973
2.864284 -4.882809204195239 135.46524153852494
2.872282 -6.4628765441561935 137.365471042494
2.88028 -5.24986904188701 130.95081340166578
2.888278 -5.15750474065908 126.46772614007054
2.896276 -6.103284362982536 122.87424333591606
2.904274 -6.704765986343224 121.20353679424893
2.912272 -6.350307969001411 107.48653599258262
2.92027 -6.92809726657141 107.02351770543736
2.928268 -6.289568252718238 100.95348975839781
2.936266 -6.301953637284532 99.87167175240361
2.944264 -6.058878942806764 93.77263599773025
2.952262 -5.690162723733985 84.4113921391543
2.96026 -5.449466436163003 75.62116810861356
2.968258 -6.7836868568844 68.34868585745063
2.976256 -4.8206127962582315 65.59343229802482
2.984254 -5.271676829467467 61.66765839447978
2.992252 -5.570672391430031 51.272291805639234
3.00025 -5.493659046781149 51.754950343643564
3.008248 -5.055599757964635 43.32043568279487
3.016246 -5.056431434204477 34.31288960354
3.024244 -4.172873511296235 34.01234629199316
3.032242 -3.8862007566316557 29.02404198224763
3.04024 -5.275182503141104 30.0028356776483
3.048238 -5.23948730330083 24.83042734677734
3.056236 -5.661573349217677 20.20773313301871
3.064234 -5.195923241537384 2.473458638805596
3.072232 -4.944256196521951 -6.199057000874847
3.08023 -4.332344271266393 -5.966865957459736
3.088228 -4.885600125796114 -13.593255918893142
3.096226 -5.268388451205772 -9.55637329353624
3.104224 -4.922756801490573 -21.968131436846143
3.112222 -5.373808036312214 -21.600740043584175
3.12022 -5.287763967378232 -28.453819755086595
3.128218 -4.530903820413385 -37.342280330362556
3.136216 -4.828746240617182 -41.58121261347068
3.144214 -4.575123335593253 -39.24698306141686
3.152212 -4.899088425311997 -47.86784450442588
3.16021 -5.015259016311151 -54.2783511842702
3.168208 -5.306721910920924 -67.38280557806505
3.176206 -3.4895506903827025 -71.5166191702499
3.184204 -2.491630536614504 -64.97802477498252
3.192202 -2.753934518276359 -59.934802822406134
3.2002 -4.153187115866465 -65.89033664419529
3.208198 -5.806706768296043 -71.80481799796407
3.216196 -5.359392563229889 -83.22490341526905
3.224194 -4.079090614421664 -93.75623555593374
3.232192 -3.475903317620767 -94.71892569744173
3.24019 -3.882197739902735 -90.44623395245007
3.248188 -4.289053451532245 -94.43662808967052
3.256186 -4.6204375146601855 -100.86381010269949
3.264184 -4.362524843190539 -107.34493421547398
3.272182 -3.6849299057571376 -117.4012655592694
3.28018 -2.8534281134530044 -115.50518002051905
3.288178 -3.3377852321219037 -115.11252384093626
3.296176 -3.8756404606670927 -115.8768382642091
3.304174 -4.364131699740401 -123.95482035184912
3.312172 -3.6314705536020844 -131.99566754188453
3.32017 -3.350802671969598 -132.8323272841259
3.328168 -3.237294826916238 -135.80292356650136
3.336166 -2.3424827122407463 -139.06924983371027
3.344164 -3.521858608325105 -138.7682696423289
3.352162 -3.1676690845177213 -144.57764916461085
3.36016 -3.718433829609031 -153.03666297721773
3.368158 -2.7542944512757614 -154.07276342071032
