!Created with skrf (http://scikit-rf.org).
# GHz S DB R 50.0 
!freq dBS11 angS11
0.001 -44.95860336830658 -6.782323352936959
0.008998 -41.0953217372921 -80.7560632194877
0.016996 -41.09490576318268 113.5989056632202
0.024994 -44.76986419785484 32.17461642690198
0.032992 -41.92490623603467 105.29618332001745
0.04099 -34.11096139297241 -0.7318299464558026
0.048988 -43.380453200444926 150.26106360184133
0.056986 -37.7677400808842 -131.3597579099189
0.064984 -47.887572511268566 -30.775959309679873
0.072982 -46.52885856957031 -47.06884564967602
0.08098 -40.27005654781927 -175.35989578201176
0.088978 -43.125994266907064 78.68395930806543
0.096976 -36.66146288661165 -86.0158457623961
0.104974 -40.13773986926252 46.53817937790436
0.112972 -36.37157092710983 131.9352971836538
0.12097 -45.761287887837796 -75.77833010317369
0.128968 -39.3522502062494 -151.8895994186389
0.136966 -39.96972201241543 -79.78100308874188
0.144964 -34.96216865880398 154.07666634743865
0.152962 -49.9600245799624 -15.1717617424844
0.16096 -32.71240719201631 -111.02510554530492
0.168958 -34.816943173123164 59.25503898740824
0.176956 -38.4724056938031 152.63351937155488
0.184954 -47.57902253406586 138.20919149845906
0.192952 -37.1880656623628 130.38006244074398
0.20095 -42.16177027318401 13.12667836427075
0.208948 -49.34380778371617 -76.10324657956086
0.216946 -46.479993434897736 -68.49712584565944
0.224944 -37.61803722352554 155.59155336782484
0.232942 -47.34167530873375 85.87851908174196
0.24094 -38.18101162224466 90.280733390032
0.248938 -43.457526280974754 -130.5569561990382
0.256936 -45.12582300870514 -11.201955635276875
0.264934 -42.455614494711426 137.67683674071822
0.272932 -45.54494792674669 124.50580306525647
0.28093 -50.1858956791522 -111.54447802401955
0.288928 -40.17854860123185 -30.309965311081847
0.296926 -41.63151483920871 23.13787257871452
0.304924 -37.221303045187305 -166.96846015202553
0.312922 -48.59892733094643 -29.465804808292017
0.32092 -40.654284263274775 -119.75189146349798
0.328918 -45.01344961554114 -155.04566638354024
0.336916 -47.11976573598441 81.28808251060285
0.344914 -41.7841543669269 179.9675829993198
0.352912 -39.0221970165187 -125.25657580576718
0.36091 -43.11092407406967 163.54489353186307
0.368908 -40.85516650751327 7.104198763421004
0.376906 -40.92218218578593 6.892810595754123
0.384904 -39.669760158780555 106.23189802430234
0.392902 -36.74308728736213 144.39818691647295
0.4009 -43.375862477677636 152.61739821153247
0.408898 -40.767088866233905 -1.0198427864111883
0.416896 -40.82899271398544 64.78231032101844
0.424894 -46.285964198177176 -122.02851667442519
0.432892 -46.523845170200715 -167.83358193596516
0.44089 -33.018275360698695 165.10825019628493
0.448888 -56.244125795491264 122.62620849203837
0.456886 -33.42539905878175 -59.01173044415719
0.464884 -42.31822084144846 -67.90183238506548
0.472882 -36.777848309432635 -68.59394339748245
0.48088 -40.84954626926614 -99.4972304205876
0.488878 -37.266157705223996 -133.30123791661953
0.496876 -37.49772318993566 60.61609101930102
0.504874 -38.6377799812029 152.43570498265078
0.512872 -40.56950001213109 54.4516057366782
0.52087 -38.03903261780412 30.681852713251196
0.528868 -40.696274782155584 -41.28929259321415
0.536866 -40.394098743310266 37.37934317483546
0.544864 -42.886502976764795 -29.782684717876567
0.552862 -34.95299628810839 -148.13437628485735
0.56086 -36.30022905648543 -34.4570014689482
0.568858 -51.22670690201164 -12.755488822845134
0.576856 -37.414373256449004 -167.97602097134177
0.584854 -41.42207500600595 -5.925487225158798
0.592852 -34.887878282535915 -164.6139538665854
0.60085 -47.93650520556216 -31.19046988190827
0.608848 -39.16668111450284 162.25194903524962
0.616846 -33.39898051976567 61.24347832473786
0.624844 -38.515332842109785 -12.0315296404307
0.632842 -37.986745019490236 -63.296054893680484
0.64084 -43.35482472058501 52.31589473615933
0.648838 -48.1487248638043 -138.2149433384217
0.656836 -41.61626797182342 -82.23177511479965
0.664834 -34.22932045419769 86.31293240614579
0.672832 -44.725907782042 -24.078909804370088
0.68083 -39.73038397573261 -107.14259664761505
0.688828 -39.91271467841374 -86.47437364967152
0.696826 -40.16456356828491 -85.68761358810153
0.704824 -43.15674627837821 132.06808526900275
0.712822 -38.0861258156563 62.9952325845429
0.72082 -52.018581115128285 62.5495390455337
0.728818 -41.581112509020556 109.20381476642591
0.736816 -51.86798326399778 155.75749002924104
0.744814 -39.87026941771431 -10.04219449242096
0.752812 -40.62909109364375 26.36263813428115
0.76081 -32.313833452288556 -132.1071523520419
0.768808 -39.64982692021759 -171.18083253794015
0.776806 -43.622167321163346 -35.22362665339924
0.784804 -52.84532866184623 -1.9538476321714142
0.792802 -43.32407875050875 -80.23186607010469
0.8008 -39.94681057516259 150.22552536496607
0.808798 -35.66139028940035 -165.37516180893755
0.816796 -33.98406252780656 -177.19672996684392
0.824794 -39.14315778807258 147.8934260372305
0.832792 -38.23866300486069 -125.65045859498973
0.84079 -48.433153066569844 -12.117114358152872
0.848788 -41.38931315157912 54.476337451098196
0.856786 -38.53304632243389 158.66198761825518
0.864784 -37.71332187504888 -33.533854844382915
0.872782 -37.943741049360206 113.24577645105431
0.88078 -32.45028385377366 81.91152146320724
0.888778 -46.687298899531356 -125.74100878820487
0.896776 -36.183870476368156 14.70144294102179
0.904774 -39.395396387133474 43.475728851162515
0.912772 -55.18462316246578 55.315122729465585
0.92077 -41.70315165420999 49.61646708216901
0.928768 -41.98112352101517 160.28212058463188
0.936766 -50.27574844918304 108.77245295224628
0.944764 -59.20232767251004 162.95597592857558
0.952762 -32.05854556289507 105.24794464423601
0.96076 -42.872781333568774 123.92859029070247
0.968758 -45.132043234485764 47.18648178207721
0.976756 -46.689114037699746 -57.36487872690272
0.984754 -39.72133535503345 -22.049762653483942
0.992752 -38.19069382053169 144.41519245735319
1.00075 -35.38501852741621 -122.19892804261148
1.008748 -32.88724552296089 -18.137509264868708
1.016746 -38.14569030331314 -8.13888803126007
1.024744 -40.038108928233534 -151.39733795104826
1.032742 -43.03094675874823 -128.2897272242402
1.04074 -36.40707733897689 -57.74140866068586
1.048738 -61.41531547955336 46.17741590948561
1.056736 -44.497713305917124 60.903257590263
1.064734 -36.684628699625506 52.51813725622312
1.072732 -44.53292849810762 148.4345677141287
1.08073 -41.42297365380462 -69.5715352827989
1.088728 -31.29736217101476 76.07542172500727
1.096726 -32.303051715346236 -57.85358020233966
1.104724 -38.424602349878285 -95.91142367813289
1.112722 -32.60957416317251 -118.64926650555824
1.12072 -34.949285435786116 88.15562804930195
1.128718 -39.52401098227134 -176.11127950150004
1.136716 -35.615274330929616 -115.78360273358344
1.144714 -29.816387010613127 -18.16483298013893
1.152712 -32.50139340702422 -83.9856543544883
1.16071 -40.72043951975033 -134.3082714255163
1.168708 -41.118897111165786 7.001367543536836
1.176706 -47.28049420058768 111.43977325977411
1.184704 -47.13885968966867 29.897640728143344
1.192702 -34.7191414516605 79.78508760373154
1.2007 -45.76323718301513 -12.566011571355084
1.208698 -31.3615638311084 156.19786919298215
1.216696 -37.88439269181368 7.111695015203933
1.224694 -32.84935685123512 -121.3720985015742
1.232692 -43.31298601444361 147.48987033892394
1.24069 -43.237627036566494 -67.32318249366288
1.248688 -34.801171512887336 -168.54182887314337
1.256686 -36.53753408342064 -114.73706739746859
1.264684 -32.946369574462324 144.6741628935204
1.272682 -33.398501149300124 40.45430322176076
1.28068 -39.74019576529818 38.64742960015485
1.288678 -39.72723988793827 159.56152838777373
1.296676 -32.901177897395115 -41.81828562726816
1.304674 -39.11679280411309 146.12034714709725
1.312672 -39.074465915746906 -143.16847376219505
1.32067 -33.892775795815815 67.16004710712288
1.328668 -42.22809659212274 3.3318982057260715
1.336666 -48.60938528816494 21.51668582067076
1.344664 -39.76433041395935 -117.40768031668998
1.352662 -36.093527601381986 46.36454905510147
1.36066 -36.868286340511126 -88.97193059160863
1.368658 -38.809266177833464 13.778423414156437
1.376656 -40.79056697664059 -166.51403580657842
1.384654 -34.069854554592865 -60.73687657811865
1.392652 -34.74065552173235 145.54867026077756
1.40065 -33.02393572428592 -3.8222529205916875
1.408648 -40.84783381033844 -141.01781120949934
1.416646 -38.033952024631986 -20.70328216806058
1.424644 -46.057024484580324 -9.67627807307977
1.432642 -36.72665413762549 -59.49207258344161
1.44064 -34.88168549965803 93.31082673368226
1.448638 -37.762748646796524 56.005393234614175
1.456636 -39.68411847624306 -117.92425999705726
1.464634 -38.28794994099871 -127.7465530197207
1.472632 -37.01059475947175 141.23357893833776
1.48063 -38.82164535516874 -146.206993882076
1.488628 -41.06585597707962 -41.78505791381271
1.496626 -31.28790659318751 -152.8707647161893
1.504624 -37.92176353443296 61.18900436603643
1.512622 -35.62648626266229 104.50892716601572
1.52062 -34.623937776269976 122.17533759151453
1.528618 -42.58554898758291 136.29373297780046
1.536616 -38.13828721964027 -88.78408792956644
1.544614 -42.85194974312881 -2.8068333247979864
1.552612 -34.41625951565008 101.58501282218818
1.56061 -38.71181521863741 -97.7960464470405
1.568608 -45.849748067608864 -0.9237244605470205
1.576606 -30.505648734095846 -124.36571431714928
1.584604 -38.884629182125906 121.77668503793996
1.592602 -42.8555791963283 45.37673352972397
1.6006 -38.95133974920032 26.287535002670477
1.608598 -33.91561721091212 -119.84187693584569
1.616596 -44.82367726523738 -84.75080450803463
1.624594 -31.027820433552442 -92.84914343870605
1.632592 -44.19373466798237 -170.3500446984598
1.64059 -31.147437139421434 -178.89916438237682
1.648588 -35.698933115672546 -173.02174563120997
1.656586 -35.880844756661325 -157.72073502005384
1.664584 -38.656817371153416 155.39338936271713
1.672582 -39.79934522388898 12.994192616990853
1.68058 -36.954878407206266 -75.19045244663015
1.688578 -42.99001797292877 -67.45149879339023
1.696576 -33.11700584013641 -70.96991301477503
1.704574 -49.140387441807064 142.73800336951638
1.712572 -33.64905778942356 94.81154022404336
1.72057 -44.84378136870297 176.17791458048802
1.728568 -50.6960891562228 57.15860677592801
1.736566 -32.06721185642061 -63.93269086059649
1.744564 -34.30048216162608 4.09568531233741
1.752562 -37.67520539864912 25.190211865524862
1.76056 -38.39006135172226 -149.64714236409463
1.768558 -36.91667614249165 150.49566214187016
1.776556 -31.755666880350407 -127.90641156442302
1.784554 -32.5674708978059 -40.75122213568054
1.792552 -34.198332507697614 -11.85582650523348
1.80055 -29.421959570278936 127.19796556178524
1.808548 -31.358283577662203 59.57601257469096
1.816546 -37.778782550201285 168.85391736201746
1.824544 -34.66316427282551 59.196900808572586
1.832542 -30.240593989397027 -11.141949638757275
1.84054 -34.648023310340946 94.19295996178143
1.848538 -40.29974116078732 -66.62000209100721
1.856536 -31.964706261754408 76.84360180056112
1.864534 -34.08968221467149 -110.81287674266213
1.872532 -29.545703293834393 106.6995916781961
1.88053 -42.818490471004054 142.6382743206058
1.888528 -28.590538316138225 -45.812093693979065
1.896526 -30.684033428411976 136.7201002310759
1.904524 -26.797810056544577 78.25207627180093
1.912522 -27.974711611655604 34.930253078597175
1.92052 -38.080067663088656 -76.90090952447181
1.928518 -33.13870079676836 -140.41385553180652
1.936516 -29.681504901123148 95.23310850442797
1.944514 -28.312998628382427 121.39223286266254
1.952512 -46.66175017625427 -99.6947415554806
1.96051 -29.75926430603348 -166.752358335498
1.968508 -33.65323837838656 119.15145171960017
1.976506 -30.624582365344637 114.76390559663076
1.984504 -30.93915923044481 -89.64231196567228
1.992502 -30.580683911280566 138.80033527920924
2.0005 -37.122836893898416 33.02446379929636
2.008498 -30.14854785392008 43.382327962228445
2.016496 -30.66462164074572 170.48067448927003
2.024494 -36.82436924756768 -162.83247187633552
2.032492 -26.65787184212535 149.3158096131234
2.04049 -34.274522437796634 -136.3113528891138
2.048488 -29.063651626143354 -152.38230530817518
2.056486 -26.73393977564639 178.08189198159977
2.064484 -35.423606615368314 165.19506613494303
2.072482 -31.90721424227497 143.69002757735026
2.08048 -27.716068895575333 66.56504477084141
2.088478 -39.71091710541577 -82.54481928444484
2.096476 -31.745141106753184 41.18199674781713
2.104474 -36.402146800218254 155.99056440686167
2.112472 -35.976998245316516 -66.2871542462219
2.12047 -43.771589189381004 100.97809076482535
2.128468 -27.970308719289907 -172.15379897072015
2.136466 -36.12810052229655 167.80410073552204
2.144464 -31.44200596032497 -66.74612778034621
2.152462 -34.27840125381873 -15.723786031084726
2.16046 -27.231433284922844 130.15920368388976
2.168458 -33.0784741653418 55.05532591273203
2.176456 -40.29469698775239 -2.8773444759419973
2.184454 -45.13776149062554 69.61209151172613
2.192452 -27.58640692404036 -47.980769762190896
2.20045 -39.3434689729921 1.611343022945434
2.208448 -27.57762182938237 18.802316597600466
2.216446 -33.88967094535216 153.12044787694123
2.224444 -31.226731489335712 -157.44528841023853
2.232442 -23.989460135786018 -171.0684862421415
2.24044 -27.696431472882153 93.18521153065863
2.248438 -35.29624339757933 -158.54917224053327
2.256436 -28.63358301546016 -59.780339221492646
2.264434 -32.94147027125526 40.11715804651091
2.272432 -26.765491212222546 -126.04667554540434
2.28043 -25.61337989488114 -42.178785097226324
2.288428 -17.2817350836616 -50.103173172151656
2.296426 -95.97732800212954 -40.97446799704254
2.304424 -29.408466898719645 -48.72795925721164
2.312422 -22.72440918154834 -161.12889978589288
2.32042 -33.9658860530215 -42.160465337615385
2.328418 -24.811309389110594 -100.31393190596705
2.336416 -23.705942008685685 172.43535232385807
2.344414 -33.16353131685495 -65.8486666036066
2.352412 -32.47793945394202 -162.21496449472707
2.36041 -23.30057537696254 68.04807545850608
2.368408 -33.334410710736776 136.2188620766184
2.376406 -34.36275708958544 -145.3048441787092
2.384404 -26.71110551174555 -66.3451316552229
2.392402 -28.554001194382195 154.9852338780005
2.4004 -30.89131934530643 -60.050128078244576
2.408398 -23.989463475755922 112.59203965535023
2.416396 -38.24338359572216 153.81619872786766
2.424394 -30.90917798636105 -34.5066018728779
2.432392 -24.746502532069677 165.38367882036704
2.44039 -23.80938118892635 -106.28769081899915
2.448388 -26.67669697010629 35.72751722975373
2.456386 -33.333565179614 164.2762623653339
2.464384 -21.782972956864846 -111.12926411485012
2.472382 -26.385696893355686 122.90280701485179
2.48038 -20.89524433330288 167.1050278256985
2.488378 -21.83116739611187 169.7490954285233
2.496376 -22.757442062231235 38.46172599369586
2.504374 -26.731304594003525 -90.50046809738289
2.512372 -26.517484707771658 18.334575835474453
2.52037 -24.704545108904696 -166.88183443467744
2.528368 -28.56433368068477 -142.41412408502623
2.536366 -24.926538967495638 -84.29583213959818
2.544364 -24.23836912545035 -0.28634012901851424
2.552362 -32.21383995417017 141.8909167148355
2.56036 -30.783404243418882 105.60296819607639
2.568358 -23.300472362612016 -0.3916950221214702
2.576356 -23.73361216920199 136.32088933814794
2.584354 -44.43492267229508 115.69753355369522
2.592352 -24.38400441763635 159.5343846752387
2.60035 -23.290865685748045 -47.434889475758126
2.608348 -30.641659635447176 54.64356422509706
2.616346 -17.07897614938198 -174.51376040455216
2.624344 -21.448400029087196 -41.12861909358204
2.632342 -20.890488062681747 108.86941096224285
2.64034 -26.826333809008986 -68.30749522064858
2.648338 -25.59798031085085 99.68622637757264
2.656336 -19.51842575308142 152.50637962158646
2.664334 -14.781632694809428 101.38764141186796
2.672332 -27.863650070300515 28.61591188655131
2.68033 -19.786221625846828 -132.21054645559968
2.688328 -22.07516651029826 -167.12903377976
2.696326 -29.186905340897297 -10.798930310326005
2.704324 -22.34315227264468 -154.67234237079828
2.712322 -30.125950407904316 20.584074887861707
2.72032 -24.626451442527397 -1.222076484050761
2.728318 -23.07732982312018 174.7029356622589
2.736316 -21.295781248277148 93.68226773492393
2.744314 -36.963043581968876 -102.2192622530166
2.752312 -26.67249936819147 -138.76554493326438
2.76031 -20.150334548290594 39.328756281383455
2.768308 -22.505491138476586 16.26967163859931
2.776306 -23.265606866134384 -102.44334601016268
2.784304 -25.754768275771397 32.159299782479785
2.792302 -21.67624032720147 71.84215097460817
2.8003 -28.046434333405262 99.87557277251301
2.808298 -27.524331077856527 122.42279361720233
2.816296 -20.521663349644832 -4.7422299289954175
2.824294 -37.79285028039329 -74.84428253711985
2.832292 -28.294126938702174 -113.92132800392265
2.84029 -17.544439170282825 -38.044163155934314
2.848288 -34.60004002126096 -43.6682166346323
2.856286 -29.25493336393645 -93.56754176604339
2.864284 -29.092144031921208 80.31236615441237
2.872282 -24.60075512048375 -75.883959541704
2.88028 -25.689154966873883 5.499981788420597
2.888278 -27.044073443659855 87.20828001763847
2.896276 -30.699485501329676 -178.24420902445013
2.904274 -22.76109901362634 11.223244050449612
2.912272 -29.61094851612371 16.94957353435067
2.92027 -33.56564876882275 -47.97169731487688
2.928268 -24.434780705928564 14.270596077344907
2.936266 -34.765374672081116 94.73808630356143
2.944264 -36.49719374940539 -100.50820966051832
2.952262 -34.23607567240339 -166.24905158463605
2.96026 -28.323065078312574 67.15356843178672
2.968258 -28.685678046319644 -39.71436215034823
2.976256 -33.15867077273 116.48681630181969
2.984254 -34.60242292378249 159.80358232932386
2.992252 -28.262661387387688 88.63203275204685
3.00025 -32.544514053767784 -16.970532502575452
3.008248 -30.736368962139228 14.028401556213185
3.016246 -29.39137795932325 82.62666905468525
3.024244 -31.941454465965705 43.91491338128076
3.032242 -28.91677766310119 24.99551918736508
3.04024 -30.313446592078698 -163.42119456301552
3.048238 -33.46557846364885 86.71595677675768
3.056236 -24.443417021502192 107.17870669139735
3.064234 -27.59528426756152 31.34922018275299
3.072232 -30.278131014618587 9.163206081909744
3.08023 -30.447616265155926 75.34513403304794
3.088228 -41.28013942506036 -66.96728642382979
3.096226 -28.16805057181388 132.25912380825616
3.104224 -24.523898439147512 156.460540764057
3.112222 -27.30903798553895 68.4606778635553
3.12022 -23.99561950340221 121.4779046333186
3.128218 -41.779476337975645 -71.5365929347249
3.136216 -28.77205488672017 146.20020240475924
3.144214 -36.93531040819306 -150.8040262628604
3.152212 -31.79811808865653 -174.97225796398743
3.16021 -32.22501507613828 -1.6396217635555954
3.168208 -28.492621137294822 143.128238883017
3.176206 -33.091784220803646 164.18974310359852
3.184204 -24.3728630367783 -162.39123292528632
3.192202 -27.393572718071006 -109.96931894982717
3.2002 -28.17457410978113 140.64481496053799
3.208198 -35.1209388495098 -157.67284005172328
3.216196 -30.498886212049786 114.00160214888739
3.224194 -42.875221892090494 -28.108983123913507
3.232192 -25.90450028283901 -163.98405909545235
3.24019 -36.20609606055503 159.18493224909847
3.248188 -30.049492394961092 135.30816901412675
3.256186 -42.19975241509963 -61.10540671344877
3.264184 -31.060903904526786 -27.848357808905966
3.272182 -28.117993889732954 -179.66135929986152
3.28018 -34.135044751209456 -98.67777552355578
3.288178 -31.36283789295397 44.66235836673707
3.296176 -36.6882516349679 -70.12087961352312
3.304174 -32.33834153447646 120.9980307436085
3.312172 -32.99243965131197 176.1643544381937
3.32017 -34.95682016832475 -91.42617574060193
3.328168 -22.505243181037034 7.043881391950948
3.336166 -25.06812040831683 -113.13247881067855
3.344164 -36.62684890751845 -62.11221912328376
3.352162 -23.44884396751775 -97.24779686621405
3.36016 -28.962083104900813 67.3068082290395
3.368158 -27.055832276511296 -78.11408540696867
3.376156 -29.472459570447317 -147.94598103303122
