!Created with skrf (http://scikit-rf.org).
# GHz S DB R 50.0 
!freq dBS11 angS11
0.001 -0.026124750733532782 1.2586231997211137
0.008998 0.02226533550408573 -1.0431744746738543
0.016996 0.009631026288018386 0.6506086011603258
0.024994 0.046620547233628615 -0.6427894948277751
0.032992 0.02397712896032651 0.16747657438045627
0.04099 0.032520789776773 -0.965537833766453
0.048988 -0.008971162130641688 0.3152855814848091
0.056986 -0.11961165188285144 -0.2285080391806561
0.064984 -0.0626378060394703 -0.21609356026809887
0.072982 -0.2016426805051364 -0.4561764649429633
0.08098 0.19576741395985953 0.74781508111195
0.088978 -0.026227079931416555 0.6923857572395411
0.096976 -0.0979077005748783 -1.2100737572064029
0.104974 -0.06948303368213196 1.5048620706714582
0.112972 -0.0346720931445596 0.35658278969636253
0.12097 0.09999791079961776 -0.6545935030441214
0.128968 -0.06331962170082214 -0.08149157179741594
0.136966 0.00020005435271985383 -0.39536986960254855
0.144964 -0.07174123798777046 -0.18418327895743739
0.152962 -0.0781390183543128 -0.21552692121705114
0.16096 0.18560804398805386 0.5432942467674237
0.168958 0.10553724667024028 -0.1731372728293651
0.176956 0.0851146214531939 -1.6411614906084133
0.184954 0.1258519159264865 -0.21579074638590479
0.192952 -0.08710289437254494 0.2662270411515463
0.20095 -0.06554297578799481 -0.07540123790992406
0.208948 -0.05678961807757445 -0.5887674917757313
0.216946 -0.0163521184657615 0.5570188679130544
0.224944 0.017588831625672662 0.31694409166296966
0.232942 -0.11642753250759083 0.42240744483003473
0.24094 0.0658376823383325 -0.8437488663888816
0.248938 -0.047720043041575455 0.1527646423472231
0.256936 -0.014155711792033638 0.2800258491993977
0.264934 -0.08922430260043437 0.014009015317151974
0.272932 -0.06288456876149219 -0.23718288570511334
0.28093 -0.07220281145304151 0.5604500338548354
0.288928 -0.02809390032094102 -0.3071311348131202
0.296926 -0.06552037734132539 0.06818281223899658
0.304924 -0.03833509672507128 -0.32395572361856484
0.312922 -0.006475775036493544 -0.42267584841436895
0.32092 0.058569716395245996 -0.1553629484617762
0.328918 -0.039123910976562246 0.29453605225158624
0.336916 0.05484780440780379 -0.0541082086852171
0.344914 0.04461533904388654 0.15771437120129386
0.352912 0.002601207610260273 0.1586350258603446
0.36091 0.015973452526577364 -0.022028173793000635
0.368908 0.0030043021219253096 -0.440103696616319
0.376906 0.0007894033749609857 0.08969686895139355
0.384904 0.009436218722346236 -0.007550685274360996
0.392902 0.042545230304384285 0.04236870488184208
0.4009 0.0046929703174040235 0.11012905639793441
0.408898 -0.010234689107024054 0.00804141412520224
0.416896 0.013222551750428479 -0.1385229795463018
0.424894 -0.0019980666449168813 0.15356964633380343
0.432892 0.018031856385170433 -0.06270822970618718
0.44089 -0.018598336952197037 0.2994713792360053
0.448888 -0.00814100590993701 -0.1507339436198312
0.456886 -0.0008400549589092375 0.0851249880015298
0.464884 0.018931748034403572 0.04909636817595708
0.472882 0.05402720101396286 0.2950222281978501
0.48088 -0.01413664055222534 -0.2985623628616692
0.488878 0.007976867185301247 -0.0017158142366093352
0.496876 -0.00694592718267861 -0.07893607312421481
0.504874 -0.03797082402986176 -0.6928486036923954
0.512872 -0.033684868477790834 0.03401282702210203
0.52087 0.023980107288211382 -0.43164955315504866
0.528868 -0.018296280711417465 -0.29453119887086915
0.536866 0.04919348947371617 0.3540357113836024
0.544864 0.034810040637848386 -0.6144196929516942
0.552862 0.02133177692734961 -0.11770715686968362
0.56086 -0.041286547502184905 -0.0641814660501332
0.568858 0.036235187852400895 -0.030554891973581445
0.576856 -0.03358367515393898 -0.2384804449059627
0.584854 0.03305362947107795 -0.43506747679994806
0.592852 -0.07516499332062583 0.2033609526246312
0.60085 0.031087939341589797 -0.02589329841559679
0.608848 -0.008779376841652546 0.012357138106440914
0.616846 0.028238789586806628 0.2330079296234298
0.624844 -0.04937051252130813 0.10365159692320729
0.632842 -0.04149970857370193 0.28630546716693506
0.64084 -0.006920925689159825 0.1639369333654767
0.648838 0.08893489988752284 -0.31943082717276766
0.656836 0.06746923669759142 -0.41160363225022495
0.664834 0.003019000115423666 0.031571284210726414
0.672832 -0.05653635829485999 0.19228749443543447
0.68083 -0.11123845941924704 0.38575786766026754
0.688828 -0.0334393052838204 0.6332675090665963
0.696826 -0.03216639047204206 0.36124359113934074
0.704824 -0.04684133236385708 0.09200430225855799
0.712822 0.18191958594240543 -0.3539951109988668
0.72082 0.03344394725143103 -0.765894576852618
0.728818 -0.09107468867714621 1.1773791660144848
0.736816 -0.0018863273571616504 -0.7400458041756792
0.744814 -0.08850208493191604 0.9233660665983552
0.752812 0.04929142966358057 0.15407824501864933
0.76081 0.20086648054688433 -1.0584224859423983
0.768808 -0.09714070800155852 -0.6561556146167863
0.776806 -0.1877706604110334 0.8349656497868055
0.784804 0.2243529770634916 1.610955677594733
0.792802 -0.04504407573171058 -0.6722470499148463
0.8008 -0.09112802553059011 1.0573749153937282
0.808798 -0.1772563889880882 -0.009685740488381304
0.816796 0.03577906494830632 -0.11251955032481417
0.824794 -0.18699437693611437 -0.5250383366547484
0.832792 0.0960752423841755 -0.2632325184372137
0.84079 0.05935005348211064 -1.4919077854885119
0.848788 0.0732895435371537 0.5843307822213878
0.856786 -0.1719956004300714 -2.7060717593456323
0.864784 0.08053936642327038 0.5642358899538502
0.872782 0.024002474282116833 0.8137446307749124
0.88078 0.01641124741756333 -0.6005119632957282
0.888778 -0.31989113694977983 -1.0921864758026543
0.896776 0.028269601672231956 0.3205279701887836
0.904774 -0.12854072388988802 1.3671352585285272
0.912772 -0.0006976226678367572 -0.07347939978604694
0.92077 -0.019804237313324563 -0.23040082741824733
0.928768 0.032839582847669205 0.04076967109193483
0.936766 -0.1600542512459936 0.39794889323102534
0.944764 -0.03539730541978026 0.2979936503934234
0.952762 -0.03717948360070604 -0.16205350259212
0.96076 -0.1622340043448096 -0.8104036878331395
0.968758 0.21141226807331953 0.08330784690909666
0.976756 0.09990293181169367 -0.2283184359518022
0.984754 0.09125543851281126 -1.152687732784526
0.992752 -0.07359063996785335 -0.8322949750082408
1.00075 0.10921362974116297 -0.7301667472257681
1.008748 -0.1721781251658176 -1.155759716189042
1.016746 -0.05383035418300189 -1.6024801031459948
1.024744 -0.042469838885238 -0.13125573351768396
1.032742 0.01719115026166434 -0.11939046529014888
1.04074 -0.18318859332617923 -1.6099154857507543
1.048738 -0.07461542174609286 -1.074782663446711
1.056736 -0.06620800310212996 0.49803995938962653
1.064734 0.02026463608352073 1.432809925352891
1.072732 -0.09605809913838789 0.28016952174628224
1.08073 0.12530255986929867 0.949748024089232
1.088728 0.1185844021542111 1.1144265510111815
1.096726 0.007124043095226984 0.13235019843083418
1.104724 -0.13572522001467216 -0.3560850877931194
1.112722 0.07036515888146551 -0.938398332390244
1.12072 -0.0946964202902423 0.2623946082985221
1.128718 0.012530667937320952 0.8396250150971467
1.136716 -0.14054811397618408 0.1503083983561246
1.144714 0.10497488243932186 -1.3392297121836025
1.152712 -0.1274120401620266 -0.5844493155666183
1.16071 -0.02887879349396742 -0.3457337551195435
1.168708 0.0438293227621684 -0.18522719242683053
1.176706 -0.001690218561312816 -0.1866955712570823
1.184704 0.07418228453395247 -0.5029531696354681
1.192702 -0.06492600469279758 0.033780169236238805
1.2007 0.16884188016458096 -0.39325817123506296
1.208698 0.06398027212667881 -1.2395583306939497
1.216696 0.07317488092643933 -0.34100090490163093
1.224694 0.05788548230881309 -0.35841867577826103
1.232692 -0.08320945162665214 -0.8696029847716481
1.24069 0.019217284815162362 -0.24830141464370475
1.248688 0.13702798185265347 0.1362035870869473
1.256686 0.008580094573279603 -0.007588377690169307
1.264684 -0.00026036973985950557 0.05792171405421944
1.272682 0.13941266367252886 -0.2735531518268512
1.28068 -0.02849718254175741 -0.26328267099702074
1.288678 -0.10376692544436547 0.09485571804796687
1.296676 0.1075452805179172 -0.2951351009979271
1.304674 0.0141841746571259 -1.1247236560741656
1.312672 -0.1523113323772502 -0.14863072626405702
1.32067 -0.09425120797597773 0.3892555946450364
1.328668 -0.031275951372540335 -0.2139889887541406
1.336666 -0.08356696878630676 0.7236571213507312
1.344664 -0.11791480874775301 -0.26368000074347786
1.352662 -0.14517805060136338 -0.6881159361039868
1.36066 0.13026804037337208 -0.6683361392946126
1.368658 -0.001064053434670547 0.7667695287578253
1.376656 -0.06293614420243075 -0.48924772763973556
1.384654 -0.012161194893911405 -0.3592838697669802
1.392652 0.038430606848770546 -0.6326513116807893
1.40065 -0.12395313675437175 0.786422064653868
1.408648 -0.041506600735070794 -0.632360451704408
1.416646 -0.21790197315728577 1.2828648862376524
1.424644 0.1151865842028173 0.1606644274092151
1.432642 0.0721786028391455 0.5015861990367684
1.44064 0.017226620303536968 -0.557090926844057
1.448638 0.09735601715389987 0.5293265113673304
1.456636 0.09538417763193362 0.3951480295957907
1.464634 0.08136191167758361 1.6975604183573878
1.472632 0.05694312315539116 -0.6035787142482246
1.48063 0.06472292905562942 -0.7792485885509339
1.488628 -0.023828084180771997 0.43619629299360585
1.496626 0.03542339343921249 -0.43518257447275277
1.504624 -0.10526057631993493 0.7770996949700625
1.512622 0.175820539519337 -1.4806094055434518
1.52062 -0.046652824081725205 0.714957249228401
1.528618 -0.010331108430451607 -0.5027980032868533
1.536616 -0.07830800676189026 0.3153403673594662
1.544614 -0.11434690848099513 -0.9962594284052951
1.552612 -0.09299585198042207 0.41873084729822707
1.56061 0.01986747353834479 0.4418315253662071
1.568608 0.017812703394251603 1.9675767205986832
1.576606 -0.0842325329753739 -0.11623968894207005
1.584604 0.0007195913547356827 0.721030124126317
1.592602 -0.11071059359324673 -0.027377397915388065
1.6006 0.009728365694509732 1.2093191777385737
1.608598 0.08784878843252095 -0.5840782146827197
1.616596 0.03793493997495452 0.02972704440278683
1.624594 0.0775523657552281 -1.1464475169767034
1.632592 0.08632812879336356 0.7846752915079939
1.64059 -0.002064248076261291 0.5707656385568775
1.648588 0.05519993219046174 1.409060239373964
1.656586 0.08921887377420126 -0.06265202933563381
1.664584 -0.04932717728372955 0.019287638806644847
1.672582 -0.15732233238356247 -0.026296380630829737
1.68058 0.2154348188473187 -0.42659161574263
1.688578 0.03997819174128796 0.12937568051346177
1.696576 -0.14206877962324285 0.10844445356674087
1.704574 -0.0003843905812339984 0.826784262170604
1.712572 0.09538878620493282 1.2872590215026736
1.72057 -0.09795850209640723 -0.7995104899199096
1.728568 0.14267595327916333 -0.5983915535838885
1.736566 0.05611758094054284 -1.1083444531453037
1.744564 -0.026849771347544387 0.22717507753801947
1.752562 0.008101024797277326 -1.7866279064453954
1.76056 0.07044238196288395 -1.0684531962049544
1.768558 0.22107740294122108 0.04662254121174629
1.776556 0.2060212821127103 1.396845025361113
1.784554 0.08312737738562546 0.12225610634745479
1.792552 1.1571929598639439e-14 -4.452776554048918e-14
1.80055 -0.1146794432059322 -1.1837297795325106
1.808548 -0.16516048572383368 0.562353791528309
1.816546 -0.09509707531285182 -1.2607288248509785
1.824544 -0.013981579053788775 0.5364347515402365
1.832542 -0.000361953876964872 1.3189965990909327
1.84054 -0.36126364480304146 -0.00572735005511533
1.848538 -0.03910780438502591 -0.2029615483936146
1.856536 0.02695684453419901 -0.5935571010375574
1.864534 -0.10094199863598963 0.7666758832485777
1.872532 0.14514820281224522 0.2032378296003922
1.88053 -0.1490853865764635 0.15338835689392216
1.888528 -0.026856294993234553 0.995541459039342
1.896526 -0.14050721308496547 0.7986984058309381
1.904524 0.04614458884375102 0.22656420956048898
1.912522 0.009541627219999436 -0.49812137183814065
1.92052 -0.24398791114863885 0.0172973564654987
1.928518 -0.3211172460708167 -1.5495619638153615
1.936516 -0.21422377941238083 0.2258585660067598
1.944514 0.02390329755633448 -0.16929943240645431
1.952512 -0.14196203623268977 -0.13432949118754525
1.96051 0.08773599701745093 1.409811686983367
1.968508 -0.02652610894233298 -2.652697040794916
1.976506 -0.17928238621959022 -0.3467217699631197
1.984504 -0.21253788161963155 -0.010371517245746404
1.992502 -0.20361995266024496 0.17972440337955856
2.0005 0.062429861431792 0.45561685058636775
2.008498 -0.15427151586479787 0.10687226694223825
2.016496 -0.024694763902972594 0.7806561347473268
2.024494 0.08331575531111456 -2.4726062588322373
2.032492 0.0948152215549352 2.7500727864104046
2.04049 -0.02580398464210481 -0.4670736875873456
2.048488 -0.15586207959050583 -0.5404961369026041
2.056486 -0.013361138958967638 -0.3566044411302958
2.064484 -0.3898623894255988 3.389941323811076
2.072482 -0.16905287969496885 3.8554076786214098
2.08048 -0.1537749667848194 -4.168444616290729
2.088478 0.2667792360804403 0.21377060085724675
2.096476 -0.18835303066668013 0.2887011513552555
2.104474 -0.06637539759011853 2.3423722909567073
2.112472 -0.17972846038066675 -1.105437955425902
2.12047 -1.721613942724894e-05 -2.3047298383639165
2.128468 0.3479108561607119 -4.02572748790869
2.136466 0.0746190757175545 1.4517736638433985
2.144464 0.527302375089536 -2.0241829701749796
2.152462 0.17606935801612225 3.182105427454898
2.16046 0.013215249286701761 -2.463238708922592
2.168458 -0.5092672332493344 -3.657541823705559
2.176456 -0.2704484606699827 1.2083096190361922
2.184454 -0.021632580881488207 -0.6609649851251681
2.192452 0.45576491615641657 3.865947591954063
2.20045 -0.2970155834796384 4.999399030820772
2.208448 -0.16285246580785623 1.1435359465951007
2.216446 -0.7490106644965315 -0.5773927700505942
2.224444 -0.20773096647708783 -2.481137068353651
2.232442 0.47853589031245913 3.288244852692059
2.24044 -0.18448520024949597 1.2766254769573189
2.248438 0.1285452928730384 -2.225885546823812
2.256436 0.3249747532446048 1.806795983475983
2.264434 -0.6051222222848063 1.7452871053124763
2.272432 0.33986895760982416 2.8441070605628433
2.28043 0.386440827714687 -1.23705315141042
2.288428 0.14162270747379047 -1.3396223352659309
2.296426 -0.713014931180725 1.3383713217868185
2.304424 0.6070042527893966 -1.1059734181995675
2.312422 -0.7019955663431949 6.224002099098788
2.32042 0.08029417604688477 -0.7152970170372697
2.328418 0.32718564887213947 -2.133478860884534
2.336416 -0.3835072128756983 -1.304192453483579
2.344414 0.4794586545827196 1.4533195315239273
2.352412 0.0007921165499052815 -2.8534624207108705
2.36041 -0.07790695025153645 1.019791086689466
2.368408 -0.6104459254382159 -5.302460320855014
2.376406 -0.44949542498035666 -0.089866606316869
2.384404 -0.14780784347803844 -3.273734961110157
2.392402 0.05532526945645724 -1.1777845786025123
2.4004 0.23047452173659766 -0.5961905284251879
2.408398 0.3578204656236491 -2.689874409441456
2.416396 0.3716254045382953 -2.1494557297927006
2.424394 -0.22327027949869005 0.5284358418072341
2.432392 0.027994059237132825 -3.7326739615143696
2.44039 -0.15426535569834443 0.6227071467006564
2.448388 -0.4253620041135179 -1.7376783510672165
2.456386 -0.0374042490492021 0.6978627452509447
2.464384 0.14117756993643069 -1.4838367242713517
2.472382 0.10392013390006277 -2.3396086918534196
2.48038 -0.3737269368944837 -1.6583496105130677
2.488378 -0.2927567014879503 4.337795025167306
2.496376 0.14370305312829978 -0.4685303029410593
2.504374 0.016976474206141307 -0.5943986780723011
2.512372 -0.2803830576016047 -1.2710367217435798
2.52037 0.34531518077609047 2.414184657488357
2.528368 -0.042378686207872066 0.6497164113571612
2.536366 -0.10377117387261263 0.6709782741982494
2.544364 0.09594686287551968 -0.8221338879878615
2.552362 -0.26264635473752873 1.0135141692806804
2.56036 -0.05954123164118691 0.38186089683669466
2.568358 -0.13743122651320283 2.7055747147473146
2.576356 0.48081257801345156 0.9966728235834835
2.584354 -0.13605809143494252 1.7128432986212674
2.592352 0.37500103015164976 1.3553606586608242
2.60035 0.016410889825564996 -1.582524802695368
2.608348 -0.011306145997854969 -1.0122636371658351
2.616346 0.1500371429805272 4.982536950519402
2.624344 -0.161231183102646 1.2781625525961526
2.632342 0.43717029912464866 -0.22438294426009484
2.64034 -0.2516214621777222 0.5019829569424262
2.648338 0.1513714109573493 2.5957791364258824
2.656336 -0.49687451770044555 -2.671987284056197
2.664334 0.6705429053235414 1.9643726903610357
2.672332 0.3404929592801881 -3.2297432051669483
2.68033 0.07070602678111088 8.618810666325798
2.688328 -0.7715328534410495 4.8580444114456
2.696326 1.0203367383534088 3.8224196280340594
2.704324 -0.11935454915693974 1.0701711167738992
2.712322 0.2374327329476185 0.9560047215655554
2.72032 0.01427772139818614 0.9441847736906512
2.728318 -0.04468409749549965 -2.205638861232202
2.736316 0.08610837997331144 -0.8693162997910193
2.744314 0.17378460258787917 -1.3807467681919394
2.752312 -0.13412890787398676 1.0606056220011444
2.76031 0.013698068794626487 1.8664113551292927
2.768308 -0.023123557885282794 1.0151130592881175
2.776306 0.05148304034571705 0.4306153144505835
2.784304 -0.33021209968985565 1.6422715006118382
2.792302 -0.08897335959665822 -0.5333103633871484
2.8003 -0.023710973920451413 -0.35194687871244623
2.808298 0.022536105081354774 1.109926900355445
2.816296 0.4244285361009139 -1.0620721009948617
2.824294 -0.0669513313099944 -0.6333515331730891
2.832292 -0.1847893953365204 -2.0829889192695963
2.84029 0.4217793596347681 -1.2027638423045546
2.848288 -0.36456031246286297 -0.8901719179263512
2.856286 0.6317789825006264 0.5449560563281343
2.864284 0.2363126934107759 1.8220944716707104
2.872282 -0.21315054835103095 2.30837191399996
2.88028 -0.19940114192170247 -0.8842578638679016
2.888278 -0.08835396357997452 -1.769432438457602
2.896276 -0.04206768730758478 -0.04647801044959435
2.904274 0.12176082306092724 4.144169349240854
2.912272 0.1408786094378178 0.5448319858268069
2.92027 -0.20179365673472044 -0.670350553380669
2.928268 0.0687807628251858 -0.6033969273329085
2.936266 0.33941069253775624 -1.2850064106964958
2.944264 -0.06876700169167058 2.7370235538818553
2.952262 0.4183132278839897 1.1903548767984258
2.96026 -0.2343920431842148 -1.2824922253005222
2.968258 -0.061946569894728194 0.045353719931226555
2.976256 0.3968392634228527 2.4209087779749665
2.984254 0.2069138209810137 -2.584815411723877
2.992252 -0.22019690787541293 -3.2077610344560132
3.00025 -0.19772752060335141 -1.5079942810263927
3.008248 -0.04325376126473688 0.9035070707945297
3.016246 0.2740659529014893 0.743062751410738
3.024244 -0.6249028893839674 1.3980229604361227
3.032242 0.02253820210173864 -1.3497721042013884
3.04024 -0.7137479686753228 -1.0098341555518167
3.048238 -0.07563683673395352 4.789029435911903
3.056236 0.3732081991099727 3.2721544314490427
3.064234 0.20343643773371406 -0.09021463937686479
3.072232 -0.09165855829745895 2.2287726534292513
3.08023 0.11171618576475507 1.1368861898783744
3.088228 -0.4038148259124344 1.1148224648055522
3.096226 -0.210421100924652 2.352797700145507
3.104224 -0.23389181583267635 1.2128879272469018
3.112222 0.04489348781701463 -0.12921978991979854
3.12022 -0.06299293871171055 1.0426399017261019
3.128218 -0.10256468088384783 -0.993566788984902
3.136216 0.12017015626982455 -2.181392943093641
3.144214 -0.3347760362036468 0.16374592269970317
3.152212 0.07784518431839946 -0.039981912764547746
3.16021 0.03626560647968436 0.6523753847862255
3.168208 -0.650017285053877 -0.8644854604735692
3.176206 -0.4313039313450946 1.1788597136105143
3.184204 0.19074906858171561 1.8238688267211653
3.192202 -0.41244769105278295 3.429342397758213
3.2002 -0.3531096447227638 2.525354716579128
3.208198 -0.3346100161871046 -1.6123632262232626
3.216196 -0.3935581893525689 1.0935784901214842
3.224194 -0.054049831021638156 0.8034040925839471
3.232192 0.25315917554968626 0.57569516384
3.24019 0.09790502881198057 2.6834026336660552
3.248188 0.32797579333090415 1.9283457635766366
