!Created with skrf (http://scikit-rf.org).
# GHz S DB R 50.0 
!freq dBS11 angS11
0.001 -59.66726109985657 139.3606938202758
0.008998 -56.05874149879721 51.54927631744913
0.016996 -55.790888566838355 28.850087184621625
0.024994 -55.52347686784313 13.730819429565758
0.032992 -55.494181547402704 0.8228365978024303
0.04099 -55.49634349432048 -11.114679497870013
0.048988 -55.747964652052985 -22.174018865139782
0.056986 -55.939891456176355 -33.51290549081782
0.064984 -55.8880252934337 -44.0386197676846
0.072982 -56.08868786586178 -53.3247169836011
0.08098 -56.21797573415457 -63.8768968269344
0.088978 -56.21025054223986 -71.72858043003107
0.096976 -56.40316010960032 -81.31254915641985
0.104974 -56.27411928656584 -88.3418761310079
0.112972 -56.17548563137642 -95.34716248162658
0.12097 -56.3473130645821 -104.33751472065316
0.128968 -56.44426616285537 -112.08830606939004
0.136966 -56.49587360802509 -118.412682002163
0.144964 -56.45820791014592 -124.57580590331426
0.152962 -56.532168462811555 -132.61842261604238
0.16096 -56.639144572759804 -139.0556313116367
0.168958 -56.45277158296646 -147.6511181448853
0.176956 -56.55885462958594 -154.33279780329886
0.184954 -56.62811189344069 -161.31535904555815
0.192952 -56.70000636301645 -165.312370290444
0.20095 -56.804701104897745 -170.13204127390082
0.208948 -56.92034367753386 -175.96511834416052
0.216946 -56.888737116153024 176.69316217313613
0.224944 -56.81616447810587 169.14489230765852
0.232942 -56.8836144853051 162.60943769933638
0.24094 -56.815371858839335 154.06621794008666
0.248938 -56.89684064158617 148.2157680620096
0.256936 -56.98988122582335 141.19565193122466
0.264934 -56.821639304235845 134.7860404764968
0.272932 -56.79878775069946 127.11115217590319
0.28093 -56.86163884442899 120.39855668307077
0.288928 -56.836652753304584 114.32665254373983
0.296926 -56.79053300389664 108.62591570016835
0.304924 -56.59912207832589 105.0739220115496
0.312922 -56.593720825005256 100.02811137464091
0.32092 -56.56946498839365 95.84203149953404
0.328918 -56.476075873992954 91.98835745470238
0.336916 -56.42165863636955 87.49379312087977
0.344914 -56.39836648570373 83.64392665132122
0.352912 -56.327402499257445 80.90622110352639
0.36091 -56.263543568392656 75.99823400724557
0.368908 -56.35097734166142 71.97319375553397
0.376906 -56.25361360984363 66.52217872752233
0.384904 -56.182877945335804 61.191496024523154
0.392902 -56.08642377200037 55.78290312986802
0.4009 -56.0629705512339 50.33653944597282
0.408898 -56.07545768025257 44.4762759291837
0.416896 -56.07300364838957 38.70316153210347
0.424894 -55.970316112107895 33.20808122352555
0.432892 -56.107184417556795 26.752125033660235
0.44089 -55.84783085934171 19.832893093339695
0.448888 -55.89076981606678 12.93686176270066
0.456886 -55.90870045832097 6.645918213697164
0.464884 -55.876646222372344 -0.8598807132370891
0.472882 -55.94077537505182 -7.865878340052517
0.48088 -55.81971951175545 -15.006869620006926
0.488878 -55.85925437940033 -22.03620354417926
0.496876 -55.917475595236816 -29.575844455317583
0.504874 -55.76655067935092 -36.18196116482418
0.512872 -55.757930544728076 -44.084405082038614
0.52087 -55.761203816055804 -50.566044574378374
0.528868 -55.69295408331244 -57.85822654541397
0.536866 -55.70062211014027 -65.63671954519229
0.544864 -55.64144228128579 -72.69317026505247
0.552862 -55.57694724549811 -81.44330577237267
0.56086 -55.56549490608096 -88.73373212084616
0.568858 -55.46113204294333 -97.44057561013543
0.576856 -55.343511055843635 -105.06860873598609
0.584854 -55.28141293201806 -111.68357972742366
0.592852 -55.1959656539001 -118.00607728836101
0.60085 -55.139227260258146 -122.76774934357799
0.608848 -55.14840863262708 -129.13415591831952
0.616846 -55.25647729103063 -134.3742628384344
0.624844 -55.174037327205845 -140.34918130428338
0.632842 -55.09234210458047 -147.13555659941608
0.64084 -55.22175784284806 -152.04582119266883
0.648838 -55.230567228185265 -159.08009661484434
0.656836 -55.192888557557126 -165.97393608792078
0.664834 -55.30655582305947 -173.37433862882264
0.672832 -55.18965030511491 178.7036778905084
0.68083 -55.166014892944574 170.95599725243565
0.688828 -55.214184662242914 164.3771349521714
0.696826 -55.18174501263694 158.71060481206933
0.704824 -55.22942226031312 151.2554013157812
0.712822 -55.3414208650176 143.39371545070532
0.72082 -55.4501126139283 133.41568525430523
0.728818 -55.41181628408466 123.33311497531398
0.736816 -55.35456385518374 113.07549485966973
0.744814 -55.3009570690537 103.59472581798313
0.752812 -55.32497780091135 94.5060843087076
0.76081 -55.35175519882158 85.0525535421996
0.768808 -55.267650729572544 77.32484563677166
0.776806 -55.29431467242838 69.23611207655978
0.784804 -55.231838536135854 61.72477618070173
0.792802 -55.252203827789266 53.87976352123228
0.8008 -55.36650562892036 47.565586570697896
0.808798 -55.29951921724437 40.23389240384836
0.816796 -55.37056484638369 33.51247247443594
0.824794 -55.30998027290625 26.83062222974594
0.832792 -55.35913159881492 20.471213835429683
0.84079 -55.3327292125115 15.005310334643953
0.848788 -55.32082612105799 8.778564950375555
0.856786 -55.49232555068823 3.465654931670849
0.864784 -55.47363572815718 -2.506489003809014
0.872782 -55.54470096774704 -6.503701998587857
0.88078 -55.54025941736795 -11.437988569992767
0.888778 -55.62145556016242 -16.531145343749625
0.896776 -55.67685049249721 -22.031324248664216
0.904774 -55.76722423846113 -26.944893268459715
0.912772 -55.85467433903204 -32.1247949848021
0.92077 -55.866631384438676 -36.95106210338988
0.928768 -55.861608965038336 -42.50785786734767
0.936766 -55.946092868615274 -49.00290975533163
0.944764 -56.00012267953864 -54.32373764504246
0.952762 -55.89769856551062 -60.65486188503914
0.96076 -55.96566773024112 -67.28177765308853
0.968758 -55.949749633037555 -73.52806645959838
0.976756 -55.989121766551115 -78.78888190744412
0.984754 -55.924605487092755 -84.80549856782868
0.992752 -55.80241836547344 -89.82043621413976
1.00075 -55.89737592985994 -94.63184943251387
1.008748 -55.88412467000501 -99.41766731423937
1.016746 -55.73045663359479 -104.25207342962665
1.024744 -55.750037129187376 -107.39138440466829
1.032742 -55.71961480706569 -110.95132561312884
1.04074 -55.77542878956132 -114.24402142603046
1.048738 -55.74914386867992 -116.2859414051986
1.056736 -55.73204297370865 -120.17001783012002
1.064734 -55.73579305382576 -122.10932404310851
1.072732 -55.77395217084488 -125.11649920957423
1.08073 -55.87794934232761 -127.74791639513336
1.088728 -55.84312949189215 -131.97046038498627
1.096726 -56.04596386960679 -135.3262630431198
1.104724 -55.976953359921055 -139.7313981792195
1.112722 -56.10574745343438 -144.10578818319067
1.12072 -56.02950505289969 -149.14674163240906
1.128718 -56.05376059970957 -91.75539785674181
1.136716 -56.068438974856 -96.30421606300688
1.144714 -56.26232026985046 -102.1543196049966
1.152712 -56.115045641225116 -106.84645439501229
1.16071 -56.11605688863665 -111.87906557157429
1.168708 -56.13540199876304 -117.00293991274178
1.176706 -56.15729746635972 -121.96578643802347
1.184704 -56.26473926615013 -126.60482025199006
1.192702 -56.29989785083788 -131.94137155486698
1.2007 -56.29986808494641 -136.31035615277887
1.208698 -56.11349689286867 -140.9622929370762
1.216696 -56.39404168053559 -145.8305850809307
1.224694 -56.37115214963746 -150.11233848718848
1.232692 -56.47888154437524 -155.38734511843128
1.24069 -56.51539387198807 -160.2250143338612
1.248688 -56.432146734349416 -165.91686262940658
1.256686 -56.54482959007666 -171.66248706914692
1.264684 -56.53689756491663 -178.38867568798233
1.272682 -56.73269055049376 175.6513041881088
1.28068 -56.67500369817112 169.0694475146041
1.288678 -56.61875926028664 161.59642336835427
1.296676 -56.670223248484035 155.67511843807802
1.304674 -56.74668787775174 147.58621445586894
1.312672 -56.67675739839108 139.49569406440796
1.32067 -56.84335389123304 132.13776246623505
1.328668 -56.8269429949951 123.89983589817972
1.336666 -56.758001526330986 114.97442186466938
1.344664 -56.73711585551959 106.4121427273921
1.352662 -56.79665221683642 97.16236620083933
1.36066 -56.61277951409361 87.33933588174864
1.368658 -56.626311643982916 77.51932730177835
1.376656 -56.502259790223015 67.4400651672152
1.384654 -56.34140707719902 59.39643542937325
1.392652 -56.477416972626045 50.219386878165025
1.40065 -56.55979156041393 42.85316057289846
1.408648 -56.5331874013074 34.80021182715596
1.416646 -56.68887925604479 29.05474570251066
1.424644 -56.8251514845643 21.932642210424902
1.432642 -56.98956631899078 14.984421155227189
1.44064 -57.232842109067235 8.923147012922332
1.448638 -57.356884007779165 2.146783026337268
1.456636 -57.494692595713445 -4.9672879568927035
1.464634 -57.592147126721194 -11.320528668129866
1.472632 -57.860226920310566 -16.726474410574653
1.48063 -57.9940128153376 -22.455389910704284
1.488628 -58.07676688857731 -27.973016733563824
1.496626 -58.354239921094674 -34.341130132451184
1.504624 -58.45493254475062 -38.441166585005305
1.512622 -58.60185267607942 -43.598320119376446
1.52062 -58.697880777601796 -47.2585205296466
1.528618 -58.90728563897977 -52.963120536690305
1.536616 -58.87667663892364 -57.622018742472534
1.544614 -58.925371265950616 -62.83118644631746
1.552612 -59.00155213392203 -66.94606180147734
1.56061 -59.16120001054025 -72.21246264580431
1.568608 -59.13476125615685 -77.65703169301624
1.576606 -59.64784388042886 -79.31995941863944
1.584604 -59.495186869677056 -84.56959673860368
1.592602 -59.429622187001534 -89.25083786218026
1.6006 -59.59178248252336 -93.47222076507114
1.608598 -59.857702316373675 -99.3449551473333
1.616596 -59.80149969756137 -103.05337987714978
1.624594 -59.8156976472347 -108.02987728526819
1.632592 -60.035595611646244 -111.46232676081628
1.64059 -60.13781086731921 -115.2754780648935
1.648588 -60.26918513250429 -120.19136692566028
1.656586 -60.3503073248353 -124.82434638733902
1.664584 -60.523865633396845 -128.53928413141637
1.672582 -60.53165205059564 -132.86643240383884
1.68058 -60.730708253056456 -137.51890511936136
1.688578 -60.867205980534536 -141.26482897134986
1.696576 -60.97584740560546 -146.06154134811297
1.704574 -61.053359950901125 -149.31791478462716
1.712572 -61.330416428968846 -152.97991210051717
1.72057 -61.42187474606221 -158.23061643483072
1.728568 -61.634641167475934 -162.70379568723646
1.736566 -61.78120244586958 -167.7617658652251
1.744564 -61.81759714082486 -172.8974376854068
1.752562 -62.06219288958512 -176.49247698103562
1.76056 -62.38641383903176 177.89308622084425
1.768558 -62.57659785466869 172.93538990400472
1.776556 -62.83215031876408 167.50371740168728
1.784554 -62.97170873712063 161.33849517439197
1.792552 -63.026047951456505 154.08059079461535
1.80055 -63.31310865848458 149.62053925336878
1.808548 -63.02667181436148 142.1610894605076
1.816546 -63.385482917669975 136.67127888460834
1.824544 -63.36649479585908 129.9150957096373
1.832542 -63.708948119014686 121.95773770255921
1.84054 -63.63378961380831 117.20759101835934
1.848538 -63.79747231325239 110.96490426709764
1.856536 -63.61330865594531 104.94500617083106
1.864534 -64.20396241283572 100.68492524219032
1.872532 -63.822598203695705 93.95729524438136
1.88053 -64.08247655792208 88.13706269416993
1.888528 -64.14810316554727 79.26531136408636
1.896526 -64.26607522263667 75.21368585762113
1.904524 -64.187282309635 68.65843195727167
1.912522 -64.3030793275241 62.580192762111785
1.92052 -64.5708819935955 58.08590996139777
1.928518 -64.82091628516989 50.92453757469334
1.936516 -64.62014302621597 43.073866921873176
1.944514 -64.68007329805803 35.52364369403264
1.952512 -65.15883535433375 28.273683984909965
1.96051 -65.4246484414245 23.769691260145816
1.968508 -65.39983497012484 14.23288763179631
1.976506 -65.23561657064897 7.866795282268661
1.984504 -66.01543343765096 0.8729248489955398
1.992502 -65.8336308867357 -7.425788081949233
2.0005 -65.89825993690891 -18.3899591852481
2.008498 -66.27427163601583 -25.225126138734563
2.016496 -66.2163887495099 -30.427911269315675
2.024494 -66.44636825221119 -40.998496173714784
2.032492 -66.52360320118747 -47.72551987798462
2.04049 -66.69886224370963 -57.44420204011449
2.048488 -66.23789717011296 -67.17360703638664
2.056486 -66.13175992425057 -76.46356756136116
2.064484 -66.28443655760566 -85.79725038936189
2.072482 -65.89890910546472 -92.43970854403452
2.08048 -65.96036932987465 -103.86103825371502
2.088478 -65.98113479758948 -110.72515067221603
2.096476 -65.67307674258693 -120.82068654683877
2.104474 -65.48971885726077 -127.52721309474906
2.112472 -65.71011044576795 -136.48848009233222
2.12047 -65.21468123808764 -144.32320280233301
2.128468 -65.24976158415933 -152.0057779020924
2.136466 -65.12851566531906 -161.14965095843212
2.144464 -65.24877199354661 -170.10012864453878
2.152462 -65.17612520549838 179.47166480865798
2.16046 -64.9648279920491 173.67408546377064
2.168458 -64.9393909959703 164.1252242837799
2.176456 -65.16876457724246 157.39079268246797
2.184454 -64.8605260499401 148.0754649136593
2.192452 -64.84869402646555 139.94999911668017
2.20045 -64.73865628046248 131.0914750717511
2.208448 -64.80006703061521 124.39149419498591
2.216446 -64.53769915075827 118.375683647146
2.224444 -64.37610180331306 110.41571904501187
2.232442 -63.989710819681704 102.89133928390528
2.24044 -64.19025892728031 94.01013337652934
2.248438 -63.94594280308195 89.19783349963626
2.256436 -63.99010548907629 84.23245068708546
2.264434 -63.91918733070742 76.62836869006559
2.272432 -63.75694835618372 70.92716779316241
2.28043 -63.80034255836555 63.98968245189152
2.288428 -63.93561019419016 61.74591150672881
2.296426 -63.55624932578516 53.23990513723726
2.304424 -63.13372032843585 47.066704495219696
2.312422 -62.692086300904634 40.08441274265826
2.32042 -62.880715664986695 34.47727816595216
2.328418 -62.70051791189012 29.36292617142572
2.336416 -62.7024283124992 20.916065739643802
2.344414 -62.62530718813494 16.567200540635657
2.352412 -62.47427722995263 10.210218893926607
2.36041 -62.5858561518358 3.0387136867238054
2.368408 -62.306899865148175 -3.1321471377680212
2.376406 -62.31963026324647 -8.103292886321269
2.384404 -62.41901462341991 -13.779633627915063
2.392402 -62.40098088282204 -22.22896873467204
2.4004 -62.19204077065089 -27.86302319496476
2.408398 -62.3854526799651 -36.02749729921704
2.416396 -62.153175447109355 -43.48367153316906
2.424394 -62.111482358197605 -50.123197265417005
2.432392 -62.030696988626474 -58.57876899347748
2.44039 -61.73304934097971 -66.13672682541191
2.448388 -61.63627763346434 -73.34276482768574
2.456386 -61.55504064045553 -82.58353866361381
2.464384 -61.28839320850355 -90.59071846644505
2.472382 -61.21790589242296 -99.07741539300434
2.48038 -61.326050179704495 -108.27407274759523
2.488378 -60.94245661735552 -117.10894978884167
2.496376 -60.96896640571116 -123.41936997814919
2.504374 -61.024441216625135 -132.51032905358363
2.512372 -60.853006343040796 -140.51304169095118
2.52037 -60.87765880608083 -148.49818822579456
2.528368 -60.75774165822377 -156.31149120681428
2.536366 -60.683537433577364 -164.05460409907712
2.544364 -60.93080371322312 -170.56415985328982
2.552362 -61.25596067501186 -177.64580514050255
2.56036 -61.3786916530392 175.5617323414182
2.568358 -61.39181049728461 169.61098611179565
2.576356 -61.74198409520432 162.0151011979095
2.584354 -62.06738245100679 155.74676942340446
2.592352 -62.50511613182975 150.3512026842801
2.60035 -62.851529214185106 143.17100376962355
2.608348 -63.19830222481744 137.5283215641718
2.616346 -64.16010187899371 130.6783614184593
2.624344 -64.1846848316174 125.71538987203257
2.632342 -64.66762641895596 122.75748304304541
2.64034 -65.20721834864719 116.2090172240014
2.648338 -65.87729343362025 113.55609315340855
2.656336 -66.49559456451365 107.80273063767119
2.664334 -67.0025484500705 104.82550147713073
2.672332 -67.71439061707288 99.05548239017845
2.68033 -68.61838627563716 89.60736424887665
2.688328 -69.77854464602444 86.4103675603965
2.696326 -70.16870200487303 76.98732910555613
2.704324 -63.73451961105609 61.43400311654655
2.712322 -61.72570529402072 55.793047476249484
2.72032 -60.22351421808252 52.995719390768045
2.728318 -59.482075641744444 52.92450936129754
2.736316 -58.87571504232395 52.47801233555147
2.744314 -58.82227551191086 47.87580468075257
2.752312 -58.9239167016676 43.00001277752724
2.76031 -58.67288209454223 36.35788183326145
2.768308 -58.453234757459725 27.73591172705604
2.776306 -58.339933381129214 19.100002663121316
2.784304 -57.55092403341698 11.826252580856464
2.792302 -57.053143193679794 4.720512251104894
2.8003 -56.53919339746389 -0.9280433303597615
2.808298 -56.18122423797311 -5.915866865204598
2.816296 -55.85109323333321 -11.584307896300771
2.824294 -55.67859245560737 -15.53822737774465
2.832292 -55.40377369499296 -20.902007164212844
2.84029 -55.269888945498565 -26.79152428385728
2.848288 -55.145667985736026 -31.12791153632492
2.856286 -55.12846401232335 -36.45454862538625
2.864284 -54.852445880018614 -42.04096325228252
2.872282 -54.973426796826786 -47.45182891334851
2.88028 -54.764725571250196 -53.64762417238966
2.888278 -54.65612087005567 -60.16259180388187
2.896276 -54.491899279259044 -65.66142974459972
2.904274 -54.313445546968865 -72.2942085026247
2.912272 -54.08603284950548 -78.35783188932011
2.92027 -53.853200166473805 -83.49756350777349
2.928268 -53.341192249485026 -36.14667499019538
2.936266 -53.21277053278848 -40.568802080378646
2.944264 -53.046984123155084 -45.64692900139113
2.952262 -52.92238724569401 -50.359454830325554
2.96026 -52.786263425131736 -55.36905754676839
2.968258 -52.73970847489153 -59.90687200849594
2.976256 -52.57027199541685 -65.51001103583049
2.984254 -52.43625445565502 -70.63089913654635
2.992252 -52.33627371553613 -76.54067663329856
3.00025 -52.17690055220929 -82.29201415531331
3.008248 -51.97740377582071 -88.64230607036588
3.016246 -51.69078325798864 -94.42000068721956
3.024244 -51.374147073856385 -99.83004891655695
3.032242 -51.054613858753505 -105.2710134503105
3.04024 -50.75495342567922 -109.60148484924797
3.048238 -50.568895704871196 -114.00485524902535
3.056236 -50.42542722853614 -118.8129551894877
3.064234 -50.39760965613068 -123.14910144950383
3.072232 -50.30625680686497 -127.87082594666789
3.08023 -50.21675935543303 -133.29862796074164
3.088228 -50.150248397603114 -138.87582285799513
3.096226 -50.08260299860774 -145.36950860482773
3.104224 -49.93531729554938 -151.586422791133
3.112222 -49.8671292692499 -158.6193119861161
3.12022 -49.64537864738101 -165.60481297203702
3.128218 -49.476919061331905 -172.39672219336276
3.136216 -49.23691846201015 -179.05176226079374
3.144214 -49.00021306437871 174.57913980585798
3.152212 -48.83108798069708 168.27604986288554
3.16021 -48.66848392317989 161.60870409140202
3.168208 -48.42055404784372 156.04331624027492
3.176206 -48.254331896156266 152.4588716865738
3.184204 -48.2838529500483 148.62499225408635
3.192202 -48.34657992946071 144.373940081392
3.2002 -48.5534010441024 138.900178578495
3.208198 -48.827027696090965 132.93882170813202
3.216196 -49.0670183984399 126.05170889583786
3.224194 -49.18749711783058 118.16742436143284
3.232192 -49.26847861010339 110.00657873422713
3.24019 -49.22962904469924 101.91679273921805
3.248188 -49.050704205237416 93.85925926630497
3.256186 -48.76327697767218 86.36637973113469
3.264184 -48.44232418392751 79.71582179112475
3.272182 -48.140173368492924 73.15664117561013
3.28018 -47.75126407637018 68.10960065057431
3.288178 -47.55952310041422 63.61354371649044
3.296176 -47.40836068601807 59.63048394206107
3.304174 -47.38677930730394 55.82819560488016
3.312172 -47.44800409092622 51.8062009039024
3.32017 -47.621755334558856 47.58622289771808
3.328168 -47.89456089407728 43.0849306571101
3.336166 -48.283001843264195 36.58669753506581
3.344164 -48.51685823854325 30.33181772381291
3.352162 -48.698365695755314 22.452419845682428
3.36016 -48.8175523204867 15.50691990295157
3.368158 -48.730893320146976 7.775919566996842
3.376156 -48.617157617197 1.059443029009534
3.384154 -48.43172935580011 -5.25007497851375
