!Created with skrf (http://scikit-rf.org).
# GHz S DB R 50.0 
!freq dBS11 angS11
0.001 -34.92651786608291 77.7264424982984
0.008998 -41.653763107001495 -26.45382942177397
0.016996 -39.73421501042603 27.83480132162566
0.024994 -48.241017648344446 15.082635228885577
0.032992 -44.02616347289687 -95.02412831811047
0.04099 -58.38524140219995 4.853400263984049
0.048988 -42.09481807110515 -99.90567764459787
0.056986 -43.96598868433463 9.073099250179013
0.064984 -41.50584853126052 -7.517117552363253
0.072982 -65.12876841121282 -91.85574542344487
0.08098 -46.78387334105602 -161.6499047072915
0.088978 -45.86854858804145 23.033043752081458
0.096976 -50.65012579704075 23.980643148805537
0.104974 -35.20366100358176 -57.38435675569055
0.112972 -46.43848016698125 -25.344851315995705
0.12097 -44.09467119829867 142.17382179996918
0.128968 -41.47391829817071 -169.28673635003005
0.136966 -45.06147407207507 179.8599432791481
0.144964 -38.77978001152647 39.7108408138294
0.152962 -37.842328103696616 -47.87199263126744
0.16096 -37.70015581672057 -76.95602673940645
0.168958 -49.11982899745696 113.36728416800285
0.176956 -34.31880096563169 -49.39978370261981
0.184954 -47.47145472219742 -61.523808457493324
0.192952 -45.5151690304676 82.8072271675339
0.20095 -37.060818450701724 86.0450594837255
0.208948 -42.98470836882596 141.48329475615034
0.216946 -42.85811603144908 -144.96549777915857
0.224944 -41.65906645808523 127.98700303657789
0.232942 -45.43394552355188 125.09292372369151
0.24094 -35.79373795670933 25.561842044867515
0.248938 -41.54369215318894 -63.6425942231303
0.256936 -40.94441967335194 -128.4061863835261
0.264934 -37.09395577221394 -54.38756301559686
0.272932 -42.37645048732781 74.60258650800736
0.28093 -34.1843387607991 28.524416007976317
0.288928 -34.65855526699503 10.127639970653812
0.296926 -40.23432296867037 117.26940397859481
0.304924 -46.00357992203158 -115.06491233480045
0.312922 -37.504147786986984 171.56106592711558
0.32092 -42.905903812036364 108.07915782397328
0.328918 -43.07607369685496 -40.82395920818439
0.336916 -39.60949885376726 4.315969700810893
0.344914 -32.72604409994532 -11.141623096893483
0.352912 -40.88429453981284 170.85246678433995
0.36091 -53.26128769541881 -24.458236892557114
0.368908 -47.64719631382016 1.857762720079629
0.376906 -38.22273033951097 -59.80015459940108
0.384904 -33.750281923679644 96.08664269223173
0.392902 -47.516552368855486 19.69852251754792
0.4009 -38.21015231523947 -18.552089610398873
0.408898 -52.19737532126697 171.24038728965806
0.416896 -39.34384261918514 -158.20444949071745
0.424894 -48.20583454722657 -69.19221613016319
0.432892 -39.139896740749556 165.45861934233864
0.44089 -42.35255852087974 165.3104648976145
0.448888 -35.310788779944716 95.76057627373893
0.456886 -50.63541719622624 151.3487121025216
0.464884 -40.301470960714894 -131.77765686723606
0.472882 -37.15326522166188 -105.0101468243751
0.48088 -40.51652911409586 155.70636296647723
0.488878 -34.47274437948391 35.293917790720414
0.496876 -40.78758210821754 167.77655533517404
0.504874 -45.99102846986463 -43.41249811232942
0.512872 -41.51897476279312 171.43394274893302
0.52087 -39.700056657844065 -78.64942513101276
0.528868 -43.24369660743159 22.170521157578214
0.536866 -45.18476685759792 -87.21214234879776
0.544864 -43.17305892779493 -35.44225948912121
0.552862 -46.53471855870771 144.63172599705183
0.56086 -35.993522052947576 146.2540399931621
0.568858 -42.186230963804014 151.80997616789563
0.576856 -38.03445503781531 -137.2930353697244
0.584854 -41.66919996297301 7.652271252727338
0.592852 -43.70737777532895 -130.3075142106875
0.60085 -39.053988580045214 -32.81070057939844
0.608848 -36.91852687571786 -29.772082923733542
0.616846 -35.84676480378763 154.73834073212885
0.624844 -34.71668933835167 77.60409037790005
0.632842 -45.05402101847225 -16.251736095669482
0.64084 -56.26481567144865 -77.25464732580167
0.648838 -41.545349676219274 -148.17730632662148
0.656836 -45.14127692047538 -75.17275008684297
0.664834 -39.69680320952686 11.686962048367223
0.672832 -40.81269609879886 -17.798699223676692
0.68083 -40.08816298990496 -33.28487379206606
0.688828 -44.07222228370909 -26.317134824024162
0.696826 -53.38474205214901 78.8862952756336
0.704824 -38.03572748000944 -63.539234455898374
0.712822 -35.67882056110048 -5.35832186871804
0.72082 -37.49954702660724 92.55245333803639
0.728818 -48.48898180517092 40.469703717787
0.736816 -56.11637192779513 -31.338231934852168
0.744814 -34.63534244640266 -8.265424826646845
0.752812 -45.10345711246594 109.3155523395643
0.76081 -41.75342116209258 19.74070040016865
0.768808 -36.04159685305551 88.79840143939487
0.776806 -36.327023506005965 76.21209958305637
0.784804 -44.74380154445732 23.673324123240594
0.792802 -45.67206440532808 173.91019318105694
0.8008 -39.81820703777252 -59.539309673709994
0.808798 -33.482778438952295 -124.07028945737368
0.816796 -35.84584176592023 -155.94688861407735
0.824794 -33.54603268893492 -42.4193679627567
0.832792 -42.58220815632133 -178.51283658732936
0.84079 -44.934748339713025 -68.02342526336525
0.848788 -33.27131711194938 65.6544126945765
0.856786 -36.578148338730344 43.147682308243134
0.864784 -39.00885207857761 44.29878836624815
0.872782 -38.37181095820085 -25.712721914600536
0.88078 -48.337445721845626 -6.951991892926632
0.888778 -44.98118668079722 -91.5473094496428
0.896776 -36.32391730689168 -1.843562897698827
0.904774 -32.79568207369872 112.03003174697426
0.912772 -36.977371898122556 -37.94876990686764
0.92077 -39.13989775087848 -44.9538760079286
0.928768 -37.07314574404794 109.11995207493864
0.936766 -43.4922913629204 -16.32218307391815
0.944764 -38.997010314538784 -50.21247328994037
0.952762 -38.08115250212933 44.17058262431549
0.96076 -32.126200947091114 3.503958383188555
0.968758 -39.263096351680446 -38.83978812672954
0.976756 -39.90514658294687 -30.722166491567258
0.984754 -36.74656622547996 133.28120649858988
0.992752 -41.646018937307204 -172.10547718644222
1.00075 -40.340587911126846 131.3367147182373
1.008748 -40.183060764963415 -176.9285735492679
1.016746 -37.30135323245276 -88.04368984345028
1.024744 -41.73485694529268 -132.38117819968895
1.032742 -38.859413213599 -4.796475188885159
1.04074 -37.321618505998664 -119.42624559820858
1.048738 -43.26827651318193 -164.27575165460956
1.056736 -29.641714304959223 -109.37281444301642
1.064734 -34.58148917835316 -27.979790402957285
1.072732 -42.43786967174066 -23.164437107951525
1.08073 -34.978503221250776 108.60227025240451
1.088728 -35.84114269656682 -71.28537641393213
1.096726 -35.46878838444294 -46.07926272922854
1.104724 -38.17669223676085 -111.15116681529544
1.112722 -51.37977892049565 32.83710734381257
1.12072 -41.3276203862945 -55.308605946115236
1.128718 -33.1926592499537 100.74069168270518
1.136716 -38.60813649957718 31.41647226727688
1.144714 -44.0913418524726 -159.170480462672
1.152712 -33.54694487933746 115.45182461793068
1.16071 -37.406815445561065 169.56019346027753
1.168708 -42.21384632133714 76.54944157647492
1.176706 -39.16568334910592 40.47275604511458
1.184704 -44.73342292392661 56.5087983195443
1.192702 -39.878460104027624 159.61667024225872
1.2007 -37.134635298249215 -78.19663488951227
1.208698 -41.85196916258637 104.32860443700541
1.216696 -49.86744354550829 29.95593547310244
1.224694 -46.916227401592394 35.04055074141854
1.232692 -41.72439718941752 -50.76915291145669
1.24069 -43.10502470643261 129.54794709937983
1.248688 -38.31416659789993 111.53012718800628
1.256686 -29.453066909209515 -62.76493312903381
1.264684 -35.5368961494765 34.55097518771269
1.272682 -45.16429605370999 28.20796442196421
1.28068 -37.54255420111785 -143.31734726997337
1.288678 -38.091771252151744 161.946790465877
1.296676 -34.81966255307955 -86.19827607038007
1.304674 -39.10762578046673 -148.21115938990246
1.312672 -41.62607416600209 97.91156930738339
1.32067 -40.7803884276766 -71.44163919724832
1.328668 -30.67429031954532 14.951203561299597
1.336666 -43.74162623731729 -20.32167900107229
1.344664 -53.98583672092384 -158.53212786983417
1.352662 -44.756798933113195 -69.1039096152619
1.36066 -39.922585548821715 -81.26071861587448
1.368658 -35.71819339535003 118.56951680753747
1.376656 -37.898155831158874 -167.47682423066402
1.384654 -32.79040979146021 -0.46851981113598873
1.392652 -57.59707437960016 -11.241838612159178
1.40065 -35.114754748238646 5.286086125322868
1.408648 -32.47978661954542 14.612784764656979
1.416646 -38.49033877133012 78.53874505605961
1.424644 -36.29227000844541 -35.56014378467452
1.432642 -38.33738679050715 -52.784201523364494
1.44064 -39.44536586234595 -43.15870885626423
1.448638 -44.089231930438054 4.261554776459284
1.456636 -45.924790891687536 22.37345229840828
1.464634 -38.355575250304966 -127.74133980238257
1.472632 -30.597207473259665 109.14210987652774
1.48063 -37.35049984312796 -92.81947054409261
1.488628 -33.70099531529679 48.80263101134463
1.496626 -44.65079682754053 -147.52683672310968
1.504624 -43.50136606369297 -75.22032707752734
1.512622 -31.54393334540959 17.463904284586324
1.52062 -30.3431139824388 -164.10923821798153
1.528618 -29.378804277435414 14.332340597857103
1.536616 -31.441813230607206 159.3962107381001
1.544614 -34.20558640207163 -120.4650254776093
1.552612 -36.25212088868311 -99.47567610836848
1.56061 -36.95645149144568 -8.557619882453968
1.568608 -36.884162812177244 43.33712747832107
1.576606 -28.716297320255215 -87.9500325277061
1.584604 -35.496798873399015 5.29510106961937
1.592602 -28.25343568491291 -134.73172873391007
1.6006 -38.150754202031365 126.60910510436388
1.608598 -34.961402820667224 118.17967289577746
1.616596 -40.35397736847199 -37.185719540230224
1.624594 -36.40281451420717 162.48299476120187
1.632592 -36.26485175605428 169.45897204281223
1.64059 -37.0406968380754 -150.64573466562948
1.648588 -39.778680176442464 73.20523895169201
1.656586 -49.73616196280885 -81.89502110302836
1.664584 -47.54474909371076 26.769783940967052
1.672582 -43.30422010445118 -143.71398494619362
1.68058 -35.39578039506074 172.56490752851929
1.688578 -41.15054808002563 137.71820417056782
1.696576 -33.83205169100553 -104.26405521422286
1.704574 -32.351465942752114 68.18708666686643
1.712572 -31.985795477738094 59.913213797987716
1.72057 -30.024611440978305 -110.95745490270234
1.728568 -38.815410209309135 -32.603820944083985
1.736566 -34.61430148312262 153.36166657232997
1.744564 -32.23863568188959 -33.698700571447105
1.752562 -40.17998733039282 -11.135999796094746
1.76056 -34.78775264396126 -141.60276965650323
1.768558 -26.767972722716035 -98.15978500639226
1.776556 -37.96115747169526 -56.754867011546345
1.784554 -46.79024391058894 -60.71055148048953
1.792552 -40.32781500476253 -62.94045336017212
1.80055 -28.863673087708513 -25.90288428257667
1.808548 -38.37979349962619 127.55862205012058
1.816546 -32.41390966277331 10.4718282999459
1.824544 -40.74134658830374 115.42148739369496
1.832542 -27.04502914843949 104.02893716660037
1.84054 -41.53507394840494 67.42515718833498
1.848538 -42.14310655793801 115.23189194852029
1.856536 -42.781270427977304 -3.2926400073943554
1.864534 -33.55378208672373 -40.546297403384735
1.872532 -29.2679399406595 -74.99494373503487
1.88053 -28.573595397292813 -54.56124568903335
1.888528 -35.14201952787202 -171.81216658045886
1.896526 -30.40158309286753 23.904569046271323
1.904524 -31.151977458297328 -61.961160595440795
1.912522 -28.292372378027952 -116.39275419667995
1.92052 -27.835137254472198 -179.47349143739459
1.928518 -35.570961187271244 120.34196367619529
1.936516 -24.57289501237168 32.06415146199651
1.944514 -30.62923401907099 -136.8371552380512
1.952512 -39.9914288825751 131.8144364916071
1.96051 -29.454970575772297 -22.548144552592053
1.968508 -37.29268283415725 -127.77459349958386
1.976506 -28.661638009741882 -97.18343873551815
1.984504 -26.962966546155293 9.141774250124696
1.992502 -29.166891989737678 -121.66754466532949
2.0005 -28.3951839951309 141.8242521324895
2.008498 -29.414280635553727 137.63659093936064
2.016496 -31.175850602041464 153.0058389953955
2.024494 -31.728282133052993 -135.6139436510644
2.032492 -28.090049505954077 -127.72250430844515
2.04049 -27.852175931012326 91.38344434689614
2.048488 -36.06065515473532 68.8077208925867
2.056486 -30.410072092960988 -71.27387044325111
2.064484 -29.019863361861127 175.1786835435564
2.072482 -32.8489361302151 40.118156956556106
2.08048 -38.249765254693465 -39.270193687121086
2.088478 -28.39269971820493 -69.87985440033641
2.096476 -25.974488371671583 -167.29859876057506
2.104474 -31.88616085779441 15.952635055718353
2.112472 -25.793909995453994 28.523749866521154
2.12047 -25.177363165200106 116.2355424415645
2.128468 -46.176045354260715 -133.29757754836228
2.136466 -32.84099615366002 -38.789984290401264
2.144464 -38.81099866771439 -11.29605555977279
2.152462 -35.999915281103995 45.361849828731685
2.16046 -23.787709943671878 -46.67476915312632
2.168458 -34.63518884026474 -65.73668401880322
2.176456 -31.351078813198537 -41.85015465229732
2.184454 -36.01552418858466 -32.60436620326693
2.192452 -34.99004603610351 115.48662881924609
2.20045 -33.16757792064414 7.304043370741867
2.208448 -45.895989930941795 129.76510205625883
2.216446 -34.071251707532596 -42.63553999758671
2.224444 -42.27372824508385 129.68774933907503
2.232442 -24.606757053284035 -35.672137256862925
2.24044 -26.431210105091534 63.895407466954524
2.248438 -32.1680952711063 -161.8487377721016
2.256436 -31.891896451610435 65.75154494694632
2.264434 -25.902985605274253 -88.99020536791787
2.272432 -23.27417032258677 74.02172780520002
2.28043 -36.80804377781002 143.5267775304173
2.288428 -30.52972484625394 -56.90315250859996
2.296426 -28.8005180360522 110.69890781455015
2.304424 -38.50360550335484 -78.57867463427662
2.312422 -31.230122124574613 -137.1796027023935
2.32042 -25.317334292777886 -12.457078557534235
2.328418 -20.500780194997873 26.48869780977271
2.336416 -29.13039329961194 165.83183788048706
2.344414 -27.243825847491276 158.5260838197988
2.352412 -27.648267417755328 -158.6088159166712
2.36041 -32.91548747322782 108.43635208720882
2.368408 -30.002060252414054 120.95030446397999
2.376406 -24.676149907467327 179.3592491684189
2.384404 -23.834605035491023 61.975231683094485
2.392402 -27.88616739300479 143.32847873428165
2.4004 -25.886861683292356 169.8878544312074
2.408398 -42.74065454542811 62.830651035848454
2.416396 -23.98868003732675 15.08154358573603
2.424394 -23.433722581598204 21.318993998746148
2.432392 -24.22112060070546 123.31182656808022
2.44039 -30.10030562626886 92.80563283354458
2.448388 -24.724710574736903 -160.83863297448346
2.456386 -28.776351093471973 67.9513090499047
2.464384 -27.88983247154876 -14.397777718325552
2.472382 -31.384245908652858 -44.939390954581036
2.48038 -20.17069401442807 109.30123030803585
2.488378 -23.520548077864074 30.973401638135527
2.496376 -23.74593305765434 173.51486005993067
2.504374 -20.999771449682044 -95.76589892345125
2.512372 -27.3772363649799 172.3697611889511
2.52037 -24.61991701839292 -127.44290646493404
2.528368 -35.67410365015549 -41.02279206397375
2.536366 -24.01882176896828 120.97631677543302
2.544364 -31.0308111393612 157.52126720305262
2.552362 -26.025969351503058 -122.1626227220957
2.56036 -30.674216512634963 102.83541884166743
2.568358 -21.368468819376176 145.20410408976593
2.576356 -23.36029993839397 114.11241084032757
2.584354 -22.939885274187848 -65.30408142057415
2.592352 -24.287938298358917 -168.6834864290727
2.60035 -22.154043414138044 44.56061715717637
2.608348 -31.298343600425937 59.402681155634134
2.616346 -16.573883358272194 -167.2049933352647
2.624344 -16.513621716115733 72.71265621325779
2.632342 -24.771029334290663 -97.79125781696575
2.64034 -20.044321371584157 -21.48567915052287
2.648338 -26.528483647291104 86.13841091754192
2.656336 -16.715971882880908 -104.83155356187471
2.664334 -16.74042609040769 48.59422594847725
2.672332 -15.472755717557652 -28.828413709579685
2.68033 -19.962004797919267 113.4948344273692
2.688328 -17.996400757299025 5.327725735937565
2.696326 -23.38716939109048 -164.1994566074678
2.704324 -23.095916494946366 -152.75487256813943
2.712322 -27.61161350218389 -76.81107774752299
2.72032 -17.786860253302027 -179.80810202356585
2.728318 -24.369486458179637 -118.57176922452159
2.736316 -29.93592353404155 -83.56290856563078
2.744314 -27.46648006017809 -68.528390040194
2.752312 -27.432613818738826 -138.71085690305037
2.76031 -25.53154074131598 -177.67906675694434
2.768308 -31.722431578259986 163.7551071171145
2.776306 -29.164913299519682 123.78393415989271
2.784304 -46.923703323718016 76.24723418333777
2.792302 -28.69481991848796 149.34547861398923
2.8003 -17.045441497708488 158.56109023528325
2.808298 -33.2388187425102 139.14235598376223
2.816296 -31.897503109499546 -11.96436095811966
2.824294 -33.070966769886404 179.66365972505446
2.832292 -23.36057399500396 125.2764471583294
2.84029 -37.463303815398746 -97.46409319585302
2.848288 -28.873238071965773 40.340860854504406
2.856286 -28.277018009306158 129.34959240358862
2.864284 -26.192674468628915 65.00445618142216
2.872282 -30.162384031028733 111.37737114319094
2.88028 -28.757267343153387 82.56563935540757
2.888278 -29.877086826189156 -108.8260641760163
2.896276 -23.59273815017221 -124.42837326751177
2.904274 -34.05520693556183 -19.505638355172167
2.912272 -28.95063412308386 82.48839079141602
2.92027 -27.87954604757404 81.21413193781979
2.928268 -25.212524403448047 47.64451405923848
2.936266 -24.472696021517308 -104.12898651480032
2.944264 -35.83432713153386 115.12778543360098
2.952262 -29.954915770962522 29.81431366558813
2.96026 -33.409099322368064 96.73590001985164
2.968258 -33.34381859292951 162.2785435425017
2.976256 -33.17078535329105 -87.68745984815614
2.984254 -34.65764989507861 9.75439567612485
2.992252 -36.82589572487093 67.0567198901156
3.00025 -27.757767601412425 -31.698406150455963
3.008248 -27.132691537085776 133.31272891245507
3.016246 -40.42333287528055 73.8868761346863
3.024244 -28.990587774919653 137.46318682955902
3.032242 -26.708590296858382 -146.1723496818831
3.04024 -35.60065025454599 25.69520110275889
3.048238 -30.88230854136121 108.93967418264661
3.056236 -37.07350763104173 163.7316899919329
3.064234 -36.56124916804612 -79.92582844326832
3.072232 -38.186299039060295 -28.80122179473176
3.08023 -29.124391209401416 30.702004447857508
3.088228 -31.463140865418854 -61.40707581684235
3.096226 -43.92626658771566 -101.32295956210538
3.104224 -30.517196191751204 -65.31756275715232
3.112222 -29.449716822222676 -140.28662415371448
3.12022 -30.983349944766026 -89.90424254628485
3.128218 -30.598027967612715 -110.40458059771743
3.136216 -25.808909323402247 52.67294451269036
3.144214 -31.99087898955362 63.22930878191492
3.152212 -47.483834325410506 32.510667024236824
3.16021 -24.55368527502637 112.8748222804897
3.168208 -31.218629411362976 37.111959489065086
3.176206 -31.17034338467715 58.29716377942765
3.184204 -30.12714780357203 -0.31957504621175165
3.192202 -37.25139975311304 -178.85772611791242
3.2002 -33.01543710097102 106.5925392217211
3.208198 -31.211854896874968 82.92326926312329
3.216196 -35.61731438509607 72.7698843911806
3.224194 -36.54406856737314 18.958616537627332
3.232192 -23.647802027338845 -9.429005640470296
3.24019 -31.203443176499196 -98.54562214798719
3.248188 -27.52197273153451 -43.91024113762042
3.256186 -25.881613257905578 176.08244343711095
3.264184 -25.428126257410327 38.52064370476858
3.272182 -27.383321106821725 37.84230706805685
3.28018 -33.85951461373314 31.28585256631863
3.288178 -27.574730028726833 134.4055884333132
3.296176 -29.135436148539256 -156.59365684481688
3.304174 -33.6893645917763 -159.30948585119143
3.312172 -31.69677899499661 177.14613091899426
3.32017 -26.895746743005805 -86.43006977872925
3.328168 -37.55854762135833 -22.22808537047439
3.336166 -34.3923180792147 115.96260267417951
3.344164 -40.787762252000164 144.1556970032813
3.352162 -37.10262093956553 -136.33249999878782
3.36016 -32.177763680810244 56.44916051055004
3.368158 -30.533988899693675 -100.94543486047613
3.376156 -27.14240640509385 56.53451044643072
