!Created with skrf (http://scikit-rf.org).
# GHz S DB R 50.0 
!freq dBS11 angS11
0.001 -0.07542639812224601 -179.6008736466601
0.008998 0.022796989113756674 179.91656666113028
0.016996 -0.02453532739346301 -179.75867448769364
0.024994 -0.00996239004990946 179.61423223936802
0.032992 0.026145313960778477 179.3911276742251
0.04099 0.023584507692436116 -179.7517757849492
0.048988 0.046204449605279856 -179.69672491434108
0.056986 0.02920039976171915 179.7329436525161
0.064984 -0.005661827058597804 179.875998795444
0.072982 -0.010311006435228112 179.72391426200204
0.08098 -0.0431446872392141 179.8192028136059
0.088978 0.02911988761223876 179.73272036646128
0.096976 0.01925969929513473 179.74752808671707
0.104974 0.0001268357450324966 179.74437380005773
0.112972 0.0008346106232452149 179.85103513689558
0.12097 0.055433560324397314 179.94110462197503
0.128968 0.13659025396730184 -179.50283928492289
0.136966 0.05747713587780502 179.9312479399347
0.144964 0.013584877072726913 -179.73790025254334
0.152962 -0.0014675833699952115 -179.66835723990218
0.16096 0.028503167518709446 179.55146454262942
0.168958 -0.07025830223199528 -179.52034638243902
0.176956 0.10696907759884194 -179.93186214267297
0.184954 0.05768523222367497 179.14140470248051
0.192952 -0.07502525215874802 179.924393726454
0.20095 -0.021230976009923755 -179.4060862498939
0.208948 -0.008132519565683673 -179.9879676249148
0.216946 0.11431305161313991 179.7786428298778
0.224944 -0.06755079979255024 -179.78529794824976
0.232942 0.07070368051948347 -179.9971333175153
0.24094 0.05503785417318835 -179.82111503786183
0.248938 0.11713624496711957 -179.85606019206955
0.256936 -0.08180899853904838 -179.5966487511422
0.264934 -0.05717196253344478 -179.84197723597143
0.272932 -0.01810157588333217 179.51430550492918
0.28093 0.19034634993135446 178.5703533779807
0.288928 0.20429730639472424 -178.72409624721297
0.296926 0.03814995312933707 -179.69879312945568
0.304924 -0.02621171511434135 -179.75652746355135
0.312922 -0.026306820625290637 179.06558262704846
0.32092 0.01974944871374727 -179.98129026882063
0.328918 0.13966065771783148 179.74433147836805
0.336916 -0.029209804024894537 -179.24734711302239
0.344914 0.1752943654395433 178.4035293940802
0.352912 -0.007546278654170898 179.86901989658193
0.36091 -0.0055428240543932295 -179.6187304517641
0.368908 0.12968145092430436 -179.252590950783
0.376906 -0.0015076390554458698 -179.4064078854094
0.384904 0.1259551126758268 -179.90364186952294
0.392902 0.1054316305819272 -179.36631654257593
0.4009 0.20154101672242367 -178.90075314574722
0.408898 -0.1175215633408732 179.02709800724946
0.416896 0.08853597202100569 178.72375472603522
0.424894 -0.23153568303522246 -178.02041398618175
0.432892 0.2819807529410297 179.44628905779226
0.44089 0.01005728273266239 -179.3725238277589
0.448888 0.04793600362669663 -179.2922349710901
0.456886 0.023659939446395165 177.94659870299444
0.464884 -0.06421668371415305 179.38076086903507
0.472882 0.04546741870463075 179.5865565525692
0.48088 0.09008072830307216 178.74986962780872
0.488878 0.16730469112354932 -179.15747792536052
0.496876 -0.1605653277246099 -178.66100398317616
0.504874 0.16656219185965682 -179.66915153770177
0.512872 -0.033063040402673764 179.52934621068238
0.52087 0.3391030737696584 -179.9149669479488
0.528868 0.12491767386198019 -179.79589710326547
0.536866 -0.1886247861576475 -179.34674337516492
0.544864 -0.021502391161255085 179.53386546592844
0.552862 0.08916594874559508 179.11669737134122
0.56086 0.04424987864540815 179.8194531898879
0.568858 0.0732846964616082 -179.15584006098464
0.576856 0.004065044788067215 -179.94239856962633
0.584854 -0.03990194798933784 179.74704706895153
0.592852 -0.024399600549081475 179.7141976467477
0.60085 -0.24412129344897307 -178.14074013189682
0.608848 0.04147107256009688 -179.46779003620105
0.616846 0.022587869883522897 -179.8819454094283
0.624844 0.1705599128072139 179.1203616506
0.632842 0.03993334844091716 179.23799570421022
0.64084 -0.029162611208621993 179.2566138778298
0.648838 0.02146022585177705 -179.26196090040963
0.656836 0.11574108919053859 -179.83564390226564
0.664834 0.10934226462592442 179.10495685631741
0.672832 -0.2383283153335217 179.2094213130526
0.68083 -0.03332444905581554 179.88339546759016
0.688828 0.06330737082353735 179.98068872320405
0.696826 -0.023409726980813783 -179.9761805412384
0.704824 0.005217650693206713 -179.82742795444082
0.712822 -0.13295773619468054 179.7069205194609
0.72082 -0.08263697868535926 -179.33448407275276
0.728818 -0.02574437422648567 179.85522608580607
0.736816 0.01952666207819118 179.30881519172829
0.744814 -0.026868156000818814 -179.0373969501818
0.752812 -0.042989608557412705 -179.87868068590097
0.76081 0.008911094882146012 179.9142362815254
0.768808 0.004280817184760587 179.92849807044823
0.776806 -0.08368133423059992 179.6240154341543
0.784804 0.02508982730660698 179.78042095463775
0.792802 -0.057458491940428146 -179.7508987930247
0.8008 -0.008081033968380705 179.9634772263809
0.808798 -0.02008068781576857 179.85985633870158
0.816796 0.0997944045541915 -179.9808895294851
0.824794 -0.049990838987344605 179.63986139383636
0.832792 0.05155430464085501 179.64293649207485
0.84079 0.0018181363894310746 179.96621676442496
0.848788 0.0019978767362984957 -179.950521319821
0.856786 0.042344437702341614 -179.89189016122413
0.864784 -0.06544408488506716 179.82783335087638
0.872782 0.09765648790624848 179.67584391281997
0.88078 0.0031835130333107086 -179.9880004973111
0.888778 0.08283924842112986 179.8044671496075
0.896776 -0.018322905165947603 179.85271091936596
0.904774 0.08773367947992985 -179.79836323278633
0.912772 -0.04030847208771529 179.52580205160848
0.92077 -0.09460484766566232 -179.848331900706
0.928768 -0.01756258754182448 179.82573166280343
0.936766 -0.000509469795297495 -179.76155629315107
0.944764 0.07740168801352594 179.96038324768807
0.952762 -0.028009809562446166 179.79984555866142
0.96076 -0.00489447255616849 179.99614163187212
0.968758 -0.020187627457076317 -179.48810053291734
0.976756 -0.06235483338758215 179.58760054018774
0.984754 0.006342301412977482 179.92258755017457
0.992752 0.011383935513918418 -179.99341776227325
1.00075 -0.03701294396855037 -179.85791722964615
1.008748 0.10001498416540724 179.68555185332775
1.016746 0.017721493491929256 179.98160814396908
1.024744 -0.014576571773145773 -179.54819401478227
1.032742 0.027294803084928612 -179.84755646940138
1.04074 0.02011282124630919 -179.50073815677337
1.048738 0.06895652371969171 -179.97056642085437
1.056736 0.005911211554151783 179.4837023253025
1.064734 0.09468913866022852 179.71283009569376
1.072732 -0.019643548722954474 179.66938918456523
1.08073 -0.0639404153850831 -179.81898736560603
1.088728 0.020519192593173304 -179.9845554735831
1.096726 -0.09055839138948366 179.60235807231635
1.104724 -0.10233046175710629 -179.94608899200415
1.112722 0.013372973004226742 -179.62119495992448
1.12072 -0.02365586980040675 -179.6597283734493
1.128718 0.02847524660187645 179.4762844371678
1.136716 0.06581965045905291 179.97888439907013
1.144714 -0.03171554272959519 -179.89218386909675
1.152712 0.07010754320947293 -179.44480881525405
1.16071 -0.029155891446734257 179.7659454136735
1.168708 0.023511101231850857 179.4483330093622
1.176706 0.0072781777154400824 179.85113414400809
1.184704 0.11245158447402522 179.0748970641075
1.192702 -0.1259377622417061 -179.68011262609403
1.2007 0.10607035744718565 178.94562657636908
1.208698 0.07789792969281009 -179.50429761201846
1.216696 0.08216011436933213 -179.54500628545227
1.224694 -0.15235104003539915 -179.70826615414393
1.232692 0.005124668794133151 -179.6074442412182
1.24069 0.09377840291691751 179.94525214434975
1.248688 -0.07035053518787132 -178.99908202706155
1.256686 -0.0006293192086534097 179.77163237168014
1.264684 -0.02746601036548137 179.7389068864906
1.272682 -0.023320124479235413 -179.8070879983871
1.28068 -0.04652081134117676 -179.85819160838466
1.288678 0.06761530203674113 -179.22854397674348
1.296676 -0.2013882374916836 -179.8507383446806
1.304674 0.008013654878790587 -179.9851487925354
1.312672 0.06900256114208518 179.91518041647694
1.32067 0.03605662244256893 -179.75618488114222
1.328668 0.2187783043214958 179.84849664289828
1.336666 0.03975974815400866 179.69634069739118
1.344664 -0.034990916067854434 -179.96660703454376
1.352662 -0.00749726418728685 179.71482790852548
1.36066 0.13310490921784363 -178.44524172850643
1.368658 0.15715878771849948 179.07585906295492
1.376656 -0.20380771382067958 179.77752422449137
1.384654 -0.015198635857776718 178.78162239138834
1.392652 0.11422046288557763 -179.0746478030643
1.40065 0.26281301160665743 179.8988786064135
1.408648 -0.05591138956210899 -179.55151144259702
1.416646 -0.20020720530157593 179.57234555577105
1.424644 0.12248103705764149 179.484302154784
1.432642 0.07226749649382272 -179.71599729859994
1.44064 -0.1494058879357381 178.99358283188218
1.448638 -0.07552740835393046 -179.45970244420744
1.456636 0.1626141977735568 -179.93722740284147
1.464634 -0.05474681132995113 179.50097211093822
1.472632 0.030097738078972446 179.22372421404344
1.48063 -0.06391451388449484 179.4703341118446
1.488628 0.2268740468450178 179.2993444758749
1.496626 0.13222136034509088 179.48782737618444
1.504624 0.1643570940591781 179.84127551282546
1.512622 0.0812176188576006 179.82227036522315
1.52062 0.033289499487729884 178.12351133504217
1.528618 0.09527158611395685 -179.98919724639774
1.536616 0.1086617243992314 179.08860936898648
1.544614 0.08907483148390583 -179.87352770729623
1.552612 0.20951688236725297 179.01408297954356
1.56061 -0.029592257992173528 -179.61761307274645
1.568608 0.23404686078974196 -179.7445910753189
1.576606 0.06145417024993649 179.4403041281916
1.584604 0.002556437928155244 -178.90185123132312
1.592602 0.025654612391258543 179.05614793307046
1.6006 -0.02269275807708255 -179.9627968353363
1.608598 -0.14199654594364758 179.2232595366192
1.616596 -0.27190654890828725 179.19025533499277
1.624594 -0.01612452236039902 178.10705478582162
1.632592 -0.1804687318427719 179.27139052680153
1.64059 0.03226327051695822 -179.64242063573397
1.648588 -0.057315801660335716 179.44322537479695
1.656586 -0.05352321185802187 179.64145008484738
1.664584 -0.1050667533410341 179.7404679089253
1.672582 0.04272124238016033 -179.39539117711752
1.68058 0.06983076729660871 177.74791336541347
1.688578 -0.028096384446431803 177.98517431231068
1.696576 -0.005460662030610738 -179.77717752426395
1.704574 -0.0780670631367105 179.6595563424531
1.712572 0.10091153028573224 -179.68188852715534
1.72057 0.13731772822903537 -179.04381321328813
1.728568 0.2575393012521686 -179.90866667906212
1.736566 0.03933383301289145 -179.7214518587756
1.744564 -0.07597047747011683 178.73487314147107
1.752562 -0.186981372340537 -178.30647135165083
1.76056 -0.2663493635016429 178.64086786811913
1.768558 -0.12078140333184664 178.93890857111114
1.776556 0.18566348823600343 -179.60881492801136
1.784554 -0.028430680088775518 179.2766373392449
1.792552 0.049434263936223403 179.84283064461195
1.80055 -0.04347296664668579 179.53551261325057
1.808548 0.3772916879333328 -179.59567420387955
1.816546 0.06386923674318844 179.76031103675052
1.824544 -0.13360564892951574 -177.79204742329892
1.832542 -0.033929371262783135 -179.04002352088352
1.84054 0.010241398713710513 -179.49885878305173
1.848538 -0.015677385854096372 179.80213802521547
1.856536 0.15825472006941332 -179.76342444262644
1.864534 0.08113439195642004 179.6975672016998
1.872532 0.047958724389235714 -179.78766600082974
1.88053 -0.04780135579450017 -179.86120043812724
1.888528 -0.28096090377924793 179.95843933171136
1.896526 0.11942193168619206 179.93253573451054
1.904524 0.08771433565178088 178.91429778690392
1.912522 0.07042642078719424 179.52610047553856
1.92052 0.12290235300741101 -179.12213000750847
1.928518 0.14466827299128265 -178.50803074201818
1.936516 0.18948242629097317 179.22161126974547
1.944514 -0.0767280877709438 179.0471098546761
1.952512 -0.14535055789832124 -179.43799565068952
1.96051 0.08487927794138565 -179.6741409744396
1.968508 0.1656755180587467 179.62428709724966
1.976506 0.07670236371683359 -178.937855642671
1.984504 -0.20477333492863925 179.73840065253447
1.992502 0.06768635209373249 179.10742279640107
2.0005 0.08395852518938487 179.21787747006218
2.008498 0.04013158559474095 179.17897498548072
2.016496 0.13163411225449623 179.76766243746175
2.024494 -0.0025034645992069037 178.4977699693209
2.032492 -0.03557913759047376 179.9671966103277
2.04049 0.14621096569822928 179.1878485834092
2.048488 0.17704845477822942 -179.48035869692376
2.056486 -0.1749684991450197 -179.81715462539236
2.064484 -0.0459101871999728 -179.25682718558332
2.072482 0.1316023576239004 178.9903842415384
2.08048 0.09476076465078011 -179.00173086474928
2.088478 0.11072155067164162 -179.0557911290979
2.096476 -0.083702903641734 179.76680517765575
2.104474 0.01858500398041781 -179.32738963889904
2.112472 -0.12105822267885649 179.34947775891075
2.12047 -0.04939310164655832 179.9819056209574
2.128468 -0.106573454724374 -179.4702068920747
2.136466 -0.005767312979561392 -178.87965295089433
2.144464 0.03625857320477122 179.95661671917927
2.152462 0.1976604595831068 -178.87150415829845
2.16046 0.014007850633138034 -179.69005278336024
2.168458 0.08959902134642872 -179.44854317028484
2.176456 0.12105609649089154 179.89934325302212
2.184454 0.16543553541453956 -179.61857192475057
2.192452 -0.31347318486712356 179.17049178814082
2.20045 -0.1994658313916214 178.8282580015898
2.208448 -0.03043012237551476 -178.99074720493388
2.216446 0.12360156306718924 179.27471510719337
2.224444 0.22978477306845532 177.40054318062616
2.232442 0.03928359832867527 179.96416575829113
2.24044 -0.20799180008174567 179.00694256374308
2.248438 0.15477001196957646 -179.9763337457257
2.256436 0.02056365193882687 -178.95406990174484
2.264434 -0.12403570074615296 -178.15621134579592
2.272432 0.020788011729198995 -178.8458428478912
2.28043 -0.21571543503720192 -179.5076304233399
2.288428 -0.4325420334799128 -178.40111886180537
2.296426 0.12139222075993607 179.35650269995267
2.304424 0.1551920080578805 -179.0693190752185
2.312422 0.05716160013066637 -179.26041053346032
2.32042 -0.11044748143103492 177.77468784852127
2.328418 -0.31101068745685284 178.5178737439707
2.336416 -0.20697540046517476 179.38107448784683
2.344414 -0.09668762758843633 177.2993154676419
2.352412 -0.551059402716298 -179.04831531214347
2.36041 0.17807830276548034 179.4651510450188
2.368408 0.5815772176726013 178.24167922276635
2.376406 -0.14824942001253508 -179.86600580414947
2.384404 0.08620862739613269 178.15631943252788
2.392402 -0.04462584547023391 178.55415772721136
2.4004 -0.07859036424586664 178.58749623510707
2.408398 -0.24000955413285918 177.38639031463754
2.416396 0.5089044594253528 -179.62421132881448
2.424394 0.011282485190369628 -178.42020737622127
2.432392 0.4310767313022554 178.22067754212975
2.44039 -0.46999189144981796 174.31200679984525
2.448388 0.15118363334552756 174.58419380529955
2.456386 -0.0717889137123329 175.22604583173785
2.464384 0.06665317010495746 176.11671587187305
2.472382 0.9419110079431199 174.75685711703207
2.48038 -0.24696098204652614 -178.15507075877215
2.488378 -0.24851953544895394 174.69948619027036
2.496376 0.23856251829830066 179.41853329957524
2.504374 0.5633838184103335 176.17489578155744
2.512372 -0.5264333579045042 175.02980803079652
2.52037 0.06534767898573442 178.93167502632792
2.528368 0.8945570451089596 -177.8054825304563
2.536366 -0.41642088730783144 -175.9796965790725
2.544364 -0.5142110329224973 -178.7984334224274
2.552362 -0.35567550722019037 173.4309646624796
2.56036 0.21577781397393445 178.83607464737867
2.568358 0.419018131881273 -176.19312158026045
2.576356 -0.7519435787368668 174.90184196974525
2.584354 -0.8549847740036034 -176.99181703373387
2.592352 -0.5469986049269185 -177.38655069834104
2.60035 -0.4184340019926646 172.07085787634617
2.608348 0.3767520178084707 176.02072212993858
2.616346 0.9559689542884535 -169.56348612187372
2.624344 -1.0334948789426393 -177.20640283385933
2.632342 1.345967103115209 169.50862184666502
2.64034 0.6610352349299193 177.3864253733875
2.648338 1.3271476839722365 -178.3602719181565
2.656336 -1.94035899193058 175.60858381029047
2.664334 0.862100972654491 -169.41854188837002
2.672332 -1.3488752186594675 -165.3226592074594
2.68033 -0.06009124620184064 -164.8969632213748
2.688328 5.990201194434296 168.37382870875265
2.696326 2.464710119698682 -157.04970331417405
2.704324 0.481410450137295 179.5659616504314
2.712322 0.1380191648124027 178.01166178594195
2.72032 -0.1829166035185767 -178.0887140973274
2.728318 -0.13913873730797172 -176.6347649691343
2.736316 0.20928851480417315 178.86721763915716
2.744314 0.033496493410084344 -176.35667102534524
2.752312 -0.4278207085727431 177.8439644551865
2.76031 0.24176301015900167 174.06747956134035
2.768308 0.21494316886275072 178.4791990351218
2.776306 -0.4245457904081539 -176.8526418135653
2.784304 -0.10477106397452633 175.83169527582598
2.792302 -0.0564138711773441 -179.96039221021493
2.8003 1.087651963985475 179.5970308989301
2.808298 0.5346755622221668 178.65811766386244
2.816296 0.355231786698425 -179.32227909945
2.824294 0.07897935417230613 -177.9233533240023
2.832292 0.05844645860095131 -176.14905426394515
2.84029 -0.047082334258123595 178.23261247543394
2.848288 0.3379193445842773 175.96075771069385
2.856286 -0.30455932121597834 -179.79679567534782
2.864284 -0.4632678300436313 -179.4480608224024
2.872282 0.15300877823636402 178.28732102989784
2.88028 0.24742748339928639 177.77178584141984
2.888278 0.0505210774662499 179.25757524339528
2.896276 0.20851453117204904 -179.35988656382983
2.904274 -0.21118811519144914 -178.17535513678732
2.912272 -0.05112057169684138 177.58720494859736
2.92027 -0.20716163152667288 179.15348055256158
2.928268 -0.23856493113362703 179.53921675967192
2.936266 -0.1792201687722223 -179.49525660697
2.944264 -0.10301523524477069 -179.8427196462849
2.952262 -0.1975828910984132 -178.12097494189973
2.96026 -0.5587276763385964 -179.50992593394025
2.968258 0.19196795554965973 -179.84203354798822
2.976256 0.04570144704242225 -178.80866735588836
2.984254 0.14913006891714436 179.26493490386179
2.992252 -0.0936187880347736 -178.2758962242953
3.00025 -0.038532994781217536 179.33463236070907
3.008248 -0.03463178994454587 -179.4790613368606
3.016246 0.06414482446170736 -179.17849619247534
3.024244 -0.1461395846623611 -176.95529218273387
3.032242 -0.26375372291511595 -178.8977616965907
3.04024 0.13137362286054008 178.03054397212014
3.048238 -0.1393178313942862 179.76830619488103
3.056236 0.019717183366742205 179.49996374875843
3.064234 -0.21339152915851817 179.87645939704004
3.072232 0.1933711947520625 179.9341957262927
3.08023 0.053600756619287884 179.9085463015347
3.088228 0.08073913373600618 -179.57978737669345
3.096226 0.21108167576947912 179.3062129024347
3.104224 -0.11044104818910766 -179.56870920691617
3.112222 -0.16505181298870736 178.84609739621243
3.12022 -0.01572158830141276 178.69880392855927
3.128218 -0.033562806099987415 -178.20777488208003
3.136216 0.13603416458930795 178.2195198424197
3.144214 -0.35219701793779956 -178.94589251628608
3.152212 0.09034772298760899 177.90933916487137
3.16021 0.10902691700588711 -179.18524823472316
3.168208 0.05986637520650738 178.56560247332771
3.176206 0.10633701328494158 -178.48728541657894
3.184204 0.22354051538062242 179.28595940626684
3.192202 0.12727789455205699 179.9789472330225
3.2002 -0.052183885096088095 -179.25506183493002
3.208198 0.08760928355128439 -178.65965811392354
3.216196 -0.09747491122131717 -178.96090475261823
3.224194 0.10612501900202588 178.36035119261706
3.232192 -0.20926361617526323 179.5680532968791
3.24019 0.08610795506165023 -177.84983636920887
3.248188 0.08346600488478953 -179.34942726903364
3.256186 -0.03332640029287687 -178.70458137717387
3.264184 0.04386550768684 -178.951274654253
3.272182 0.07484260424032356 -179.72375531984264
3.28018 0.23666937150600925 179.46029156215872
