!Created with skrf (http://scikit-rf.org).
# Hz S RI R 50.0 
!freq ReS11 ImS11 ReS21 ImS21 ReS12 ImS12 ReS22 ImS22
1000000.0 0.9986683663707976 -0.013058792554554846 1.804798272066374e-06 4.913877799729487e-06 3.3034199662556835e-05 4.853690479696178e-05 0.9995553595360414 -0.013280544309022868
9499000.0 0.9927854963380622 -0.13508709976344277 -2.3982457825420867e-06 2.8842936555076076e-05 -3.960847060966843e-05 1.1034831993783993e-05 0.9924291306269597 -0.12881711385147376
17998000.0 0.9667053052867887 -0.2533831315477372 3.4615387414478305e-05 4.8657099226479164e-05 1.0668425701906785e-05 6.230946605091608e-05 0.9699691740282574 -0.24143175700830577
26497000.0 0.9291454237221347 -0.3654916954997856 3.583823184670319e-05 6.943180882114212e-05 4.1320623268162786e-05 6.287969297893165e-05 0.9361032501216828 -0.34916695014838506
34996000.0 0.879300578586286 -0.47190596297416326 3.22102258586027e-05 4.083827352956433e-05 2.9828432122145744e-05 4.346851253166888e-05 0.8907893745619625 -0.4522044942486673
43495000.0 0.8186389296952997 -0.5708639688724106 4.3382222365807875e-05 6.969384208739793e-05 6.748205380284056e-05 6.876846625036586e-05 0.8346127799238982 -0.5480426307066986
51994000.0 0.7476223070658993 -0.6604799447009967 8.755183231954552e-05 9.021187931006731e-05 6.820421727991116e-05 5.831005506685899e-05 0.7692296626351931 -0.6359526077976897
60493000.0 0.6685508618770939 -0.7404038613989432 9.237407719559592e-05 7.722583149673852e-05 9.647103445929928e-05 4.796476864378651e-05 0.6963628158807743 -0.715048576140873
68992000.0 0.5821233479985731 -0.8090912844475833 0.00011545491000666903 8.836543858708784e-05 0.00010956627327286419 0.00011043754353339594 0.616937977416223 -0.7843958629188884
77491000.0 0.4913220838816148 -0.8671947810657452 0.00014755929865870547 7.281748054686579e-05 0.00013597166437105175 8.458859174073315e-05 0.5323977717997079 -0.8437622473887196
85990000.0 0.3963592995229878 -0.9141915636923065 0.00015637230066389648 7.371575956258757e-05 0.00018184759036907005 6.63029801527557e-05 0.44448332910310734 -0.8931421974953255
94489000.0 0.29960707799821595 -0.9496301395489176 0.00017402755883063194 4.292304215048946e-05 0.00019592630808944376 2.7496008139449146e-05 0.353807052184558 -0.9321839072528982
102988000.0 0.2021212158926045 -0.9747685652101467 0.0002072805407516174 4.3012390690675904e-05 0.00021208360753974554 3.143805980582925e-05 0.26211484744135766 -0.9616390936331579
111487000.0 0.10505627076795718 -0.9893063982062706 0.00024324123295599103 2.594795789604224e-05 0.00023132005327565394 -5.865426746311381e-06 0.17073679632538463 -0.9815743596833391
119986000.0 0.009750896607994707 -0.9943552677443115 0.0002699125831359207 -5.33448273718473e-06 0.00024600123912427076 2.4275512033265607e-05 0.08032144911967724 -0.9927969420900314
128485000.0 -0.08359256378888322 -0.9903098774378325 0.00029222343233272283 -1.9757713548188063e-05 0.0002858343958916953 -4.7468594802859507e-05 -0.00844377575518817 -0.9955921057736633
136984000.0 -0.17373125842452372 -0.9780176355606858 0.0003231347170974046 -7.085229599868831e-05 0.00029059730189602513 -8.403214901021919e-05 -0.09517944620696787 -0.990247025891257
145483000.0 -0.2600802517529117 -0.9580115586898902 0.0002927651074266197 -0.00011790661781781417 0.00032711101245470496 -9.370778154606567e-05 -0.17899882046316057 -0.9779308760432698
153982000.0 -0.3424427915832224 -0.9312175145789056 0.0003230575877810707 -0.00011453289592263948 0.00034069183160907843 -0.00014759866994057595 -0.2591662936731554 -0.9587464830896775
162481000.0 -0.42050759071356875 -0.8978294715138788 0.0003272240683574372 -0.0001913971348053869 0.0003353403784909391 -0.00019878478733114397 -0.3362959197102082 -0.9338143113487558
170980000.0 -0.4936741346445718 -0.859183642960618 0.0003709704829623536 -0.00024335532192242072 0.00036059663268275414 -0.00025083669940943043 -0.4091454420976246 -0.903354386473686
179479000.0 -0.5622387734529911 -0.815139739627627 0.00036336199857798645 -0.0003085354812338123 0.0003723167334159409 -0.00029934797939592487 -0.4780403314902647 -0.8684577928214082
187978000.0 -0.6255999727867148 -0.7668498905115768 0.0003825199944126159 -0.00035587289810231894 0.00036713168467100227 -0.000369632824882868 -0.5428475881109288 -0.8284194863047328
196477000.0 -0.6840608224849603 -0.7139123826450263 0.0003925164887367918 -0.00043951138931462715 0.00040494597513762395 -0.00043953043295496874 -0.6031879378998822 -0.7846685778543401
204976000.0 -0.7375475064760263 -0.6575809662376708 0.00037680052213718245 -0.0005198945504645507 0.0003687873871623858 -0.0005226954554925435 -0.6594470172921797 -0.7369279760998588
213475000.0 -0.7856699965887896 -0.5978188792217077 0.00035639076495926634 -0.0006032438621597066 0.000369399134952646 -0.000613318729256264 -0.711488403561729 -0.6859118855359185
221974000.0 -0.8287040303992926 -0.535133940926242 0.0003480261573153968 -0.0006825527937478408 0.00032742695274153857 -0.0007277984983041259 -0.7587681110891007 -0.6319139419389238
230473000.0 -0.8666456272337116 -0.4695099463784166 0.0003336330178361905 -0.0008373294841860695 0.00032952493045026944 -0.0008404147462883339 -0.802058151523286 -0.5749179919630761
238972000.0 -0.898960538912911 -0.4011470500882291 0.0002939466641410884 -0.0009676878807236457 0.000274749094963932 -0.0009506185522129436 -0.8407220485895864 -0.514948519826682
247471000.0 -0.9263758468745968 -0.3306290710509924 0.0002475990729508029 -0.0010988500455388725 0.00024341612690508788 -0.001136031294402453 -0.8747680714671807 -0.4527241641016253
255970000.0 -0.9482715723754032 -0.25799740408506583 0.00017316119217487475 -0.0012675500088908647 0.00014617715503079297 -0.0013283068795785732 -0.9045648026465525 -0.3876848802604336
264469000.0 -0.964202569397368 -0.18282042819038583 5.561794170594958e-05 -0.001535375920755847 6.259851773941265e-05 -0.001502529689120381 -0.9295192595055937 -0.32004394060633595
272968000.0 -0.9747409699716787 -0.10579115856712697 -5.2962771648680926e-05 -0.0017878795964846 -9.883288977922901e-05 -0.0017876105184800465 -0.9495677972159934 -0.24990334244523973
281467000.0 -0.9786618616009809 -0.026718241175602526 -0.00022711255915254 -0.00212718001977895 -0.00030904723707740584 -0.002121166211674753 -0.9646426576931602 -0.17705392409170848
289966000.0 -0.9761144643485595 0.05427133425243502 -0.0005287819286531553 -0.002531050253963796 -0.0005607962126408156 -0.0024917274370984716 -0.9739420380706385 -0.10172596129282713
298465000.0 -0.9666122237822857 0.13709534473926635 -0.000932969132386322 -0.0029730355564164266 -0.000988463116470367 -0.0029354000115219578 -0.9777296273158188 -0.0232758427709956
306964000.0 -0.9490198660284704 0.22166626701047712 -0.0014916016268774056 -0.003512089498479481 -0.0015352343128293717 -0.003432607428188986 -0.9746471837366152 0.0576681527933411
315463000.0 -0.9229169497920247 0.30765254546516135 -0.0022675056594421575 -0.004133467519699855 -0.002289392819818636 -0.004110118507723585 -0.9642426575290097 0.14195387720381913
323962000.0 -0.8867010503543028 0.39525930849550905 -0.003402257437877608 -0.00487852150414821 -0.0034556630111412796 -0.004869472836422724 -0.9453499264044869 0.22934102907991644
332461000.0 -0.8393354529798467 0.48354365524875265 -0.005037019446826734 -0.005761780422880643 -0.005066231829008599 -0.005723904338949329 -0.916535083586759 0.3195676259081434
340960000.0 -0.7783064219631094 0.5720033203572736 -0.007431649747263184 -0.0067189252186149835 -0.007523834362252066 -0.006691773183857783 -0.8754535657801163 0.4128619927653293
349459000.0 -0.7012085923375037 0.6592038553692713 -0.011001994992178894 -0.007733655852422762 -0.011159772932888038 -0.007673295718508101 -0.8200268114347398 0.5087215465162992
357958000.0 -0.6050608689424362 0.743388657982787 -0.01657107477518392 -0.008563942337023268 -0.016799023772027317 -0.008342882035731415 -0.7453054292145908 0.606241465454716
366457000.0 -0.48495262808160944 0.8204300159916258 -0.025378097163700233 -0.008481157262367617 -0.025554588406321986 -0.007986893182636401 -0.6469812381378582 0.7030878109503973
374956000.0 -0.33570016606194547 0.8846879747197567 -0.0395143306958467 -0.00567106709944254 -0.03936094253271104 -0.00483346075157287 -0.5175206732806558 0.7949004003124233
383455000.0 -0.14959429880300376 0.9237422183596284 -0.062070462983259404 0.004734789948536466 -0.06106418776292388 0.005672644535226399 -0.34571909992571415 0.8719655654894072
391954000.0 0.0795877492800611 0.9149271064578139 -0.09588865959987349 0.03500845274933589 -0.09366315051737842 0.034906516386136704 -0.11815300059286218 0.9123255895321688
400453000.0 0.3494848663043266 0.8124726850899086 -0.1338035286494085 0.11490448425735836 -0.1317714467709772 0.11150810587056426 0.176098472740564 0.8663210268199236
408952000.0 0.5977643169616951 0.5332761298694932 -0.11136766735824849 0.29488823141181486 -0.11632025265409515 0.2900713655671136 0.49726598967755686 0.6259260355811813
417451000.0 0.5954335375727638 0.08629575124316512 0.18059264813826195 0.504858507029753 0.17414623184961886 0.5134062428221073 0.575319741392758 0.11363823899316898
425950000.0 0.2802984336107765 -0.13736332428484593 0.6833115000054231 0.2711109970775578 0.6904334695310601 0.2740112656371335 0.17599426183774908 -0.1658021633803727
434449000.0 0.07676206253504309 -0.08424879441573663 0.7431716447550848 -0.32357512432861196 0.7443487161555085 -0.32523923936329674 -0.03137764793928291 -0.019807003454453347
442948000.0 0.017207213263000492 -0.027959082421371385 0.3862919431274031 -0.7343576558362032 0.3865304924971859 -0.7351691238762282 -0.016506863667898133 0.03531052028855997
451447000.0 -0.015904652892450882 -0.009609881861927539 -0.1067509911854478 -0.8300213529550083 -0.10660610250568202 -0.8297028194769193 -0.04122581476132983 0.010629841162992815
459946000.0 -0.057332962628309656 0.015659883825268527 -0.5406747012464451 -0.6386997909027402 -0.5390517236058306 -0.6388234922846934 -0.09876823544646096 0.0347664464842098
468445000.0 -0.07346800130212824 0.0751831777023113 -0.7908359244649981 -0.262832866691438 -0.7902394858129569 -0.26568084723785607 -0.10240410097880778 0.10469583839881182
476944000.0 -0.02443124912956829 0.13140088717406948 -0.8134256723713819 0.17189196126247291 -0.8159698980029463 0.1707792600547596 -0.03720473528087151 0.14770022224227083
485443000.0 0.06273462442538227 0.1217622292511869 -0.6200133918728997 0.5551147904720202 -0.6215711439620092 0.5569359206938175 0.04408373193400246 0.1236486933065693
493942000.0 0.11268139284084797 0.04552931842085324 -0.26108838112167854 0.7910134604403412 -0.26036517902752493 0.7926662433060426 0.08779003170197104 0.05337739835665661
502441000.0 0.09526018599840053 -0.028474378902692332 0.16925470092642209 0.8141531867346143 0.17010815467362184 0.813834901615918 0.08451029496127448 -0.017221742376505984
510940000.0 0.061907516161573126 -0.05414492136489302 0.5526269830699347 0.6140001803623982 0.5523648967977484 0.6143946757037408 0.05902207426347223 -0.06453327807856556
519439000.0 0.05978752792533561 -0.06906372995074572 0.7783401139188836 0.24630610158627736 0.7796212869911431 0.24743507076091195 0.03034458601669048 -0.09519861371183083
527938000.0 0.052750796378415996 -0.11750946150966078 0.7836357798690554 -0.1826368895974292 0.7865061067076113 -0.1837633604234523 -0.004570649673867057 -0.11573665689833192
536437000.0 -0.009420859359069446 -0.15682254421026695 0.569742579589002 -0.5546983844054961 0.569855717592407 -0.5588500850221609 -0.04730886852771454 -0.11334561350279819
544936000.0 -0.08173114152020401 -0.11795293835150032 0.18560312116701708 -0.7675643754981686 0.18218674598400544 -0.7693933760530298 -0.07472976764276756 -0.07649898741159705
553435000.0 -0.07052932210098253 -0.035785199353541415 -0.27129092493227874 -0.7353290946056829 -0.27336436796615254 -0.7340196981009411 -0.056918107602779 -0.027410066725594394
561934000.0 0.0058782206211521245 -0.02376895376146646 -0.6384361554483642 -0.43122391495652057 -0.6396108463746654 -0.4306814844991851 -0.004112858266743208 -0.009951229835070914
570433000.0 0.024243124541465794 -0.0699117202286223 -0.7492886567007839 0.047748372925396354 -0.7505862923300689 0.04985289809045299 0.03619099851427042 -0.025114994704995623
578932000.0 0.010821703946640556 -0.0430328979142187 -0.5187956233769128 0.5078725551218779 -0.5189857838950274 0.510098832176159 0.06248867096890245 -0.02368217391210601
587431000.0 0.11001008376957645 -0.01317878134318444 -0.005641018933466133 0.6842639299081559 -0.003486943305248748 0.6886335186969756 0.13110688004415638 -0.014546392840475137
595930000.0 0.1511727820685579 -0.11408553394294224 0.4795950245757711 0.39388207754080823 0.48674833112833277 0.3922769583256332 0.20411098257200516 -0.04697499552378513
604429000.0 0.1606352948170281 0.03310915800018743 0.4482835168857061 -0.204263080850876 0.4510272383449281 -0.21123072938815382 0.33685805230729676 -0.011334126544260244
612928000.0 0.591976852062509 -0.1482093178617906 -0.002232005508581346 -0.23634397389361747 -0.010017931104632512 -0.2395101885242674 0.6173431406389678 -0.2825678319906768
621427000.0 0.5417519633070849 -0.5925786156136752 -0.060849896236922614 -0.06649732460581662 -0.06290609037157428 -0.06344270214767687 0.5184279126452868 -0.6516182015183829
629926000.0 0.3152005640064845 -0.8122463931246877 -0.03463872559633045 -0.013676529478607244 -0.03408519309726279 -0.012359178882958524 0.30836043117506423 -0.8320712131649839
638425000.0 0.09741103873301336 -0.8982408717781818 -0.016927337342568457 -0.0009653828999038288 -0.016377975657589815 -0.0007200716481028195 0.11323353421188406 -0.906276081296284
646924000.0 -0.08687802921574339 -0.9176440205440246 -0.008179511275354103 0.0015657286366937777 -0.00793700560455106 0.001466459332575439 -0.052116373253498494 -0.9272538592876541
655423000.0 -0.2392751236934489 -0.902166495168101 -0.004019657281786899 0.0016282791465626883 -0.00397467591981978 0.0015515559798212038 -0.189704492853098 -0.9192828257703385
663922000.0 -0.36511853946474654 -0.8678326155316298 -0.0020978759125678207 0.0012432422615673354 -0.0020523663253548805 0.0012091966295299087 -0.30519950932230006 -0.894984509922916
672421000.0 -0.4693833362739279 -0.8229498020143786 -0.0011115080846171002 0.0008582473293054858 -0.0011025713957533456 0.0008559856363609003 -0.40260728763550974 -0.8610548887300489
680920000.0 -0.5563492184279243 -0.7724135475587731 -0.0005958636201617447 0.0006050046482102906 -0.0005948453170747025 0.0005801332204245096 -0.48516284285562433 -0.8219990523544182
689419000.0 -0.6293366668831456 -0.7186096181894562 -0.00033175594706577697 0.00036944088206646367 -0.0003226950690495235 0.00039303049030054837 -0.5559449996411068 -0.7799490578907493
697918000.0 -0.6905929223332353 -0.6640153114724229 -0.00020462990873434627 0.0003088911997188959 -0.0001536620796728005 0.00028075329768549985 -0.6166127119676897 -0.7364960560347252
706417000.0 -0.7421945120557836 -0.6093902924157253 -0.000111531638128762 0.000172937567566361 -9.976056043902628e-05 0.00016944512918320577 -0.6692337368381792 -0.6923165613819536
714916000.0 -0.7856805767703098 -0.5550410564253707 -4.9905286992132605e-05 0.00012292936755421596 -3.843247558182439e-05 0.00015212514027189205 -0.7139433801482189 -0.6484139233162541
723415000.0 -0.8225319141607749 -0.5019711349232985 -3.723154043520224e-05 0.00010696460860177023 -4.8907664167065974e-05 9.749625049254284e-05 -0.7528455314647553 -0.6049819820386586
731914000.0 -0.8536095310962635 -0.4502136189320405 -1.6921513450758526e-05 6.454135344590764e-05 -3.689862905800251e-05 6.283276821633973e-05 -0.7865764334005126 -0.5619221111288556
740413000.0 -0.8792644189452895 -0.3995999632645673 -2.151367377388807e-05 5.592446661493299e-05 -2.868497853078934e-05 2.798673598241746e-05 -0.8159430408646965 -0.5200967260123184
748912000.0 -0.9011040291898031 -0.35058145302143817 -1.6084305350503824e-05 4.2498043702523275e-05 -2.005306420619994e-05 1.9541085128513947e-05 -0.8415101882018962 -0.4793355037572953
757411000.0 -0.9189094483603901 -0.3031180142872329 -2.848304000959534e-05 3.601954200585309e-05 -1.274861852561661e-05 4.138302468764695e-05 -0.8637434739519131 -0.43948610319619896
765910000.0 -0.933425453906461 -0.25725419500856533 9.739285546953639e-06 -1.4540206505395506e-05 2.1789521968702067e-05 5.35850233535879e-06 -0.883212717029373 -0.4009608554401893
774409000.0 -0.9450181146594621 -0.2127127886978069 -1.016669384447512e-05 2.0558999321195684e-05 5.190052927713516e-06 1.3246328302628537e-05 -0.8998186002707892 -0.3634518264429881
782908000.0 -0.9542036601287337 -0.16972150823995372 4.323016829813502e-06 3.2603935994466876e-05 1.926625311251051e-05 4.009732905251779e-07 -0.9141247839267229 -0.32729922106647297
791407000.0 -0.9610912191810072 -0.12803066075696534 6.69547467777642e-06 -1.2322607706815575e-06 -5.997594794011981e-07 2.7780559524167068e-06 -0.9263767986697566 -0.29188547549834826
799906000.0 -0.9659586101971728 -0.08761542430814186 -1.0171971199047256e-05 2.2996697756631776e-06 -3.130914317240727e-06 5.009748101045252e-06 -0.9369590275949902 -0.2572626107600011
808405000.0 -0.9688282791518649 -0.04859023888437114 -2.5602645430001105e-05 1.7094359605427365e-05 1.2635775335469154e-05 1.6778104986789666e-05 -0.9457506273081452 -0.22374939307712993
816904000.0 -0.970193469854198 -0.010795905037719862 2.7446987846329255e-06 -6.9427064074352586e-06 -2.7891855634392238e-05 1.87151700015957e-05 -0.9531822940610134 -0.19072610303932702
825403000.0 -0.9703398258699165 0.025757654921009794 1.7579924849880797e-05 -1.4607331507224955e-05 6.7542159035027685e-06 2.1172426124694416e-06 -0.9595002069617595 -0.15891187350470506
833902000.0 -0.9685745657105765 0.06094582553400077 -6.024210061411068e-06 1.8256694686539253e-05 -3.6600399085855116e-06 1.036192296270052e-05 -0.964457826350343 -0.1274770381097575
842401000.0 -0.9661580499391615 0.09515619098538201 1.9787065483618604e-05 1.7166288719624642e-05 -1.110582317720625e-05 4.5043035089842004e-06 -0.9679396215858211 -0.09709756643885312
850900000.0 -0.9623627382046491 0.128338204708961 1.6439220070197225e-06 -6.712827248050697e-06 -1.2170068229957959e-05 2.4263017090903597e-05 -0.9707694512650088 -0.06742842676006551
859399000.0 -0.957604700910809 0.1604174557503453 -7.247429517611737e-06 2.06784586754946e-05 -5.036858722433249e-05 9.100719695118882e-06 -0.9721837020420716 -0.038451544045708164
867898000.0 -0.951924203822615 0.1915465985770677 -9.83450269216106e-06 2.3191260801985814e-05 -1.9658182443084085e-05 1.6302320196086237e-06 -0.9730557269822251 -0.010276142262066471
876397000.0 -0.9455500390913352 0.221709118846508 -1.1540595603293884e-05 3.6200985021833975e-05 2.2177122641577715e-05 8.874677895014203e-06 -0.9734031306333489 0.01669185815571845
884896000.0 -0.9382904426189694 0.2510953556758001 2.981353736321317e-05 -2.783927016385532e-05 -3.295292453498128e-05 -1.4136075079811042e-05 -0.9724841791687229 0.04364238255131071
893395000.0 -0.9305163480928171 0.2792756420504734 -2.4165207641691604e-05 -9.10868575818855e-06 -4.365368066989933e-06 -8.896765696955103e-06 -0.9712814506916004 0.0695021851761379
901894000.0 -0.9220749642172194 0.3066249509558906 -1.1814296245601605e-05 -2.735164133049885e-05 1.3805739758987834e-05 5.0691803445597155e-06 -0.9692919598930798 0.09468239522987734
910393000.0 -0.91294350741081 0.3331775343431153 2.858780186435118e-05 6.488406282242964e-06 -4.957229493529705e-06 1.396768408020877e-05 -0.9666706711650068 0.1191284627686584
918892000.0 -0.9031467780352382 0.3588741764865624 3.699831501114247e-05 -3.1389754108954056e-06 -1.658807341646419e-06 -3.300969116797511e-05 -0.9635115245586116 0.14303102039378532
927391000.0 -0.892854680930199 0.3839802410075817 1.5267874868279192e-05 -2.5732316472232415e-07 1.9267372914990523e-06 3.91273734108426e-06 -0.9601633102049034 0.16636283376262148
