!Created with skrf (http://scikit-rf.org).
# Hz S RI R 50.0 
!freq ReS11 ImS11
1000000.0 0.9986683663707976 -0.013058792554554846
9499000.0 0.9927854963380622 -0.13508709976344277
17998000.0 0.9667053052867887 -0.2533831315477372
26497000.0 0.9291454237221347 -0.3654916954997856
34996000.0 0.879300578586286 -0.47190596297416326
43495000.0 0.8186389296952997 -0.5708639688724106
51994000.0 0.7476223070658993 -0.6604799447009967
60493000.0 0.6685508618770939 -0.7404038613989432
68992000.0 0.5821233479985731 -0.8090912844475833
77491000.0 0.4913220838816148 -0.8671947810657452
85990000.0 0.3963592995229878 -0.9141915636923065
94489000.0 0.29960707799821595 -0.9496301395489176
102988000.0 0.2021212158926045 -0.9747685652101467
111487000.0 0.10505627076795718 -0.9893063982062706
119986000.0 0.009750896607994707 -0.9943552677443115
128485000.0 -0.08359256378888322 -0.9903098774378325
136984000.0 -0.17373125842452372 -0.9780176355606858
145483000.0 -0.2600802517529117 -0.9580115586898902
153982000.0 -0.3424427915832224 -0.9312175145789056
162481000.0 -0.42050759071356875 -0.8978294715138788
170980000.0 -0.4936741346445718 -0.859183642960618
179479000.0 -0.5622387734529911 -0.815139739627627
187978000.0 -0.6255999727867148 -0.7668498905115768
196477000.0 -0.6840608224849603 -0.7139123826450263
204976000.0 -0.7375475064760263 -0.6575809662376708
213475000.0 -0.7856699965887896 -0.5978188792217077
221974000.0 -0.8287040303992926 -0.535133940926242
230473000.0 -0.8666456272337116 -0.4695099463784166
238972000.0 -0.898960538912911 -0.4011470500882291
247471000.0 -0.9263758468745968 -0.3306290710509924
255970000.0 -0.9482715723754032 -0.25799740408506583
264469000.0 -0.964202569397368 -0.18282042819038583
272968000.0 -0.9747409699716787 -0.10579115856712697
281467000.0 -0.9786618616009809 -0.026718241175602526
289966000.0 -0.9761144643485595 0.05427133425243502
298465000.0 -0.9666122237822857 0.13709534473926635
306964000.0 -0.9490198660284704 0.22166626701047712
315463000.0 -0.9229169497920247 0.30765254546516135
323962000.0 -0.8867010503543028 0.39525930849550905
332461000.0 -0.8393354529798467 0.48354365524875265
340960000.0 -0.7783064219631094 0.5720033203572736
349459000.0 -0.7012085923375037 0.6592038553692713
357958000.0 -0.6050608689424362 0.743388657982787
366457000.0 -0.48495262808160944 0.8204300159916258
374956000.0 -0.33570016606194547 0.8846879747197567
383455000.0 -0.14959429880300376 0.9237422183596284
391954000.0 0.0795877492800611 0.9149271064578139
400453000.0 0.3494848663043266 0.8124726850899086
408952000.0 0.5977643169616951 0.5332761298694932
417451000.0 0.5954335375727638 0.08629575124316512
425950000.0 0.2802984336107765 -0.13736332428484593
434449000.0 0.07676206253504309 -0.08424879441573663
442948000.0 0.017207213263000492 -0.027959082421371385
451447000.0 -0.015904652892450882 -0.009609881861927539
459946000.0 -0.057332962628309656 0.015659883825268527
468445000.0 -0.07346800130212824 0.0751831777023113
476944000.0 -0.02443124912956829 0.13140088717406948
485443000.0 0.06273462442538227 0.1217622292511869
493942000.0 0.11268139284084797 0.04552931842085324
502441000.0 0.09526018599840053 -0.028474378902692332
510940000.0 0.061907516161573126 -0.05414492136489302
519439000.0 0.05978752792533561 -0.06906372995074572
527938000.0 0.052750796378415996 -0.11750946150966078
536437000.0 -0.009420859359069446 -0.15682254421026695
544936000.0 -0.08173114152020401 -0.11795293835150032
553435000.0 -0.07052932210098253 -0.035785199353541415
561934000.0 0.0058782206211521245 -0.02376895376146646
570433000.0 0.024243124541465794 -0.0699117202286223
578932000.0 0.010821703946640556 -0.0430328979142187
587431000.0 0.11001008376957645 -0.01317878134318444
595930000.0 0.1511727820685579 -0.11408553394294224
604429000.0 0.1606352948170281 0.03310915800018743
612928000.0 0.591976852062509 -0.1482093178617906
621427000.0 0.5417519633070849 -0.5925786156136752
629926000.0 0.3152005640064845 -0.8122463931246877
638425000.0 0.09741103873301336 -0.8982408717781818
646924000.0 -0.08687802921574339 -0.9176440205440246
655423000.0 -0.2392751236934489 -0.902166495168101
663922000.0 -0.36511853946474654 -0.8678326155316298
672421000.0 -0.4693833362739279 -0.8229498020143786
680920000.0 -0.5563492184279243 -0.7724135475587731
689419000.0 -0.6293366668831456 -0.7186096181894562
697918000.0 -0.6905929223332353 -0.6640153114724229
706417000.0 -0.7421945120557836 -0.6093902924157253
714916000.0 -0.7856805767703098 -0.5550410564253707
723415000.0 -0.8225319141607749 -0.5019711349232985
731914000.0 -0.8536095310962635 -0.4502136189320405
740413000.0 -0.8792644189452895 -0.3995999632645673
748912000.0 -0.9011040291898031 -0.35058145302143817
757411000.0 -0.9189094483603901 -0.3031180142872329
765910000.0 -0.933425453906461 -0.25725419500856533
774409000.0 -0.9450181146594621 -0.2127127886978069
782908000.0 -0.9542036601287337 -0.16972150823995372
791407000.0 -0.9610912191810072 -0.12803066075696534
799906000.0 -0.9659586101971728 -0.08761542430814186
808405000.0 -0.9688282791518649 -0.04859023888437114
816904000.0 -0.970193469854198 -0.010795905037719862
825403000.0 -0.9703398258699165 0.025757654921009794
833902000.0 -0.9685745657105765 0.06094582553400077
842401000.0 -0.9661580499391615 0.09515619098538201
850900000.0 -0.9623627382046491 0.128338204708961
859399000.0 -0.957604700910809 0.1604174557503453
867898000.0 -0.951924203822615 0.1915465985770677
876397000.0 -0.9455500390913352 0.221709118846508
884896000.0 -0.9382904426189694 0.2510953556758001
893395000.0 -0.9305163480928171 0.2792756420504734
901894000.0 -0.9220749642172194 0.3066249509558906
910393000.0 -0.91294350741081 0.3331775343431153
918892000.0 -0.9031467780352382 0.3588741764865624
927391000.0 -0.892854680930199 0.3839802410075817
935890000.0 -0.8820739893346589 0.4081530850131595
944389000.0 -0.8710211565591086 0.4316215236026791
952888000.0 -0.8595397370998108 0.45444742978709085
961387000.0 -0.8475569774552385 0.47686982669942063
969886000.0 -0.8351749482192871 0.49811072459787914
978385000.0 -0.8224783440118445 0.5188624659091303
986884000.0 -0.8096451645530598 0.5390476120380915
995383000.0 -0.7963696397459226 0.5586823646020447
1003882000.0 -0.7828174841184921 0.5776380256738459
1012381000.0 -0.7686727057418252 0.5961132591819093
1020880000.0 -0.7546493288083037 0.6138923972936494
1029379000.0 -0.7402139964093735 0.631236876727036
1037878000.0 -0.7255710190148293 0.6480614520044949
1046377000.0 -0.7108444656514998 0.6643878602679751
1054876000.0 -0.6959827922078978 0.6800375780555988
1063375000.0 -0.6808229657209734 0.6953537042664272
1071874000.0 -0.6654111385137756 0.7101159698014827
1080373000.0 -0.6498541590098201 0.7246014321543514
1088872000.0 -0.6341757316368034 0.7384441764815793
1097371000.0 -0.6184830040366344 0.7516867876597831
1105870000.0 -0.6025461271853508 0.7647612289052205
1114369000.0 -0.5863445184289913 0.7772176397639616
1122868000.0 -0.5702465096414696 0.7893381652470713
1131367000.0 -0.553919766299942 0.8008282235209639
1139866000.0 -0.537566666905809 0.8120865912821489
1148365000.0 -0.521057142875383 0.8228293497930895
1156864000.0 -0.5044823352319787 0.8330747067455843
1165363000.0 -0.4877543443488247 0.8430015403761307
1173862000.0 -0.4710974100027147 0.8525176790897004
1182361000.0 -0.4541148996592679 0.8614987979382686
1190860000.0 -0.4373184940150441 0.8699048131578665
1199359000.0 -0.42028321720976736 0.8783674435471222
1207858000.0 -0.4031086138951333 0.8860427820418517
1216357000.0 -0.3861900457053523 0.8934233779589226
1224856000.0 -0.36907674906188803 0.9006281052292353
1233355000.0 -0.35180743290800853 0.9073142650138878
1241854000.0 -0.3346644897092141 0.9136546176728486
1250353000.0 -0.31738461293438813 0.9198089437380976
1258852000.0 -0.3000765754017334 0.9252930360217217
1267351000.0 -0.28298054441814363 0.9306081424303791
1275850000.0 -0.26553662301619874 0.9357106356386039
1284349000.0 -0.2483051802965339 0.9403648132855044
1292848000.0 -0.23091809801620924 0.9447475203765907
1301347000.0 -0.21350108438867813 0.9485505237391274
1309846000.0 -0.1958803357735087 0.9520588919363189
1318345000.0 -0.17872986925606693 0.9554183842621016
1326844000.0 -0.16143809179421342 0.9584299801900898
1335343000.0 -0.14411206188248382 0.9613514163186464
1343842000.0 -0.1265587477612314 0.963594144846684
1352341000.0 -0.10962427958648663 0.9658755725119218
1360840000.0 -0.09209476205775409 0.9677785533701472
1369339000.0 -0.07508957757637069 0.9694101881039319
1377838000.0 -0.058179378795032065 0.9705992315691166
1386337000.0 -0.04103274273799633 0.9714738551325316
1394836000.0 -0.02386839109339124 0.9721328687219779
1403335000.0 -0.007185304099302882 0.9725440972436578
1411834000.0 0.009902410499126279 0.9728534566448499
1420333000.0 0.026417964622304745 0.9726426916280156
1428832000.0 0.04334045510730197 0.9721172148045727
1437331000.0 0.05986446118448079 0.9713752832634017
1445830000.0 0.07663226513107929 0.970228291353069
1454329000.0 0.09292505044873739 0.9691997785991222
1462828000.0 0.10928314465686303 0.9675787844758875
1471327000.0 0.1253259646483859 0.9658432017324218
1479826000.0 0.14162083884446797 0.9637942617991759
1488325000.0 0.15729179667228294 0.9613547059948002
1496824000.0 0.17321907197874137 0.9585698709493227
1505323000.0 0.18885627525907167 0.9555906108938871
1513822000.0 0.2046780455447639 0.9521818577673282
1522321000.0 0.2204118559358197 0.9486689775839516
1530820000.0 0.2357464424527408 0.9450688793519432
1539319000.0 0.2513804020569226 0.9410104864904764
1547818000.0 0.26618039550188627 0.9368591557377328
1556317000.0 0.2815456934464202 0.9322022461457349
1564816000.0 0.2964801947975112 0.9276426888461807
1573315000.0 0.31153775043830056 0.9226069568808284
1581814000.0 0.32622539459167066 0.9174647286894005
1590313000.0 0.3409885020692165 0.9119607039057623
1598812000.0 0.35580277547429245 0.906373442936653
1607311000.0 0.3700247541954821 0.9005872637248236
1615810000.0 0.38455660724811214 0.894600639696138
1624309000.0 0.39873895130230513 0.8882878158697626
1632808000.0 0.41286652495900134 0.8819532090294887
1641307000.0 0.4265916977501892 0.8750567226591667
1649806000.0 0.4404861692986616 0.8683415812358017
1658305000.0 0.453997768618236 0.8614388300966571
1666804000.0 0.46767459614818946 0.8541048494197845
1675303000.0 0.48107192136865545 0.8467474697761795
1683802000.0 0.494389332162816 0.8389080967849395
1692301000.0 0.5074331705397526 0.8313490102800971
1700800000.0 0.5202316487363766 0.823277706462925
1709299000.0 0.5328442555658988 0.815072858133184
1717798000.0 0.5449772592421732 0.8065167571914696
1726297000.0 0.557566226293252 0.798083562139554
1734796000.0 0.5694037787756528 0.7896480353600442
1743295000.0 0.581747205152834 0.7810099850593466
1751794000.0 0.5938432866379842 0.7720332070733844
1760293000.0 0.605731499598854 0.7626354429485597
1768792000.0 0.6174954666722905 0.7531100760606
1777291000.0 0.6290007940092074 0.7434744553984536
1785790000.0 0.6404657474103039 0.7338375762195212
1794289000.0 0.6518836866302166 0.7235925662481606
1802788000.0 0.6628916240100478 0.713624680705937
1811287000.0 0.6736155534626027 0.7033169778828174
1819786000.0 0.6845713025175993 0.6927642582397867
1828285000.0 0.6951116143288205 0.6822058488828332
1836784000.0 0.705657559253501 0.6713169759469347
1845283000.0 0.715906293427667 0.6604350184931813
1853782000.0 0.7258962596692943 0.6491653404518507
1862281000.0 0.7358221501421085 0.6377096425535513
1870780000.0 0.7456238269058566 0.6262438428990049
1879279000.0 0.7551888962582153 0.614468092816891
1887778000.0 0.7648893523764196 0.6028328839731005
1896277000.0 0.7740994980268334 0.5910520812297658
1904776000.0 0.7830364452948974 0.5789676231835742
1913275000.0 0.7919579293931914 0.5667517167383844
1921774000.0 0.8006886750290692 0.5545389001683908
1930273000.0 0.8090786477538572 0.5424631893809636
1938772000.0 0.817909446606185 0.5299061147011759
1947271000.0 0.8257568536181626 0.5174733970021487
1955770000.0 0.8338810797999132 0.5048606141647201
1964269000.0 0.8415990710259253 0.49214310222526025
1972768000.0 0.8490569385185283 0.4793615269398541
1981267000.0 0.8563886148851407 0.46635397162440834
1989766000.0 0.8635915033183467 0.4535275073274245
1998265000.0 0.8704195420987817 0.44057940098421977
2006764000.0 0.8769198851020412 0.42742087150606056
2015263000.0 0.8831726188233809 0.41425259567155864
2023762000.0 0.8895336051765761 0.4011653477615255
2032261000.0 0.8953527066749728 0.38793519555120043
2040760000.0 0.9009457933474901 0.37479276005730544
2049259000.0 0.9064745676028448 0.361338620907496
2057758000.0 0.9117469769999137 0.347975664284234
2066257000.0 0.9167887582809372 0.3345441556235577
2074756000.0 0.9215855346342188 0.32102603906187016
2083255000.0 0.9261846659673012 0.3074158433196731
2091754000.0 0.9306339793143404 0.2939152376913615
2100253000.0 0.934712775587929 0.28017095635337613
2108752000.0 0.9384335968055667 0.26694091300884293
2117251000.0 0.9424866439107336 0.2530782220176034
2125750000.0 0.9460301926054717 0.23909719292795717
2134249000.0 0.9493006032178029 0.2257517618676215
2142748000.0 0.9525369385979531 0.21156177626224376
2151247000.0 0.9556019809268417 0.19772598063293856
2159746000.0 0.9584379375898507 0.18404686107400006
2168245000.0 0.9608925885981748 0.17013673735927745
2176744000.0 0.9632895481755345 0.1563561602164006
2185243000.0 0.9656611567926938 0.1426221200172489
2193742000.0 0.9676194420659257 0.12857516755646967
2202241000.0 0.9691732762199514 0.11478831437388273
2210740000.0 0.9708060759389923 0.10075846301737239
2219239000.0 0.9722809976498931 0.0870577060948335
2227738000.0 0.973524849272501 0.07273311738211621
2236237000.0 0.9742373869953437 0.05879966807235807
2244736000.0 0.9750878205680436 0.044833577269889034
2253235000.0 0.9758371690205969 0.030951103021077647
2261734000.0 0.9758745832651143 0.016998214324024274
2270233000.0 0.9760584665838631 0.00298084767375488
2278732000.0 0.9760820788591933 -0.011057492967022013
2287231000.0 0.9759392914995995 -0.02519314824031024
2295730000.0 0.9750425303891028 -0.03938048516771547
2304229000.0 0.9746134492774154 -0.05304482859688541
2312728000.0 0.9738700240081435 -0.06700834772743115
2321227000.0 0.9726555034903425 -0.08111323053262402
2329726000.0 0.9714644841253208 -0.0954488437255002
2338225000.0 0.970170030863601 -0.10922702459297062
2346724000.0 0.9685611444747966 -0.12356350951287307
2355223000.0 0.9664233475372696 -0.137381238363388
2363722000.0 0.9643584668165315 -0.15150458582470902
2372221000.0 0.9619734494211434 -0.16527599269464413
2380720000.0 0.9594899061562548 -0.1794489320951702
2389219000.0 0.9567196431137995 -0.19359166885466758
2397718000.0 0.9536919272200848 -0.20746171157178306
2406217000.0 0.9507346960781621 -0.22152628354659157
2414716000.0 0.9473590875494284 -0.23536418078969723
2423215000.0 0.9440013902175467 -0.249338421241397
2431714000.0 0.9398776019621723 -0.26302878775156735
2440213000.0 0.9361866592669345 -0.276986475303927
2448712000.0 0.9323420231113557 -0.2907663490489894
2457211000.0 0.9278227370508211 -0.3042232782430825
2465710000.0 0.9233965013252142 -0.31731035736014174
2474209000.0 0.9187670162169512 -0.33096725190461623
2482708000.0 0.913992231269283 -0.3439410883100178
2491207000.0 0.9086804891013682 -0.35714886855090505
2499706000.0 0.9035403798383929 -0.3699643795364904
2508205000.0 0.8980522163231975 -0.3830303097711383
2516704000.0 0.8928164149913144 -0.39544957248672924
2525203000.0 0.8867588135829984 -0.40802673862417266
2533702000.0 0.8807880999260775 -0.4204610417750998
2542201000.0 0.8746581313967153 -0.432629427699962
2550700000.0 0.8683854520596135 -0.44483206995577806
2559199000.0 0.8617695455155279 -0.4570907694312798
2567698000.0 0.8549764411323721 -0.46899840242578494
2576197000.0 0.8482292996083524 -0.481185530419456
2584696000.0 0.8411521580569152 -0.49297645027307185
2593195000.0 0.8341421743515153 -0.5048923577040502
2601694000.0 0.8268204843601128 -0.516468714663832
2610193000.0 0.8193268485199616 -0.5283268577056038
2618692000.0 0.8118288819626248 -0.5397520672646927
2627191000.0 0.8040616338433922 -0.5514728308366685
2635690000.0 0.795846633858253 -0.5628925426570154
2644189000.0 0.7879175259590032 -0.574329221633241
2652688000.0 0.77980452464355 -0.5856054636438706
2661187000.0 0.77177724666216 -0.5963236776414905
2669686000.0 0.7633407662638877 -0.6073950281205662
2678185000.0 0.7547583645914272 -0.6182680901566441
2686684000.0 0.7464409304523709 -0.6286164555758703
2695183000.0 0.7379392931763352 -0.6390792491864876
2703682000.0 0.7288511430967928 -0.6490779959020787
2712181000.0 0.7200754887202141 -0.6592631356241152
2720680000.0 0.7112936055990968 -0.6695719479725106
2729179000.0 0.7021945951383781 -0.6792239559292793
2737678000.0 0.6924555744218275 -0.6889734757088225
2746177000.0 0.6834248838660092 -0.6981425684416936
2754676000.0 0.6742456620841677 -0.7071825577787463
2763175000.0 0.6641855864372297 -0.7163489197086319
2771674000.0 0.6546939585975446 -0.725261393602834
2780173000.0 0.6444872019074105 -0.7343723845466705
2788672000.0 0.6343651716377344 -0.7427777467975543
2797171000.0 0.6241813994826669 -0.7510056762166539
2805670000.0 0.6132383585021274 -0.7594886976078562
2814169000.0 0.6028261673529451 -0.7677293327286141
2822668000.0 0.5923088668614268 -0.7755840413491832
2831167000.0 0.5810522165098142 -0.7832362856344816
2839666000.0 0.5700981790399421 -0.7910434288877817
2848165000.0 0.5585800163549146 -0.7986869029446851
2856664000.0 0.5475675948525857 -0.8062148226767247
2865163000.0 0.5355749049098618 -0.8131009054205532
2873662000.0 0.5237764945630576 -0.8205796266530208
2882161000.0 0.5121732011148745 -0.8274227057746266
2890660000.0 0.5000519776616029 -0.8341620171815868
2899159000.0 0.48819825117273413 -0.8411140981002311
2907658000.0 0.4763128594961709 -0.8476220619039996
2916157000.0 0.4640183683355663 -0.8540918360214514
2924656000.0 0.4516810429816382 -0.8602194589245752
2933155000.0 0.4394199890749269 -0.866505992561301
2941654000.0 0.42666915516344806 -0.8728151964813095
2950153000.0 0.4146128227729746 -0.8785785408697286
2958652000.0 0.402050060037094 -0.8846284050941992
2967151000.0 0.38941446107761807 -0.8901980487120268
2975650000.0 0.3768417222221845 -0.8954966520750027
2984149000.0 0.3644224192697365 -0.9009555646285844
2992648000.0 0.35147019715106187 -0.9058327134073586
3001147000.0 0.3393497067255191 -0.9109080389347812
3009646000.0 0.32659405436827776 -0.915315979287881
3018145000.0 0.31415015436938964 -0.9203418767459346
3026644000.0 0.30131490888530277 -0.9245724248563348
3035143000.0 0.28881068940654214 -0.9288532597044705
3043642000.0 0.27620040687883735 -0.9328465952782445
3052141000.0 0.2637853717085267 -0.9366643858944553
3060640000.0 0.2510389683070358 -0.9403068734533576
3069139000.0 0.23831535333188042 -0.9434904536594417
3077638000.0 0.2257123894363603 -0.946623569359389
3086137000.0 0.21271725746129921 -0.9495287169558643
3094636000.0 0.200156843175611 -0.9521157051145985
3103135000.0 0.18742914420281814 -0.9546326821224923
3111634000.0 0.1743855407073715 -0.956663482486959
3120133000.0 0.1616470609724615 -0.9587042826467759
3128632000.0 0.14861841679491505 -0.9605826720202375
3137131000.0 0.1357580806246251 -0.962242219185767
3145630000.0 0.12206688835908051 -0.9635039654917049
3154129000.0 0.1090287004754639 -0.9650610511319021
3162628000.0 0.0953224637497829 -0.9662168165952612
3171127000.0 0.08201707777512178 -0.9673731571162412
3179626000.0 0.0690445707800579 -0.9681015369214776
3188125000.0 0.05525390335238617 -0.9689555727224751
3196624000.0 0.041919125577739844 -0.9698605225158926
3205123000.0 0.028335509367302173 -0.970367728685882
3213622000.0 0.015207398117601356 -0.9707820599630896
3222121000.0 0.0017981307562869656 -0.9706043542871713
3230620000.0 -0.01157793967970646 -0.9709785875799773
3239119000.0 -0.025123598614557936 -0.9706923361872717
3247618000.0 -0.03795283328021959 -0.9709102054899827
