# Hz S DB R 50
! CMT, S5180, 51801906, 22.3.3/1
! Date: 27/01/2023 17:17:46
! Data: Format (Calibration Info)
! Freq	S11:dB/Ang(F2)	S21:dB/Ang(F2)	S12:dB/Ang(F2)	S22:dB/Ang(F2)
5.00000000000E+05	-9.81007309662E-01	-7.93570897716E+00	-1.73189512696E+01	5.30533707195E+01	-1.85387247946E+01	3.78159818158E+01	-5.88313548608E-01	-3.85864847201E+00
2.04975000000E+07	-3.09186707203E+01	-1.01611964323E+02	-4.08477998144E-03	-4.07075327837E+00	-3.14443836443E-02	-3.93084149855E+00	-3.01367906877E+01	-8.87025589137E+01
4.04950000000E+07	-3.15097340621E+01	-1.08598177320E+02	-4.28560460482E-03	-9.53060637566E+00	-3.34798749005E-02	-9.45335642751E+00	-3.28262095767E+01	-9.07114049180E+01
6.04925000000E+07	-3.18739074061E+01	-1.14278769587E+02	-8.54601084681E-03	-1.48369787283E+01	-3.53835923286E-02	-1.47599429725E+01	-3.30783223474E+01	-9.17020952920E+01
8.04900000000E+07	-3.10851580010E+01	-1.19197219971E+02	-6.40095273664E-03	-2.01220834170E+01	-2.55315999979E-02	-2.00574713268E+01	-3.13936648993E+01	-9.67445379107E+01
1.00487500000E+08	-2.88338085896E+01	-1.23410509483E+02	6.42174131918E-03	-2.54354040353E+01	-1.11361382269E-02	-2.53791153572E+01	-2.85397036873E+01	-1.03055544842E+02
1.20485000000E+08	-2.63094925453E+01	-1.25583042992E+02	2.73687218627E-02	-3.07411424556E+01	1.11385991092E-02	-3.06923661693E+01	-2.59950751082E+01	-1.08774030769E+02
1.40482500000E+08	-2.40127651578E+01	-1.28837584505E+02	3.83451736192E-02	-3.61492786686E+01	2.93196253028E-02	-3.61414265131E+01	-2.37821438060E+01	-1.13396738473E+02
1.60480000000E+08	-2.21667349789E+01	-1.34339924635E+02	1.94975419134E-02	-4.15462565559E+01	1.03547281353E-02	-4.16196594593E+01	-2.22966194758E+01	-1.21156846443E+02
1.80477500000E+08	-2.04300193367E+01	-1.40632685791E+02	-1.04253840887E-02	-4.69513456188E+01	-3.23322592443E-02	-4.70818066035E+01	-2.09602896198E+01	-1.31554488915E+02
2.00475000000E+08	-1.87354426937E+01	-1.46022854262E+02	-4.82564110045E-02	-5.24176952281E+01	-7.83885143540E-02	-5.25178737487E+01	-1.95193776942E+01	-1.41771993241E+02
2.20472500000E+08	-1.73812495669E+01	-1.51212690925E+02	-9.71619197482E-02	-5.79030368622E+01	-1.39719504827E-01	-5.79258456021E+01	-1.83393129392E+01	-1.50355210427E+02
2.40470000000E+08	-1.65195355227E+01	-1.56467755784E+02	-1.52664957354E-01	-6.33099098972E+01	-1.95921641677E-01	-6.32139412488E+01	-1.76079921280E+01	-1.57751884018E+02
2.60467500000E+08	-1.58690909543E+01	-1.62761631744E+02	-1.96904889995E-01	-6.86278491160E+01	-2.40701085088E-01	-6.84213693393E+01	-1.71684458307E+01	-1.65474362639E+02
2.80465000000E+08	-1.51918086622E+01	-1.69865205208E+02	-2.28827543483E-01	-7.39578922660E+01	-2.84905609821E-01	-7.35814313079E+01	-1.67328363720E+01	-1.74195763888E+02
3.00462500000E+08	-1.44804900060E+01	-1.76747701729E+02	-2.73122141843E-01	-7.93275002153E+01	-3.22103895472E-01	-7.86785684863E+01	-1.62567468834E+01	1.77715425740E+02
3.20460000000E+08	-1.39120908307E+01	1.76422216817E+02	-3.11435604401E-01	-8.47643104898E+01	-3.28120126898E-01	-8.38017031287E+01	-1.58490638765E+01	1.70676791933E+02
3.40457500000E+08	-1.36250509670E+01	1.68614700049E+02	-3.31169083009E-01	-9.02645643930E+01	-3.04068250009E-01	-8.92558730880E+01	-1.55322263288E+01	1.63906563971E+02
3.60455000000E+08	-1.34569269008E+01	1.59757717544E+02	-3.31445151359E-01	-9.59663291700E+01	-2.84060743574E-01	-9.50273725707E+01	-1.52971653074E+01	1.56764103543E+02
3.80452500000E+08	-1.31861319574E+01	1.50576083655E+02	-3.33688839710E-01	-1.01910606047E+02	-2.77105190671E-01	-1.00958306959E+02	-1.49527243638E+01	1.49670768175E+02
4.00450000000E+08	-1.28644045079E+01	1.41883150840E+02	-3.48695767989E-01	-1.08013621585E+02	-2.82851758973E-01	-1.07030713273E+02	-1.44768514735E+01	1.43158896428E+02
4.20447500000E+08	-1.26195751010E+01	1.33776824759E+02	-3.80708125112E-01	-1.14236899759E+02	-2.96632347370E-01	-1.13244742630E+02	-1.39369077060E+01	1.37148001219E+02
4.40445000000E+08	-1.23730391228E+01	1.25624656346E+02	-4.25224381362E-01	-1.20628988073E+02	-3.31833216980E-01	-1.19671638888E+02	-1.32584906020E+01	1.30924313717E+02
4.60442500000E+08	-1.19663554510E+01	1.17354737150E+02	-4.66325476890E-01	-1.27263552480E+02	-3.65603836178E-01	-1.26297029941E+02	-1.24131701001E+01	1.24314919635E+02
4.80440000000E+08	-1.12856901568E+01	1.09682265276E+02	-5.21921624902E-01	-1.34151236863E+02	-4.17486005989E-01	-1.33147985402E+02	-1.14035241589E+01	1.17666884104E+02
5.00437500000E+08	-1.04714912921E+01	1.02708536332E+02	-6.21529118152E-01	-1.41218089176E+02	-5.02741552195E-01	-1.40151545998E+02	-1.03505317579E+01	1.10695210183E+02
5.20435000000E+08	-9.69634232814E+00	9.61139505840E+01	-7.58522536504E-01	-1.48066186385E+02	-6.18552599426E-01	-1.47019070451E+02	-9.41465307406E+00	1.02784343348E+02
5.40432500000E+08	-9.06693794626E+00	8.98892912375E+01	-8.53067146072E-01	-1.54612554044E+02	-6.88321590284E-01	-1.53777222330E+02	-8.76511424459E+00	9.45211173318E+01
5.60430000000E+08	-8.45636173662E+00	8.37986455054E+01	-8.69532935472E-01	-1.61514857916E+02	-7.06089531250E-01	-1.60975501141E+02	-8.22348366702E+00	8.60517449308E+01
5.80427500000E+08	-7.91637879210E+00	7.71841853587E+01	-8.75846583207E-01	-1.68774665603E+02	-7.49030391430E-01	-1.68702206962E+02	-7.78526759455E+00	7.63503984060E+01
6.00425000000E+08	-7.57637715012E+00	7.03286839654E+01	-8.02148728098E-01	-1.76076548469E+02	-7.73287132419E-01	-1.76423725272E+02	-7.56832365724E+00	6.62933475597E+01
6.20422500000E+08	-7.43295022673E+00	6.29399391290E+01	-5.04352231962E-01	1.75578154044E+02	-6.18625581573E-01	1.75326679446E+02	-7.56973438443E+00	5.62857119130E+01
6.40420000000E+08	-7.74957990175E+00	5.26529298787E+01	-9.54248173627E-02	1.64449036350E+02	-3.01263037796E-01	1.64837409068E+02	-8.07620359749E+00	4.35266824036E+01
6.60417500000E+08	-9.41448795420E+00	3.96163340444E+01	1.14961395439E-01	1.50213380007E+02	-8.26134416197E-02	1.51276910793E+02	-1.00456498819E+01	2.59675183640E+01
6.80415000000E+08	-1.37369104939E+01	2.84734946930E+01	3.18899009436E-02	1.34188935071E+02	-1.09793740320E-01	1.35445864055E+02	-1.48595234365E+01	1.69791730792E+00
7.00412500000E+08	-2.64641749819E+01	8.84440196474E+01	-3.23887221226E-01	1.16003534005E+02	-4.17759719126E-01	1.17005406596E+02	-2.72249826926E+01	-1.18981112958E+02
7.20410000000E+08	-1.12842225554E+01	1.44240168329E+02	-1.16739146140E+00	9.58583065244E+01	-1.24877642016E+00	9.63372012047E+01	-1.12391398296E+01	1.56484669071E+02
7.40407500000E+08	-5.04910026413E+00	1.26391926140E+02	-2.37072298722E+00	7.49732477294E+01	-2.48786042876E+00	7.48476894094E+01	-5.12433457068E+00	1.27997942847E+02
7.60405000000E+08	-2.00787675252E+00	1.03567295808E+02	-3.82488107984E+00	5.07731604955E+01	-4.07030109959E+00	5.03445938449E+01	-2.17115564175E+00	1.02078480424E+02
7.80402500000E+08	-8.01618027936E-01	8.00030919290E+01	-5.66115079947E+00	2.22353213627E+01	-5.95356976391E+00	2.28115605578E+01	-1.10607122432E+00	7.72493301087E+01
8.00400000000E+08	-1.75372930710E+00	5.72118495996E+01	-7.02783334058E+00	-2.27820029148E+01	-7.12196019408E+00	-2.17941831705E+01	-2.45277123244E+00	5.23850203803E+01
8.20397500000E+08	-5.38216185055E-01	6.30593520210E+01	-1.69662657697E+01	-1.15016224835E+02	-1.69626864563E+01	-1.14402131911E+02	-1.03846739148E+00	6.63527634528E+01
8.40395000000E+08	5.77498199983E-01	4.01107496857E+01	-3.82597055516E+01	-1.38142439228E+02	-3.82328962445E+01	-1.38935788144E+02	6.59983859555E-01	4.22860117556E+01
8.60392500000E+08	5.06907258595E-01	2.27465817386E+01	-5.24702528521E+01	-5.14177101004E+01	-5.25089424297E+01	-5.25557181539E+01	8.26935402730E-01	2.56668838128E+01
8.80390000000E+08	2.66086931775E-01	8.41326486546E+00	-4.58514164749E+01	-2.94123473669E+01	-4.58696920228E+01	-2.94566108361E+01	6.90023026179E-01	1.24280961115E+01
9.00387500000E+08	1.48557436770E-01	-3.79939391124E+00	-4.02534146689E+01	-6.30788098302E+01	-4.01178999324E+01	-6.40707110210E+01	5.18015296969E-01	4.32276352788E-01
9.20385000000E+08	8.27701087251E-02	-1.39129160561E+01	-3.64359691159E+01	-6.94847935169E+01	-3.62919458470E+01	-7.22337409265E+01	3.49510645104E-01	-1.06067284719E+01
9.40382500000E+08	2.38377271985E-02	-2.21278774440E+01	-3.27949784636E+01	-6.51401640916E+01	-3.28802935932E+01	-7.01518914138E+01	2.04297469797E-01	-2.02041683303E+01
9.60380000000E+08	-6.66887649783E-02	-2.90018131386E+01	-2.82495445244E+01	-6.38543060646E+01	-2.87251312487E+01	-6.93577432842E+01	6.44172342788E-02	-2.79504375072E+01
9.80377500000E+08	-1.50940044939E-01	-3.48483893179E+01	-2.46101786591E+01	-7.45146672709E+01	-2.53375652983E+01	-7.87047337146E+01	-1.06086969583E-01	-3.40414194688E+01
1.00037500000E+09	-2.06366291842E-01	-3.97414523035E+01	-2.28462376366E+01	-8.47045618292E+01	-2.36261338919E+01	-8.74950715167E+01	-2.97439343364E-01	-3.93111640098E+01
1.02037250000E+09	-2.39157177095E-01	-4.37977765240E+01	-2.14238021693E+01	-8.82052381225E+01	-2.21824912389E+01	-8.93362929020E+01	-4.65257552975E-01	-4.43604097688E+01
1.04037000000E+09	-2.97340995352E-01	-4.73569851993E+01	-1.93848930743E+01	-9.16996242767E+01	-1.99056416566E+01	-9.18434066507E+01	-5.90336339714E-01	-4.92458748452E+01
1.06036750000E+09	-3.97722745673E-01	-5.07876069023E+01	-1.75808973006E+01	-1.01785804549E+02	-1.78083951243E+01	-1.02391508072E+02	-6.84404487393E-01	-5.36622794183E+01
1.08036500000E+09	-5.38719996852E-01	-5.42326550602E+01	-1.69318868534E+01	-1.12282974016E+02	-1.70583563800E+01	-1.13836907563E+02	-8.25703834522E-01	-5.74168060741E+01
1.10036250000E+09	-6.80050537018E-01	-5.76848543105E+01	-1.66580239196E+01	-1.17384048463E+02	-1.67702681689E+01	-1.18824884625E+02	-1.01230582979E+00	-6.09573854837E+01
1.12036000000E+09	-8.36843149574E-01	-6.12202418115E+01	-1.58978819366E+01	-1.19548610721E+02	-1.58624955283E+01	-1.20093325074E+02	-1.21468331896E+00	-6.48464657742E+01
1.14035750000E+09	-1.05321182434E+00	-6.50456732713E+01	-1.47316317996E+01	-1.24388281545E+02	-1.44022096051E+01	-1.25071854354E+02	-1.41192927127E+00	-6.92595033100E+01
1.16035500000E+09	-1.37748576629E+00	-6.94012669545E+01	-1.40287217960E+01	-1.32077168959E+02	-1.35371471912E+01	-1.34012438754E+02	-1.61711559724E+00	-7.40188625004E+01
1.18035250000E+09	-1.78004269372E+00	-7.46795380876E+01	-1.38681350814E+01	-1.37399682657E+02	-1.33975430743E+01	-1.40241498159E+02	-1.83823478681E+00	-7.91711757440E+01
1.20035000000E+09	-2.22148667005E+00	-8.10513390535E+01	-1.35451415380E+01	-1.38386116028E+02	-1.31528824507E+01	-1.41164347240E+02	-2.10523807791E+00	-8.50347124113E+01
1.22034750000E+09	-2.71846909855E+00	-8.83124245318E+01	-1.25240143090E+01	-1.39128593296E+02	-1.20880451775E+01	-1.41681607148E+02	-2.42212011603E+00	-9.15845241030E+01
1.24034500000E+09	-3.21509012412E+00	-9.60579790363E+01	-1.14298136536E+01	-1.44343803884E+02	-1.09646812864E+01	-1.47527094549E+02	-2.75460913803E+00	-9.84434021174E+01
1.26034250000E+09	-3.72145341955E+00	-1.04435918193E+02	-1.09879396665E+01	-1.49697191828E+02	-1.06162923983E+01	-1.53692523292E+02	-3.06947418367E+00	-1.05710173994E+02
1.28034000000E+09	-4.17933338227E+00	-1.13462124788E+02	-1.05666744729E+01	-1.50571144338E+02	-1.03682418246E+01	-1.54723976403E+02	-3.40476057022E+00	-1.13270178102E+02
1.30033750000E+09	-4.54007116525E+00	-1.22310774203E+02	-9.26616173435E+00	-1.51286400469E+02	-9.19116563958E+00	-1.54909282253E+02	-3.74498241938E+00	-1.20550153169E+02
1.32033500000E+09	-4.64930584885E+00	-1.30354507907E+02	-7.83784561583E+00	-1.59191994726E+02	-7.83482386332E+00	-1.62323667384E+02	-3.95082245264E+00	-1.27223800530E+02
1.34033250000E+09	-4.61541953443E+00	-1.37593372923E+02	-7.34283378211E+00	-1.69084869456E+02	-7.48112944267E+00	-1.71551574882E+02	-4.06963612902E+00	-1.33737509293E+02
1.36033000000E+09	-4.49961192749E+00	-1.43801084753E+02	-7.14913458833E+00	-1.75325347408E+02	-7.41895461385E+00	-1.76257608202E+02	-4.12675386725E+00	-1.39466763807E+02
1.38032750000E+09	-4.31873590000E+00	-1.48980476928E+02	-6.59180912744E+00	1.79057898789E+02	-6.83917766492E+00	-1.79926830096E+02	-4.11129696469E+00	-1.44203198380E+02
1.40032500000E+09	-4.08637279123E+00	-1.53479467021E+02	-6.16696001025E+00	1.70359142038E+02	-6.21356048527E+00	1.72291121936E+02	-4.10400596379E+00	-1.48289743941E+02
1.42032250000E+09	-3.89925500961E+00	-1.56598971799E+02	-6.36201220200E+00	1.62631937333E+02	-6.26146384774E+00	1.64458443215E+02	-4.20638075886E+00	-1.51654279209E+02
1.44032000000E+09	-3.69782942165E+00	-1.58784747499E+02	-6.55595817438E+00	1.58825665508E+02	-6.40369054352E+00	1.60745124594E+02	-4.29052815015E+00	-1.54950591726E+02
1.46031750000E+09	-3.58751825282E+00	-1.60801431307E+02	-6.27339439259E+00	1.56370472201E+02	-6.11471451791E+00	1.58988375692E+02	-4.37272710590E+00	-1.58540872630E+02
1.48031500000E+09	-3.62401208552E+00	-1.62816228882E+02	-5.69110335629E+00	1.52136014732E+02	-5.54201546883E+00	1.55362477749E+02	-4.52448471223E+00	-1.61741253417E+02
1.50031250000E+09	-3.82388908704E+00	-1.64695672048E+02	-5.29078428145E+00	1.47045506930E+02	-5.18139993183E+00	1.50358622262E+02	-4.82430569242E+00	-1.64166061990E+02
1.52031000000E+09	-4.20610926012E+00	-1.66977026089E+02	-4.96706670605E+00	1.43838621379E+02	-4.87792129576E+00	1.46858383134E+02	-5.29281358179E+00	-1.67068553032E+02
1.54030750000E+09	-5.03848628783E+00	-1.70147031267E+02	-4.27499559180E+00	1.41973367533E+02	-4.18220403007E+00	1.44371484103E+02	-6.19059819271E+00	-1.72440075426E+02
1.56030500000E+09	-6.70731404331E+00	-1.73392603344E+02	-3.16223748268E+00	1.37860265313E+02	-3.10840956298E+00	1.39673799696E+02	-7.80194945250E+00	1.79799734587E+02
1.58030250000E+09	-9.65606550065E+00	-1.75763143941E+02	-2.11848700400E+00	1.30353447105E+02	-2.12378060976E+00	1.32373275600E+02	-1.04117129646E+01	1.70705417501E+02
1.60030000000E+09	-1.54546630937E+01	-1.70578415873E+02	-1.28149636750E+00	1.21639740101E+02	-1.20450721398E+00	1.24027329620E+02	-1.49950162523E+01	1.62032669125E+02
1.62029750000E+09	-1.99647167551E+01	-1.02089445040E+02	-5.57565204107E-01	1.10774826430E+02	-3.41303303172E-01	1.11807496568E+02	-2.60193167677E+01	-1.75657985704E+02
1.64029500000E+09	-1.41817763317E+01	-7.26710218465E+01	-4.07688316324E-01	9.80059607823E+01	-3.86039128707E-01	9.73348466593E+01	-2.01495002005E+01	-7.71003677868E+01
1.66029250000E+09	-1.08287851711E+01	-6.87481773959E+01	-8.08892575752E-01	8.76858364465E+01	-9.78677189344E-01	8.73996418151E+01	-1.40580551415E+01	-7.42290852631E+01
1.68029000000E+09	-9.16127270451E+00	-7.03255535030E+01	-1.19968565613E+00	7.98628083466E+01	-1.22382447572E+00	8.00768297340E+01	-1.15305580665E+01	-7.83031702102E+01
1.70028750000E+09	-8.54457768186E+00	-7.22728621517E+01	-1.59193444577E+00	7.29763651134E+01	-1.45051119178E+00	7.17283360063E+01	-1.07633586525E+01	-8.22718914311E+01
1.72028500000E+09	-8.58211914811E+00	-7.50938539724E+01	-2.04829184108E+00	6.81326287329E+01	-2.06547079019E+00	6.52165518542E+01	-1.10189189395E+01	-8.76087575542E+01
1.74028250000E+09	-9.44463658664E+00	-7.91646373521E+01	-2.14157661360E+00	6.57075569332E+01	-2.50213781184E+00	6.35731415795E+01	-1.22549243405E+01	-9.61993501450E+01
1.76028000000E+09	-1.09407767213E+01	-8.03102100586E+01	-1.73678176709E+00	6.22528449438E+01	-2.16495631811E+00	6.23270425215E+01	-1.41003593039E+01	-1.04386742578E+02
1.78027750000E+09	-1.26317503932E+01	-7.83948090210E+01	-1.27542135694E+00	5.60641363996E+01	-1.56144245930E+00	5.69893021609E+01	-1.59548919048E+01	-1.10631358502E+02
1.80027500000E+09	-1.49849754269E+01	-7.39962384438E+01	-1.09938271057E+00	4.93148885600E+01	-1.29815314384E+00	4.98124008277E+01	-1.86899551756E+01	-1.15909170349E+02
1.82027250000E+09	-1.79890063017E+01	-6.25080637872E+01	-1.01313423565E+00	4.39039341507E+01	-1.20533767830E+00	4.42087512862E+01	-2.32457170476E+01	-1.18462727705E+02
1.84027000000E+09	-2.00780427554E+01	-5.05647594011E+01	-7.58732532511E-01	3.89569018632E+01	-8.88464685662E-01	3.96757558497E+01	-2.80370992789E+01	-1.15024759642E+02
1.86026750000E+09	-2.28154737502E+01	-6.76940769414E+01	-3.71197561959E-01	3.21232192295E+01	-3.81323536981E-01	3.27498918988E+01	-2.66859119588E+01	-1.36685004063E+02
1.88026500000E+09	-2.62794414289E+01	-1.25751711435E+02	-3.17249196101E-01	2.30796782454E+01	-3.15354355700E-01	2.32440798318E+01	-2.27980544085E+01	-1.66933630682E+02
1.90026250000E+09	-2.18963282152E+01	-1.64068323480E+02	-6.44000559234E-01	1.46803024379E+01	-6.86845660778E-01	1.49618820981E+01	-1.89504449957E+01	-1.75319011148E+02
1.92026000000E+09	-1.67087914098E+01	-1.74806549208E+02	-1.06955298243E+00	7.26587995433E+00	-1.13859045272E+00	7.70477822975E+00	-1.51795292611E+01	-1.77514604664E+02
1.94025750000E+09	-1.29992513745E+01	1.79167224770E+02	-1.63628943711E+00	-4.25202553563E-01	-1.76334096244E+00	-2.02528657634E-01	-1.24141880592E+01	-1.79364932759E+02
1.96025500000E+09	-1.04363174572E+01	1.76490958323E+02	-2.52209023992E+00	-7.37302055847E+00	-2.70108806115E+00	-7.29622503893E+00	-1.05426265825E+01	1.79794407821E+02
1.98025250000E+09	-8.53644725189E+00	1.74502096366E+02	-3.51531836422E+00	-1.19238223278E+01	-3.69542114943E+00	-1.15345094694E+01	-9.02488947254E+00	1.77498848444E+02
2.00025000000E+09	-7.28974849252E+00	1.72148671303E+02	-4.25058797214E+00	-1.45936075130E+01	-4.37145962521E+00	-1.35398079142E+01	-7.89170009395E+00	1.73232167600E+02
2.02024750000E+09	-6.53749437069E+00	1.70129525394E+02	-4.66930049012E+00	-1.74527649782E+01	-4.72144998651E+00	-1.55257838459E+01	-7.10222352646E+00	1.69364421454E+02
2.04024500000E+09	-6.06432472165E+00	1.68674342296E+02	-5.01436576457E+00	-2.05413884360E+01	-4.99500788120E+00	-1.81710871390E+01	-6.56993954110E+00	1.66871064976E+02
2.06024250000E+09	-5.84985175949E+00	1.67263972596E+02	-5.20927769468E+00	-2.25214314065E+01	-5.15769482561E+00	-2.01634696779E+01	-6.36563883396E+00	1.64725824276E+02
2.08024000000E+09	-6.01657410566E+00	1.66142844751E+02	-4.92703295369E+00	-2.38575225568E+01	-4.84753079403E+00	-2.16833669960E+01	-6.61684305777E+00	1.61911175505E+02
2.10023750000E+09	-6.73302573581E+00	1.66091064174E+02	-4.06315142306E+00	-2.76378093004E+01	-3.92257605882E+00	-2.54850642648E+01	-7.44604650982E+00	1.58405040276E+02
2.12023500000E+09	-7.99643258553E+00	1.68120547696E+02	-3.01409261310E+00	-3.59009607391E+01	-2.76886061998E+00	-3.41646095188E+01	-9.01795514569E+00	1.55436311552E+02
2.14023250000E+09	-1.00014916004E+01	1.74049130040E+02	-2.10343910655E+00	-4.78886568335E+01	-1.87855182078E+00	-4.73014901442E+01	-1.17647170110E+01	1.54470775258E+02
2.16023000000E+09	-1.24952464953E+01	-1.68485435172E+02	-1.55418168997E+00	-6.31758460655E+01	-1.54242415675E+00	-6.35022429171E+01	-1.68729252662E+01	1.69262881579E+02
2.18022750000E+09	-1.24097442696E+01	-1.36112286365E+02	-1.83217246964E+00	-8.04187177231E+01	-2.09437743143E+00	-8.03255292843E+01	-1.68519818691E+01	-1.29557341547E+02
2.20022500000E+09	-9.19222915438E+00	-1.19908777221E+02	-2.89636146119E+00	-9.39101398491E+01	-3.32258064750E+00	-9.27020262595E+01	-1.11470791297E+01	-1.15508555890E+02
2.22022250000E+09	-6.99643584906E+00	-1.18958261568E+02	-3.91597265062E+00	-1.02197029979E+02	-4.43394637326E+00	-9.98016686290E+01	-8.34761910995E+00	-1.19374636532E+02
2.24022000000E+09	-5.91890491735E+00	-1.20543377484E+02	-4.47395473163E+00	-1.08060962108E+02	-4.98267450537E+00	-1.04423661416E+02	-7.13580607665E+00	-1.23977039613E+02
2.26021750000E+09	-5.50302913562E+00	-1.22488631858E+02	-4.65406555205E+00	-1.13832964556E+02	-5.00573211961E+00	-1.09208973172E+02	-6.69793010943E+00	-1.27859539186E+02
2.28021500000E+09	-5.45075422549E+00	-1.24924714351E+02	-4.54939945070E+00	-1.20368056657E+02	-4.68196426955E+00	-1.15780904288E+02	-6.61978127581E+00	-1.32194513785E+02
2.30021250000E+09	-5.65772461463E+00	-1.28557513032E+02	-4.16788198531E+00	-1.28911316121E+02	-4.19691091829E+00	-1.24997149708E+02	-6.76952734867E+00	-1.37549098969E+02
