# Hz S DB R 50
! CMT, S5180, 51801906, 22.3.3/1
! Date: 27/01/2023 17:19:16
! Data: Format (Calibration Info)
! Freq	S11:dB/Ang(F2)	S21:dB/Ang(F2)	S12:dB/Ang(F2)	S22:dB/Ang(F2)
5.00000000000E+05	-3.68111310099E+00	-8.98983718953E+00	-5.54119728477E+01	-9.62324645095E+00	-3.65485021854E+01	-1.02126264543E+02	-3.38673140890E-01	4.73742504809E+00
2.04975000000E+07	-6.10186529707E+00	1.75983822186E+02	-5.93286416801E+00	-4.23011922316E+00	-6.03659526823E+00	-3.32345475797E+00	-6.14840291798E+00	-1.78616850076E+02
4.04950000000E+07	-6.06215687130E+00	1.71063591658E+02	-5.96389126564E+00	-9.99197040190E+00	-6.04276511672E+00	-9.41723039583E+00	-6.24636642329E+00	1.75071146541E+02
6.04925000000E+07	-6.10932924610E+00	1.65407738036E+02	-6.01584114229E+00	-1.53927233590E+01	-6.08842348812E+00	-1.49146410050E+01	-6.22790850991E+00	1.69962079599E+02
8.04900000000E+07	-6.09863800600E+00	1.59574882357E+02	-6.03511345572E+00	-2.05299436672E+01	-6.09989404581E+00	-2.01345464741E+01	-6.14451935149E+00	1.65282593993E+02
1.00487500000E+08	-6.07645658695E+00	1.54075771481E+02	-6.01816803860E+00	-2.57001147980E+01	-6.07060607323E+00	-2.53114554882E+01	-6.06852490371E+00	1.61081966026E+02
1.20485000000E+08	-6.09299017657E+00	1.48725371851E+02	-5.98264741399E+00	-3.07816620908E+01	-6.01743836477E+00	-3.04076130751E+01	-6.02562715855E+00	1.57054338859E+02
1.40482500000E+08	-6.14824837106E+00	1.43240330999E+02	-5.92341758979E+00	-3.58530099649E+01	-5.92981652933E+00	-3.55579208961E+01	-6.03740705069E+00	1.52775459036E+02
1.60480000000E+08	-6.21483710564E+00	1.37690938303E+02	-5.85876390280E+00	-4.11057595471E+01	-5.84213953328E+00	-4.09846140199E+01	-6.06106651554E+00	1.48266102565E+02
1.80477500000E+08	-6.26678851986E+00	1.32243670661E+02	-5.80162149188E+00	-4.64451856627E+01	-5.78102732056E+00	-4.65878324320E+01	-6.04565972338E+00	1.43704326469E+02
2.00475000000E+08	-6.33343577610E+00	1.27097384245E+02	-5.73834417673E+00	-5.18777033022E+01	-5.72224623918E+00	-5.22209941324E+01	-6.01626981818E+00	1.39502185500E+02
2.20472500000E+08	-6.45189559326E+00	1.21903627140E+02	-5.65721959742E+00	-5.75752661674E+01	-5.66398164979E+00	-5.80301964622E+01	-6.03236950995E+00	1.35400804300E+02
2.40470000000E+08	-6.58291925029E+00	1.16175396682E+02	-5.60468425429E+00	-6.34807358594E+01	-5.62775415384E+00	-6.38884207868E+01	-6.07493810281E+00	1.30872421592E+02
2.60467500000E+08	-6.68838358152E+00	1.10134724511E+02	-5.58375507233E+00	-6.93866508798E+01	-5.61808683790E+00	-6.97436137602E+01	-6.09000033596E+00	1.25861778364E+02
2.80465000000E+08	-6.76475915348E+00	1.04396847160E+02	-5.56419911021E+00	-7.52363797277E+01	-5.61055234774E+00	-7.55571964645E+01	-6.03245854545E+00	1.20801486591E+02
3.00462500000E+08	-6.89926422492E+00	9.90395365125E+01	-5.57468040522E+00	-8.11977283326E+01	-5.64224310160E+00	-8.13588531720E+01	-5.97495106260E+00	1.16100650203E+02
3.20460000000E+08	-7.13098650583E+00	9.35234946563E+01	-5.62898019206E+00	-8.71638515716E+01	-5.70120500074E+00	-8.69638598120E+01	-5.95170339181E+00	1.11354267654E+02
3.40457500000E+08	-7.38219195381E+00	8.76089485319E+01	-5.70478942387E+00	-9.28960313562E+01	-5.74549294383E+00	-9.23088356343E+01	-5.91722924092E+00	1.06531584799E+02
3.60455000000E+08	-7.58425859340E+00	8.14504312531E+01	-5.74236005106E+00	-9.84931282609E+01	-5.74665572770E+00	-9.76873152144E+01	-5.83181544446E+00	1.01541409843E+02
3.80452500000E+08	-7.78286751422E+00	7.55537015655E+01	-5.76707243119E+00	-1.04234584535E+02	-5.74947906771E+00	-1.03210611814E+02	-5.68325712353E+00	9.67838052056E+01
4.00450000000E+08	-8.05188751120E+00	6.98425060207E+01	-5.83524802896E+00	-1.10011649714E+02	-5.78838882680E+00	-1.08497481435E+02	-5.52045569241E+00	9.23827412476E+01
4.20447500000E+08	-8.38625191911E+00	6.36224454009E+01	-5.95244155992E+00	-1.15463623943E+02	-5.80941110780E+00	-1.13310563669E+02	-5.35876542611E+00	8.79736961831E+01
4.40445000000E+08	-8.71345538813E+00	5.65380663471E+01	-6.03503230067E+00	-1.20438683535E+02	-5.73909723384E+00	-1.18039114602E+02	-5.16050345978E+00	8.33478259058E+01
4.60442500000E+08	-8.99386823429E+00	4.91685700876E+01	-6.03069416202E+00	-1.25491777425E+02	-5.60139789691E+00	-1.23379044031E+02	-4.94393381487E+00	7.87009764371E+01
4.80440000000E+08	-9.27694520153E+00	4.21929220006E+01	-6.01947449089E+00	-1.30907463374E+02	-5.51536298855E+00	-1.28981707222E+02	-4.73407447858E+00	7.43508438299E+01
5.00437500000E+08	-9.62907688905E+00	3.52714991164E+01	-6.07052134680E+00	-1.36103629749E+02	-5.42513069339E+00	-1.34134173826E+02	-4.53444479502E+00	7.01013988272E+01
5.20435000000E+08	-1.01258124499E+01	2.77590771850E+01	-6.05671717046E+00	-1.40407140109E+02	-5.20158279830E+00	-1.39143452730E+02	-4.41901947221E+00	6.55923922758E+01
5.40432500000E+08	-1.07740104966E+01	2.00612255207E+01	-5.85136996155E+00	-1.44692664027E+02	-4.88161702212E+00	-1.45315653752E+02	-4.42228683728E+00	6.06874091509E+01
5.60430000000E+08	-1.13986284821E+01	1.26783337758E+01	-5.57845851012E+00	-1.50251948292E+02	-4.67490320375E+00	-1.52384164764E+02	-4.44704961821E+00	5.58094480247E+01
5.80427500000E+08	-1.20206954356E+01	5.33516108908E+00	-5.39205563939E+00	-1.56056232875E+02	-4.56422870323E+00	-1.59312715094E+02	-4.42131154911E+00	5.03639417670E+01
6.00425000000E+08	-1.27344909237E+01	-1.70449381036E+00	-5.12245766982E+00	-1.61489544141E+02	-4.42287055247E+00	-1.66222853534E+02	-4.38368515531E+00	4.47518371832E+01
6.20422500000E+08	-1.34280274888E+01	-8.61073845730E+00	-4.66057438673E+00	-1.68127398996E+02	-4.27650645100E+00	-1.73781508465E+02	-4.33550021157E+00	3.93855458061E+01
6.40420000000E+08	-1.40256783320E+01	-1.77204159066E+01	-4.30470709199E+00	-1.76923477735E+02	-4.21221102187E+00	1.78164635158E+02	-4.29485913626E+00	3.32311096527E+01
6.60417500000E+08	-1.47384497216E+01	-2.93382007415E+01	-4.24071427105E+00	1.73838176590E+02	-4.22197924804E+00	1.70144408528E+02	-4.32276324028E+00	2.52959219825E+01
6.80415000000E+08	-1.55591263051E+01	-4.13908529330E+01	-4.27308079193E+00	1.65554582375E+02	-4.24195733501E+00	1.62216652576E+02	-4.29188486048E+00	1.61072083820E+01
7.00412500000E+08	-1.65250771328E+01	-5.32379821540E+01	-4.22433849708E+00	1.57167055304E+02	-4.27576234199E+00	1.53931274925E+02	-4.11070570952E+00	6.60009695213E+00
7.20410000000E+08	-1.79219042758E+01	-6.69564579947E+01	-4.28011858410E+00	1.47575320424E+02	-4.40866044846E+00	1.45278250360E+02	-3.96541905627E+00	-2.43511099269E+00
7.40407500000E+08	-1.99929345233E+01	-8.47923186248E+01	-4.64616438240E+00	1.38101587715E+02	-4.67176880806E+00	1.36860120457E+02	-4.00138759237E+00	-1.10079116996E+01
7.60405000000E+08	-2.21086975746E+01	-1.07561979796E+02	-5.15194933633E+00	1.30144113335E+02	-4.96206815907E+00	1.28788278817E+02	-4.08987828844E+00	-2.03175485323E+01
7.80402500000E+08	-2.38957372612E+01	-1.34822794250E+02	-5.58289958662E+00	1.22991861637E+02	-5.24750366084E+00	1.20406714711E+02	-4.09320340901E+00	-3.05979925697E+01
8.00400000000E+08	-2.54886456222E+01	-1.69796401917E+02	-6.02636382178E+00	1.15666007591E+02	-5.58235502438E+00	1.11499579190E+02	-3.99465206261E+00	-4.04783322587E+01
8.20397500000E+08	-2.54525101213E+01	1.45181148865E+02	-6.61269930632E+00	1.09526592578E+02	-6.06521933873E+00	1.02574663447E+02	-3.92923718224E+00	-4.89321838260E+01
8.40395000000E+08	-2.31008468037E+01	1.12023689769E+02	-6.96529072321E+00	1.05662489248E+02	-6.67640663452E+00	9.45312908247E+01	-4.09103034623E+00	-5.63050494109E+01
8.60392500000E+08	-2.07076813846E+01	9.27504125854E+01	-6.79453402033E+00	1.00506042514E+02	-7.26082205950E+00	8.75816723509E+01	-4.46164622160E+00	-6.27569331890E+01
8.80390000000E+08	-1.87722724704E+01	7.54448562552E+01	-6.72721575444E+00	9.16687085279E+01	-7.77938066414E+00	8.06762956616E+01	-4.83339434042E+00	-6.92757452231E+01
9.00387500000E+08	-1.69326682740E+01	5.75479889296E+01	-7.09603486236E+00	8.26768339887E+01	-8.37925669584E+00	7.30931806587E+01	-5.20247301865E+00	-7.61489586134E+01
9.20385000000E+08	-1.52119386244E+01	4.30032840637E+01	-7.46046582371E+00	7.56152965677E+01	-9.17568060811E+00	6.57618538481E+01	-5.60428466607E+00	-8.24103927188E+01
9.40382500000E+08	-1.37563384914E+01	3.21187957245E+01	-7.53340315486E+00	6.72455344596E+01	-1.00153473650E+01	5.99802849863E+01	-6.04919191812E+00	-8.76223771578E+01
9.60380000000E+08	-1.27759153618E+01	2.18734496743E+01	-7.90316517621E+00	5.57016828753E+01	-1.05855786517E+01	5.52429343672E+01	-6.63897166128E+00	-9.29034757768E+01
9.80377500000E+08	-1.23477223659E+01	1.21026743642E+01	-8.86137962486E+00	4.49226198547E+01	-1.09486084603E+01	4.92811618340E+01	-7.52901856264E+00	-9.88949645711E+01
1.00037500000E+09	-1.20577646692E+01	3.45806584882E+00	-9.94302307077E+00	3.72184943332E+01	-1.15145563638E+01	4.22815305959E+01	-8.49874631072E+00	-1.06000964827E+02
1.02037250000E+09	-1.18076099260E+01	-4.04394060993E+00	-1.07858603331E+01	3.07323615604E+01	-1.22808075557E+01	3.66558918506E+01	-9.29769192016E+00	-1.14098113108E+02
1.04037000000E+09	-1.17447881846E+01	-1.05497222001E+01	-1.15680766240E+01	2.34308216928E+01	-1.28416011976E+01	3.22796404539E+01	-9.95895437606E+00	-1.22022615476E+02
1.06036750000E+09	-1.19782874972E+01	-1.66701197604E+01	-1.25685309651E+01	1.61206217214E+01	-1.31606035778E+01	2.61896202533E+01	-1.07004509931E+01	-1.29300528954E+02
1.08036500000E+09	-1.23629590659E+01	-2.30321541436E+01	-1.36995485359E+01	1.05709051581E+01	-1.37049374689E+01	1.82026210387E+01	-1.15544508562E+01	-1.36988819061E+02
1.10036250000E+09	-1.27446080291E+01	-2.97660100050E+01	-1.46862556815E+01	6.30034642465E+00	-1.45913400701E+01	1.12669608470E+01	-1.22439172472E+01	-1.46586018284E+02
1.12036000000E+09	-1.31709561015E+01	-3.59010009487E+01	-1.54914553962E+01	1.84207170461E+00	-1.54487327334E+01	6.38631215294E+00	-1.25346148128E+01	-1.56603267603E+02
1.14035750000E+09	-1.37894926603E+01	-4.14865032604E+01	-1.63423097224E+01	-2.99491865628E+00	-1.60938454780E+01	1.59510126053E+00	-1.25656884635E+01	-1.64977962687E+02
1.16035500000E+09	-1.47224217517E+01	-4.74583550089E+01	-1.72489855427E+01	-7.36996730463E+00	-1.67890067135E+01	-4.68786381171E+00	-1.25526194333E+01	-1.71469666168E+02
1.18035250000E+09	-1.59073717962E+01	-5.59399072858E+01	-1.81005291934E+01	-1.11498059579E+01	-1.77857498395E+01	-1.07811101958E+01	-1.25199215320E+01	-1.76980163983E+02
1.20035000000E+09	-1.70359824915E+01	-6.71068456298E+01	-1.88776044665E+01	-1.51620969717E+01	-1.88732358259E+01	-1.49923096688E+01	-1.24510041993E+01	1.78544499553E+02
1.22034750000E+09	-1.78798181941E+01	-8.00305784159E+01	-1.96929419586E+01	-1.93906771615E+01	-1.97943264590E+01	-1.79075436886E+01	-1.23757056987E+01	1.75364925056E+02
1.24034500000E+09	-1.85334434545E+01	-9.33369000067E+01	-2.05612794546E+01	-2.38471415849E+01	-2.05578458323E+01	-2.19947578846E+01	-1.24203511444E+01	1.72944130639E+02
1.26034250000E+09	-1.90044328653E+01	-1.07978879250E+02	-2.14729192696E+01	-2.80428299401E+01	-2.15054531499E+01	-2.67111350240E+01	-1.25011960999E+01	1.71155659232E+02
1.28034000000E+09	-1.89018020155E+01	-1.23745170169E+02	-2.24453521055E+01	-3.22133810413E+01	-2.26195797427E+01	-3.05735806861E+01	-1.26202968182E+01	1.69768654098E+02
1.30033750000E+09	-1.82040029964E+01	-1.37442901778E+02	-2.35078370302E+01	-3.62627420071E+01	-2.36624729844E+01	-3.31968298035E+01	-1.27089774684E+01	1.68960910904E+02
1.32033500000E+09	-1.73235822350E+01	-1.46908305657E+02	-2.45893440223E+01	-4.00693247957E+01	-2.45465077829E+01	-3.64790259886E+01	-1.28727609664E+01	1.68665698450E+02
1.34033250000E+09	-1.66872846564E+01	-1.53717712412E+02	-2.56929078531E+01	-4.42127329900E+01	-2.55313292121E+01	-4.10219142220E+01	-1.30611498883E+01	1.68509115241E+02
1.36033000000E+09	-1.62938017784E+01	-1.60000489744E+02	-2.68859996130E+01	-4.88109603082E+01	-2.67593136127E+01	-4.59770333344E+01	-1.32589029242E+01	1.68959695374E+02
1.38032750000E+09	-1.60004200631E+01	-1.66633754388E+02	-2.82418705671E+01	-5.36704169067E+01	-2.81316734776E+01	-5.05900986595E+01	-1.35659026456E+01	1.70116603703E+02
1.40032500000E+09	-1.56243973726E+01	-1.73078712958E+02	-2.97783375241E+01	-5.88380765872E+01	-2.95995491736E+01	-5.58253514301E+01	-1.41173378931E+01	1.71202717519E+02
1.42032250000E+09	-1.52612874435E+01	-1.78141897438E+02	-3.15462559528E+01	-6.50443462063E+01	-3.12617985103E+01	-6.29202788242E+01	-1.48987192037E+01	1.69915306252E+02
1.44032000000E+09	-1.51259181736E+01	1.77933179608E+02	-3.36718826620E+01	-7.37131120118E+01	-3.33495183666E+01	-7.22440845301E+01	-1.55697771770E+01	1.65121608081E+02
1.46031750000E+09	-1.53394148589E+01	1.73878547291E+02	-3.63767365474E+01	-8.71551287050E+01	-3.61130757788E+01	-8.54557735008E+01	-1.56791457652E+01	1.59048850731E+02
1.48031500000E+09	-1.58176467869E+01	1.67927639965E+02	-3.96697644647E+01	-1.11169334798E+02	-3.94744195871E+01	-1.08542138894E+02	-1.54750017396E+01	1.55429511906E+02
1.50031250000E+09	-1.63655584637E+01	1.59793325211E+02	-4.15971615566E+01	-1.54559018744E+02	-4.14404131957E+01	-1.51653206833E+02	-1.55434587363E+01	1.53262840658E+02
1.52031000000E+09	-1.68547865125E+01	1.50222686614E+02	-3.90875624354E+01	1.64251046991E+02	-3.89181447500E+01	1.66781653581E+02	-1.60437715499E+01	1.48944413402E+02
1.54030750000E+09	-1.74638902843E+01	1.39366092357E+02	-3.53994266319E+01	1.41943227032E+02	-3.52396254800E+01	1.43987954024E+02	-1.64250451989E+01	1.39144037041E+02
1.56030500000E+09	-1.81869297733E+01	1.24641998307E+02	-3.23524986054E+01	1.28732928670E+02	-3.21950098263E+01	1.30850978853E+02	-1.58599802233E+01	1.26677339631E+02
1.58030250000E+09	-1.83036199454E+01	1.04793444866E+02	-2.99248230096E+01	1.19297561175E+02	-2.97646452897E+01	1.22341336936E+02	-1.45184424279E+01	1.17456755865E+02
1.60030000000E+09	-1.71638783046E+01	8.57007111850E+01	-2.78910059364E+01	1.12038920659E+02	-2.75971784372E+01	1.15975932619E+02	-1.31459503424E+01	1.12794136645E+02
1.62029750000E+09	-1.56008171014E+01	7.25578570454E+01	-2.59761282216E+01	1.05886355447E+02	-2.55744798568E+01	1.09165589149E+02	-1.20985085095E+01	1.10056193240E+02
1.64029500000E+09	-1.42884590279E+01	6.34429915840E+01	-2.41787884606E+01	9.93097585010E+01	-2.39003905648E+01	1.01176017615E+02	-1.13971352533E+01	1.07329595135E+02
1.66029250000E+09	-1.32402057856E+01	5.51907756386E+01	-2.26280598571E+01	9.22002560427E+01	-2.26417575562E+01	9.39875917343E+01	-1.09193157662E+01	1.03222604451E+02
1.68029000000E+09	-1.21987942560E+01	4.77463125619E+01	-2.12747250728E+01	8.55391218158E+01	-2.14102749369E+01	8.85381893604E+01	-1.03075821837E+01	9.74213348810E+01
1.70028750000E+09	-1.12530064592E+01	4.21220055634E+01	-1.99133465855E+01	7.90520995875E+01	-1.99828973303E+01	8.27745027986E+01	-9.34704599456E+00	9.19503004791E+01
1.72028500000E+09	-1.05111724660E+01	3.79251240452E+01	-1.86268293517E+01	7.12911353393E+01	-1.87557175134E+01	7.51475146268E+01	-8.24476809563E+00	8.85945738027E+01
1.74028250000E+09	-1.00929482342E+01	3.38011359209E+01	-1.76492027171E+01	6.27171225624E+01	-1.80288320869E+01	6.80503344369E+01	-7.36855124505E+00	8.67678452880E+01
1.76028000000E+09	-9.84327049552E+00	2.88776384635E+01	-1.69898299185E+01	5.54936149044E+01	-1.74453910414E+01	6.41681349998E+01	-6.86367891495E+00	8.45411958160E+01
1.78027750000E+09	-9.64662553749E+00	2.35863485294E+01	-1.62334205309E+01	4.99041468190E+01	-1.64166403150E+01	6.08854813205E+01	-6.56685604763E+00	8.03507887489E+01
1.80027500000E+09	-9.52292176144E+00	1.90813019402E+01	-1.52986964353E+01	4.30592921542E+01	-1.52414109389E+01	5.50810405056E+01	-6.18764660746E+00	7.45866777211E+01
1.82027250000E+09	-9.66358422122E+00	1.55909728759E+01	-1.46530835894E+01	3.42402545353E+01	-1.43939618888E+01	4.86390925672E+01	-5.61722327406E+00	6.88660145897E+01
1.84027000000E+09	-1.01974390777E+01	1.20673001199E+01	-1.45863041906E+01	2.68119033710E+01	-1.36591101576E+01	4.51653387478E+01	-4.95964810856E+00	6.36800439153E+01
1.86026750000E+09	-1.11012951470E+01	7.20676403244E+00	-1.45190859178E+01	2.43851966962E+01	-1.23474908784E+01	4.27306969147E+01	-4.36024166527E+00	5.78208267326E+01
1.88026500000E+09	-1.23122391697E+01	1.40485617937E+00	-1.37007880264E+01	2.32548573624E+01	-1.06714918091E+01	3.61141675589E+01	-3.89313817434E+00	5.08849938654E+01
1.90026250000E+09	-1.37098902166E+01	-3.99855406543E+00	-1.25200576724E+01	1.79644756644E+01	-9.38231117151E+00	2.61093147036E+01	-3.54293294192E+00	4.36898006195E+01
1.92026000000E+09	-1.54517269971E+01	-8.55095497450E+00	-1.17749836728E+01	1.05116769592E+01	-8.51969968358E+00	1.64652716291E+01	-3.31967095712E+00	3.58384564602E+01
1.94025750000E+09	-1.79262039089E+01	-1.19708825330E+01	-1.12677818110E+01	6.10156880204E+00	-7.67127293550E+00	7.32148429814E+00	-3.24047272842E+00	2.61009942233E+01
1.96025500000E+09	-2.12690461507E+01	-1.33664711182E+01	-1.01205471553E+01	3.20767554774E+00	-6.74412211145E+00	-3.48113069436E+00	-3.16287588228E+00	1.51650659162E+01
1.98025250000E+09	-2.49300275937E+01	-1.52054483938E+01	-8.52917244821E+00	-4.41465661935E+00	-6.01090907906E+00	-1.62061113304E+01	-2.80103988394E+00	5.09106054126E+00
2.00025000000E+09	-2.94636713346E+01	-1.99157477747E+01	-7.37877822598E+00	-1.62920620158E+01	-5.58330866649E+00	-2.85588848466E+01	-2.31383604802E+00	-3.63672780720E+00
2.02024750000E+09	-3.61309065151E+01	2.26025241798E+00	-6.80370727531E+00	-2.75539046897E+01	-5.37749029664E+00	-3.95024539488E+01	-2.09515841633E+00	-1.16734825484E+01
2.04024500000E+09	-3.29858657374E+01	6.81547199503E+01	-6.23512159451E+00	-3.67878156055E+01	-5.24782493152E+00	-4.92955267716E+01	-2.15640546678E+00	-1.98386991369E+01
2.06024250000E+09	-2.72159844542E+01	8.41907087024E+01	-5.41446653391E+00	-4.76608473802E+01	-5.08864218770E+00	-5.92209323282E+01	-2.30309065178E+00	-2.90668874007E+01
2.08024000000E+09	-2.32190966053E+01	8.73979082291E+01	-4.97146404931E+00	-6.18549636666E+01	-4.98319567627E+00	-7.01151247022E+01	-2.48492256401E+00	-3.85411481392E+01
2.10023750000E+09	-2.03732928981E+01	7.79099167385E+01	-5.24903558898E+00	-7.50607050824E+01	-5.05053788671E+00	-8.14069030181E+01	-2.67089997599E+00	-4.64272231004E+01
2.12023500000E+09	-1.83225375586E+01	6.04015557867E+01	-5.76622870927E+00	-8.42301248425E+01	-5.38418306741E+00	-9.20641373720E+01	-2.94656711182E+00	-5.27583459204E+01
2.14023250000E+09	-1.65297145720E+01	4.39413593837E+01	-6.07136291418E+00	-9.11019032421E+01	-5.81341938827E+00	-1.01123998086E+02	-3.25264722502E+00	-5.82219965716E+01
2.16023000000E+09	-1.47370110786E+01	3.11586544063E+01	-6.25105972562E+00	-9.82652759617E+01	-6.22981853378E+00	-1.09427346371E+02	-3.65170977252E+00	-6.34587969884E+01
2.18022750000E+09	-1.33483908174E+01	2.00769472542E+01	-6.66466841361E+00	-1.05175257848E+02	-6.77630573125E+00	-1.17523248886E+02	-4.10267667764E+00	-6.87819348505E+01
2.20022500000E+09	-1.23535485740E+01	8.69156080401E+00	-7.09973591919E+00	-1.09515876036E+02	-7.50631320913E+00	-1.24516133216E+02	-4.51890036716E+00	-7.43134384115E+01
2.22022250000E+09	-1.12828960426E+01	-1.55456425239E+00	-7.23843569437E+00	-1.12232703003E+02	-8.29275383919E+00	-1.29618952382E+02	-4.82031383167E+00	-7.93324432761E+01
2.24022000000E+09	-1.00584768839E+01	-9.59775898449E+00	-7.05315508146E+00	-1.14884903730E+02	-8.93212063895E+00	-1.32646728612E+02	-5.01305288625E+00	-8.32838191014E+01
2.26021750000E+09	-8.88949601451E+00	-1.53509840120E+01	-6.68585004349E+00	-1.18693041695E+02	-9.30513455113E+00	-1.34168636830E+02	-5.22244803755E+00	-8.64421119842E+01
2.28021500000E+09	-7.96518871661E+00	-2.03666415613E+01	-6.29177011833E+00	-1.23206326909E+02	-9.40535036062E+00	-1.34971687272E+02	-5.52982220189E+00	-9.01196148031E+01
2.30021250000E+09	-7.26303462130E+00	-2.63967774018E+01	-5.82890047124E+00	-1.28847922664E+02	-9.25996107917E+00	-1.36160049552E+02	-5.83346975955E+00	-9.48521859326E+01
2.32021000000E+09	-6.66598709943E+00	-3.34634235457E+01	-5.39603727836E+00	-1.35873137505E+02	-8.98244650362E+00	-1.38497834742E+02	-6.05101995317E+00	-1.00033864544E+02
