# Hz S DB R 50
! CMT, S5180, 51801906, 22.3.3/1
! Date: 27/01/2023 17:16:25
! Data: Format (Calibration Info)
! Freq	S11:dB/Ang(F2)	S21:dB/Ang(F2)	S12:dB/Ang(F2)	S22:dB/Ang(F2)
5.00000000000E+05	-7.10778173048E+00	-1.35090863374E+01	-4.87814058770E+01	3.94546966766E+01	-4.95872666701E+01	1.52040457500E+02	-1.90716816199E-01	1.00399322955E+01
2.04975000000E+07	-6.70476291391E-02	1.79159211036E+02	-7.68184525981E+01	1.68840034074E+02	-7.98169536144E+01	1.57060217073E+02	-5.26876089381E+01	-8.14500721878E+01
4.04950000000E+07	-7.72800686444E-03	1.78922246590E+02	-9.05215429398E+01	8.91150847427E+01	-8.78137663570E+01	-1.19069544131E+02	-5.23118739911E+01	-8.94789958335E+00
6.04925000000E+07	-2.41220534633E-02	1.78181093381E+02	-9.33107228167E+01	-1.42963695581E+02	-8.47202446242E+01	-8.42197908602E+01	-5.08795963503E+01	3.57071010992E+01
8.04900000000E+07	-2.72924467192E-02	1.77362455832E+02	-9.77238627333E+01	2.01347450226E+01	-8.65845958345E+01	-1.38360051538E+02	-5.08031694716E+01	7.32722095862E+01
1.00487500000E+08	-1.37531474768E-02	1.76644261740E+02	-9.94978281688E+01	-1.76198429730E+02	-8.95123728485E+01	-1.52189779492E+02	-5.22515856300E+01	1.17043669340E+02
1.20485000000E+08	-8.70350697922E-05	1.76011542294E+02	-9.71688892145E+01	2.27927820083E+01	-8.75107886564E+01	2.82899287127E+01	-5.40434998951E+01	1.58965178344E+02
1.40482500000E+08	-7.25357358399E-04	1.75375493074E+02	-1.10043940337E+02	1.11978332820E+02	-9.89220721946E+01	-1.78343514041E+02	-5.89665483921E+01	-1.48001044958E+02
1.60480000000E+08	-1.91623215352E-03	1.74687905514E+02	-9.34094977708E+01	1.28677787932E+02	-8.77909527849E+01	1.24808754903E+02	-6.74244831441E+01	5.98775673270E-01
1.80477500000E+08	4.60862073657E-03	1.74015753885E+02	-1.13872348074E+02	-3.73482177035E+01	-9.53823461003E+01	-8.08402822010E+01	-5.67438737780E+01	9.64192741459E+01
2.00475000000E+08	1.90918807309E-02	1.73428449809E+02	-8.96278036233E+01	1.15520118738E+02	-8.98560347643E+01	1.41767887996E+02	-5.14374467888E+01	1.47693254630E+02
2.20472500000E+08	2.25573166859E-02	1.72906178947E+02	-9.70629845480E+01	7.84675409747E+01	-9.41900332099E+01	6.68053743836E+01	-4.95395110571E+01	-1.71695471036E+02
2.40470000000E+08	1.74833438494E-02	1.72274256449E+02	-1.01519986304E+02	2.28455362360E+01	-9.21710859927E+01	1.16634624133E+02	-4.87037928108E+01	-1.31283588934E+02
2.60467500000E+08	2.53716720384E-03	1.71500583863E+02	-9.06595774756E+01	4.79215032069E+00	-1.02264960841E+02	-7.70866803426E+00	-5.04827908759E+01	-9.61666400640E+01
2.80465000000E+08	-1.20777822629E-03	1.70727670473E+02	-8.73038888456E+01	-8.53197134055E+01	-8.76187410427E+01	-6.80368249812E+01	-5.53600734018E+01	-6.43613690965E+01
3.00462500000E+08	4.40348347956E-03	1.70115167127E+02	-9.82699987260E+01	1.75422798468E+02	-9.22053416629E+01	4.08811174479E+01	-6.10330153348E+01	-9.57334469991E+01
3.20460000000E+08	4.10933137115E-03	1.69612244065E+02	-1.05103991240E+02	-1.45628536716E+02	-9.71261290514E+01	8.16244150592E+01	-5.48145633033E+01	-1.09392036259E+02
3.40457500000E+08	-2.93763505262E-03	1.69008221010E+02	-9.28803798087E+01	-1.50204497070E+02	-9.21368968443E+01	-1.78782704292E+02	-5.13446772397E+01	-8.64616757569E+01
3.60455000000E+08	-1.17668816907E-02	1.68274424353E+02	-9.45115909927E+01	8.46304497692E+01	-8.98349570159E+01	-2.06684063752E+01	-5.01846685309E+01	-5.85838657562E+01
3.80452500000E+08	-6.98850172801E-03	1.67493713349E+02	-9.31924498649E+01	-1.40425651988E+02	-8.76262051254E+01	-1.51267839852E+02	-5.05003680801E+01	-3.42759947971E+01
4.00450000000E+08	3.67101440757E-03	1.66907343710E+02	-9.68449753857E+01	-1.43896183867E+02	-8.71286326809E+01	-1.66882442771E+02	-5.26019570775E+01	-2.13618077281E+01
4.20447500000E+08	3.43735466621E-03	1.66429290296E+02	-9.26779055714E+01	1.49390635748E+02	-9.04571626407E+01	1.24123551990E+02	-5.23438939465E+01	-2.39449194120E+01
4.40445000000E+08	-1.02121996862E-02	1.65843284094E+02	-8.91875824872E+01	-8.59774570811E+01	-9.76412983166E+01	-7.30081055821E+00	-4.99937749253E+01	-1.39587147682E+01
4.60442500000E+08	-3.28430920615E-02	1.65051655606E+02	-9.10327851854E+01	-1.35523423887E+01	-9.76058259672E+01	1.62885190344E+02	-4.79346720462E+01	1.01048542040E+01
4.80440000000E+08	-3.76152220041E-02	1.64164135558E+02	-9.64064564837E+01	-2.66559570212E+01	-1.05861055473E+02	1.34501961959E+02	-4.65843102769E+01	3.63412002523E+01
5.00437500000E+08	-1.84160688583E-02	1.63344105682E+02	-9.27799477515E+01	1.12560427984E+02	-9.56855980109E+01	6.74079525023E+01	-4.58945448230E+01	6.22600791913E+01
5.20435000000E+08	1.05936907821E-02	1.62728490649E+02	-9.54484276399E+01	1.68702888208E+02	-9.40653678443E+01	-5.63566029217E+01	-4.63425785442E+01	9.03386234357E+01
5.40432500000E+08	2.41517118431E-02	1.62157843054E+02	-8.70129773598E+01	-1.26267881725E+02	-8.77367717654E+01	4.54548835629E+01	-4.75709644179E+01	1.16940219680E+02
5.60430000000E+08	2.16303459647E-02	1.61520683895E+02	-9.21071559514E+01	-1.18459677384E+02	-9.21381922014E+01	1.25228373037E+02	-5.15143743355E+01	1.41108950317E+02
5.80427500000E+08	1.35286086095E-02	1.60803615849E+02	-1.05971971922E+02	-1.14177336104E+02	-9.51651961941E+01	1.27692979124E+02	-6.12400973318E+01	1.25285406044E+02
6.00425000000E+08	2.03954907282E-02	1.60116572889E+02	-8.96644618784E+01	-1.24348331878E+02	-8.70410887778E+01	7.37933375602E+01	-5.24434540970E+01	6.76050374309E+01
6.20422500000E+08	4.49979559608E-02	1.59503228974E+02	-9.22108124371E+01	6.99050339255E+01	-9.24020803557E+01	-5.34443591358E+01	-4.58782330352E+01	9.47391669387E+01
6.40420000000E+08	7.03758560128E-02	1.58972714891E+02	-9.67435107191E+01	-7.54140816883E+01	-9.09480441810E+01	5.79673075460E+01	-4.27610333408E+01	1.31674553584E+02
6.60417500000E+08	7.21868515351E-02	1.58440442855E+02	-8.93080346066E+01	2.50289518332E+01	-1.03641746080E+02	1.26272384504E+02	-4.11619327956E+01	1.66810411619E+02
6.80415000000E+08	4.65709187254E-02	1.57771175700E+02	-9.26787279719E+01	6.66178100064E+01	-8.79850742103E+01	1.95188801431E+01	-4.13772507228E+01	-1.55886762198E+02
7.00412500000E+08	1.65364105101E-02	1.56979478959E+02	-9.05762219337E+01	7.37219002917E+01	-9.37113691215E+01	4.05412181062E+01	-4.39224862232E+01	-1.16613339865E+02
7.20410000000E+08	3.88312314306E-03	1.56188049971E+02	-9.83197483670E+01	4.92210264047E+01	-9.23582039697E+01	1.51671601265E+01	-5.11412273356E+01	-6.82031403077E+01
7.40407500000E+08	1.29954429886E-02	1.55583006505E+02	-9.38673682488E+01	7.90559409066E+01	-9.21833255008E+01	2.33476639075E+01	-5.60507816913E+01	9.86678680769E+01
7.60405000000E+08	2.72328478750E-02	1.55081583598E+02	-9.55831932587E+01	-1.39356271424E+02	-1.00382993394E+02	-3.64759169394E+01	-4.56533071783E+01	1.60151232738E+02
7.80402500000E+08	1.94953093936E-02	1.54518506820E+02	-9.93493571242E+01	2.20935270324E+01	-9.78800063506E+01	9.24343682010E+00	-4.20275190228E+01	-1.56907946458E+02
8.00400000000E+08	2.10659649825E-03	1.53784375700E+02	-9.96594800581E+01	1.34911844977E+01	-9.24114246408E+01	-1.50481004411E+02	-4.02795953065E+01	-1.18056931522E+02
8.20397500000E+08	-6.85220065515E-03	1.53024644943E+02	-8.95356033659E+01	1.92544241935E+01	-9.89267203460E+01	1.24117467528E+02	-4.01369711742E+01	-7.87273568559E+01
8.40395000000E+08	3.87908805566E-03	1.52421819185E+02	-9.50381349523E+01	-6.33081650368E+01	-9.31657494564E+01	-1.28232346253E+02	-4.14259459420E+01	-4.04977887388E+01
8.60392500000E+08	1.42652670066E-02	1.51947901019E+02	-9.26667259852E+01	1.65191470418E+02	-1.01198420301E+02	-5.42102764489E+01	-4.45444221693E+01	-1.32421887247E+00
8.80390000000E+08	8.44548159983E-04	1.51418864343E+02	-9.35777110980E+01	1.74282595731E+02	-9.47872683215E+01	9.81843458013E+01	-5.12246570927E+01	5.22684997100E+01
9.00387500000E+08	-2.62198331373E-02	1.50638073251E+02	-9.03022417493E+01	-1.76922739964E+02	-8.91012451393E+01	1.30071043674E+02	-5.43777836663E+01	-1.75741537874E+02
9.20385000000E+08	-4.36409723053E-02	1.49714788829E+02	-9.22515113767E+01	-3.25315926429E+00	-9.03394242037E+01	9.18639098487E+01	-4.61101535467E+01	-1.06080640552E+02
9.40382500000E+08	-2.74244700911E-02	1.48819901740E+02	-8.64307764567E+01	-1.49478161601E+01	-9.07812862039E+01	5.11774497943E+00	-4.27441434077E+01	-6.65874057070E+01
9.60380000000E+08	8.61422176230E-03	1.48124666269E+02	-9.14420647592E+01	-3.57768416471E-01	-8.93857758187E+01	1.27941919422E+02	-4.06280979319E+01	-2.41852936700E+01
9.80377500000E+08	3.25165839859E-02	1.47592788537E+02	-8.96612814455E+01	1.20741505109E+02	-9.23305340641E+01	1.50828676451E+02	-3.96020710548E+01	1.48342357988E+01
1.00037500000E+09	3.12853123372E-02	1.47050632436E+02	-9.28126456594E+01	1.29631757774E+02	-9.70939730444E+01	-1.43112146477E+02	-3.97464725033E+01	5.41315522248E+01
1.02037250000E+09	2.02634364479E-02	1.46323106070E+02	-9.57996822270E+01	9.69848182725E+01	-9.27492367306E+01	1.37128191026E+02	-4.13899626934E+01	9.10639071349E+01
1.04037000000E+09	3.67675791386E-02	1.45559434722E+02	-8.56861210976E+01	5.67487708146E+01	-9.36228950100E+01	3.61217245871E+01	-4.51405164839E+01	1.25886895704E+02
1.06036750000E+09	7.78541738138E-02	1.44927805644E+02	-9.41281263883E+01	8.02719196734E+01	-9.36625032451E+01	9.18344034440E+01	-5.41664352495E+01	1.45587812003E+02
1.08036500000E+09	1.06330777771E-01	1.44485601047E+02	-1.08409238812E+02	-1.24054431387E+02	-9.20128435800E+01	6.11606175882E+01	-5.17939365616E+01	5.01479237100E+01
1.10036250000E+09	8.76269004381E-02	1.43982784061E+02	-8.88234806035E+01	-1.43345205050E+02	-9.94405406124E+01	1.40289599747E+02	-4.51833931664E+01	7.13569406626E+01
1.12036000000E+09	4.66119568259E-02	1.43258008468E+02	-8.52147541504E+01	1.58791089469E+02	-9.96978425981E+01	6.26251586001E+01	-4.26340200743E+01	1.01871710009E+02
1.14035750000E+09	1.49075425168E-02	1.42343066818E+02	-8.59069271243E+01	1.73138151229E+02	-9.89985058452E+01	-8.71452128350E+01	-4.21243389832E+01	1.29312115813E+02
1.16035500000E+09	1.99818101245E-02	1.41535239483E+02	-8.54609311662E+01	1.01144425575E+02	-8.52661537508E+01	1.18427271402E+02	-4.27233497209E+01	1.49218178282E+02
1.18035250000E+09	5.01447857048E-02	1.41006446904E+02	-8.07372009580E+01	6.58221298485E+01	-8.25610757507E+01	6.56061466709E+01	-4.32918835906E+01	1.60233034540E+02
1.20035000000E+09	6.20354317467E-02	1.40580468212E+02	-9.48423271189E+01	7.03524828129E+01	-8.80907286230E+01	3.05436986937E+01	-4.32566856575E+01	1.68323674763E+02
1.22034750000E+09	4.26896296350E-02	1.40020240683E+02	-8.36929986878E+01	4.37431626706E+00	-1.05472573534E+02	6.07376040512E-02	-4.22642711416E+01	1.77650829660E+02
1.24034500000E+09	1.85791659978E-02	1.39278874117E+02	-8.68655528873E+01	-1.52559737241E+02	-9.02027941339E+01	-3.37424306802E+01	-4.23987273847E+01	-1.66345712324E+02
1.26034250000E+09	1.04321934336E-02	1.38555909290E+02	-8.48331711913E+01	1.40677493150E+02	-8.32529721787E+01	1.19176645245E+02	-4.26992223827E+01	-1.51542119328E+02
1.28034000000E+09	1.96182080170E-02	1.38049422611E+02	-9.02920252507E+01	1.63082613101E+01	-8.72311155162E+01	1.03401613628E+02	-4.43470711690E+01	-1.41508242235E+02
1.30033750000E+09	1.90832538289E-02	1.37625570032E+02	-9.04217885919E+01	1.44583347683E+02	-9.97709727600E+01	5.75932206849E+01	-4.53439674159E+01	-1.35781374843E+02
1.32033500000E+09	-3.64830810161E-03	1.36989877036E+02	-8.31549116419E+01	1.57293436287E+02	-8.38935724675E+01	7.70003379768E+01	-4.57435044703E+01	-1.38360967336E+02
1.34033250000E+09	-3.24137084092E-02	1.36055286026E+02	-8.09711351707E+01	1.02447108533E+02	-8.89747636045E+01	9.01169526152E+01	-4.52254990392E+01	-1.46524473225E+02
1.36033000000E+09	-3.94873040584E-02	1.35027457125E+02	-9.13600664402E+01	7.79482975771E+01	-8.71038589810E+01	1.16011230308E+02	-4.22190938791E+01	-1.43082265150E+02
1.38032750000E+09	-1.61572747696E-02	1.34203483495E+02	-8.19970506924E+01	8.46159446783E+01	-8.46251416776E+01	5.63246571005E+01	-3.93478695823E+01	-1.25859544786E+02
1.40032500000E+09	2.41961054816E-02	1.33670845786E+02	-8.53968717476E+01	7.36113545599E+01	-8.69994625934E+01	4.47956656929E+01	-3.72903147103E+01	-9.92224757176E+01
1.42032250000E+09	4.43943565520E-02	1.33282598117E+02	-8.17706092538E+01	7.09100176222E+01	-8.45758579266E+01	-5.97324202962E-01	-3.64585761918E+01	-6.84199494798E+01
1.44032000000E+09	2.95844209026E-02	1.32759588184E+02	-8.05873833563E+01	7.55955965705E+01	-8.31377678533E+01	4.00607630300E+01	-3.69377074621E+01	-3.48876458356E+01
1.46031750000E+09	1.00310445540E-02	1.32016942462E+02	-7.90679572834E+01	4.22743480677E+01	-8.41717080896E+01	5.15688679986E+00	-3.89890344551E+01	1.27365378028E+00
1.48031500000E+09	9.99364520245E-03	1.31161816906E+02	-8.52013378740E+01	1.46405620703E+01	-8.68423464924E+01	9.57945506003E-01	-4.43344421452E+01	3.58710791339E+01
1.50031250000E+09	4.55906571351E-02	1.30449523482E+02	-8.71942538639E+01	-1.32356292240E+01	-8.19708956512E+01	3.74980262657E+01	-6.82614781488E+01	3.12688184472E+00
1.52031000000E+09	7.80927788364E-02	1.29889280594E+02	-8.05954421669E+01	5.28585591241E+00	-8.66253028257E+01	-1.18426501954E+01	-4.43064090941E+01	-6.44651057085E+01
1.54030750000E+09	7.15993190586E-02	1.29404062137E+02	-8.43557327145E+01	4.65722429286E+01	-8.62239917021E+01	-4.22009703799E+01	-3.83085913233E+01	-3.01804052971E+01
1.56030500000E+09	2.88734592733E-02	1.28714110793E+02	-8.47830037018E+01	2.02429745613E+01	-8.49435342368E+01	1.84298019978E-01	-3.57809188001E+01	2.35351368330E+00
1.58030250000E+09	-6.20351813245E-03	1.27744518649E+02	-8.11326901840E+01	5.45585571044E+01	-8.41173355125E+01	-8.91748223766E+00	-3.41953893009E+01	3.37125176368E+01
1.60030000000E+09	7.75279188397E-03	1.26779202275E+02	-7.96831917842E+01	3.78377124582E+01	-8.50496632084E+01	5.23315667667E+01	-3.39307169062E+01	6.16862968409E+01
1.62029750000E+09	6.30376998536E-02	1.26146724690E+02	-8.38211076607E+01	1.54137006648E+01	-8.44490611629E+01	5.49252192816E+01	-3.44317659979E+01	8.84693745082E+01
1.64029500000E+09	1.03775891166E-01	1.25788027489E+02	-8.44547333375E+01	7.22066351260E+01	-8.96801623494E+01	1.06904116047E+01	-3.62182558994E+01	1.14502731419E+02
1.66029250000E+09	1.04176590892E-01	1.25410619906E+02	-8.47323024640E+01	2.86416843302E+01	-8.55134518193E+01	3.59434109800E+01	-3.99654637955E+01	1.35702705127E+02
1.68029000000E+09	7.81963437264E-02	1.24775364705E+02	-7.96601245017E+01	5.21796361377E+01	-8.40007001294E+01	5.50383464534E+01	-4.84207012058E+01	1.32017079812E+02
1.70028750000E+09	7.33590416118E-02	1.24063676106E+02	-8.00199822671E+01	3.64344240820E+01	-8.14879448418E+01	2.44165510677E+01	-4.35650782861E+01	6.56378197848E+01
1.72028500000E+09	8.16803074592E-02	1.23532199003E+02	-8.23704316722E+01	6.84562607537E+01	-7.90423145974E+01	3.63040961149E+01	-3.71859932199E+01	7.92819107640E+01
1.74028250000E+09	7.15363311491E-02	1.23124592423E+02	-8.18159795177E+01	4.91699575074E+01	-7.65958218587E+01	1.89246838482E+01	-3.42350237753E+01	1.04515581480E+02
1.76028000000E+09	2.93958936452E-02	1.22514885869E+02	-8.19913260655E+01	2.82733618920E+01	-7.74017895683E+01	-4.96386534622E+00	-3.32834397631E+01	1.29744707161E+02
1.78027750000E+09	-1.03950144142E-02	1.21515936311E+02	-8.00322314678E+01	2.58254166388E+01	-7.78188933686E+01	-3.88761793195E+00	-3.40152730609E+01	1.54091604697E+02
1.80027500000E+09	-8.65367636347E-03	1.20503977774E+02	-7.71268207292E+01	7.89910953048E+00	-7.69617961819E+01	-1.52526034213E+01	-3.60542936799E+01	1.72517863027E+02
1.82027250000E+09	1.98541936650E-02	1.19869139311E+02	-7.71053082193E+01	1.08346880312E+01	-7.62998878288E+01	-2.25565000855E+01	-3.88456113350E+01	-1.79048943881E+02
1.84027000000E+09	4.11928807592E-02	1.19547803039E+02	-7.93179619665E+01	-4.03524240936E+00	-7.79436185104E+01	-3.45692020896E+01	-4.03741513332E+01	1.77977020915E+02
1.86026750000E+09	2.80619058343E-02	1.19195086275E+02	-7.76082516847E+01	4.07806928154E+00	-7.86248710224E+01	-2.81113714330E+01	-4.03070369152E+01	1.76031457259E+02
1.88026500000E+09	-3.52345693054E-03	1.18565125924E+02	-8.05568117422E+01	2.62648972419E+01	-8.19927000370E+01	-3.81033462954E+01	-3.97683295904E+01	1.75432381137E+02
1.90026250000E+09	-1.47001349540E-02	1.17635302642E+02	-8.29327447056E+01	-3.56812803076E+01	-7.95747567826E+01	-6.06818856680E+01	-3.83570577532E+01	1.76453601550E+02
1.92026000000E+09	3.70221439430E-03	1.16847821074E+02	-8.03127216013E+01	-2.90340170158E+01	-8.75209858400E+01	-6.07571431934E+01	-3.63521022435E+01	-1.74955241623E+02
1.94025750000E+09	2.64233887487E-02	1.16294966757E+02	-8.22080944814E+01	1.33645435207E+01	-8.14140084793E+01	-6.74625760045E+01	-3.46577605574E+01	-1.57450402011E+02
1.96025500000E+09	2.51615190602E-02	1.15838501721E+02	-8.12614100724E+01	-1.04030397294E+01	-8.91312318661E+01	3.23518847908E+00	-3.37832527519E+01	-1.32174179968E+02
1.98025250000E+09	-5.11474075386E-03	1.15165057631E+02	-8.19045707899E+01	4.89749785489E-01	-8.31881982321E+01	-3.53580644982E+01	-3.38188286340E+01	-1.04109817617E+02
2.00025000000E+09	-4.58628588796E-02	1.14186787711E+02	-8.13594427036E+01	1.38996192796E+01	-8.74713564351E+01	-5.18171439615E+01	-3.51322616257E+01	-7.57128701251E+01
2.02024750000E+09	-5.09244946696E-02	1.13097109964E+02	-8.43579116254E+01	2.29672597458E+01	-8.51210327940E+01	1.65570906870E+01	-3.76114197419E+01	-5.02902571013E+01
2.04024500000E+09	-1.12545061158E-02	1.12167997586E+02	-7.84278804629E+01	2.65492795752E+01	-8.13329821831E+01	1.43414783738E+00	-4.15810812351E+01	-3.63347486929E+01
2.06024250000E+09	4.65798476469E-02	1.11550634763E+02	-7.92147354008E+01	7.69245654455E+00	-7.79944885137E+01	-1.04073373593E+00	-4.40676071485E+01	-5.70678103188E+01
2.08024000000E+09	8.27356715677E-02	1.11140104730E+02	-7.52965859751E+01	1.05080139013E+01	-7.84010292668E+01	7.43483621371E+00	-4.07362584185E+01	-6.44482951796E+01
2.10023750000E+09	7.51943354598E-02	1.10668995407E+02	-7.51674095889E+01	3.16464512072E+01	-7.72402593525E+01	-1.20999869621E+01	-3.78528826084E+01	-5.08834881894E+01
2.12023500000E+09	4.77453619513E-02	1.09996150962E+02	-7.65853761388E+01	2.62964312966E+01	-8.05454732731E+01	-3.54212161226E+01	-3.61333257826E+01	-3.10194789359E+01
2.14023250000E+09	5.16903009502E-02	1.09266379986E+02	-7.74477562585E+01	3.22270149350E+01	-8.01473614069E+01	5.99799688195E-01	-3.51059841255E+01	-9.24171638517E+00
2.16023000000E+09	7.62927049686E-02	1.08699902097E+02	-7.45029049588E+01	3.73651497695E+01	-7.60703134036E+01	5.00754689161E+00	-3.47092219919E+01	1.24873142763E+01
2.18022750000E+09	9.48860572632E-02	1.08278404937E+02	-7.53555076734E+01	2.28262546832E+01	-7.39779596386E+01	-3.60113204487E+00	-3.52676400153E+01	3.25585535347E+01
2.20022500000E+09	6.61369716918E-02	1.07759030454E+02	-7.25264145101E+01	3.03463291666E+01	-7.40221148651E+01	1.33940134193E+01	-3.68108308540E+01	4.88616071441E+01
2.22022250000E+09	1.88041386471E-02	1.06888532576E+02	-7.33264384248E+01	2.61242756873E+01	-7.15076416315E+01	-1.08320259597E+01	-3.85297311468E+01	5.08764668779E+01
2.24022000000E+09	6.08418574980E-03	1.05912321426E+02	-7.08361967687E+01	2.51303316815E+01	-7.40446234000E+01	-7.29350811140E+00	-3.81508267432E+01	4.23302011904E+01
2.26021750000E+09	4.21148867923E-02	1.05310154239E+02	-7.04676509349E+01	2.19417045194E+01	-7.20596576343E+01	-2.18175681291E+01	-3.56428895884E+01	4.69984817323E+01
2.28021500000E+09	9.26218552098E-02	1.05211061624E+02	-7.19361646781E+01	2.96349296063E+01	-7.39158439953E+01	-2.22441404492E+01	-3.38813630797E+01	6.49860289434E+01
2.30021250000E+09	1.04911817340E-01	1.05162691885E+02	-7.07756032466E+01	2.91898525812E+01	-7.35523407682E+01	-2.12659958279E+01	-3.37082382133E+01	8.54429270525E+01
2.32021000000E+09	7.07541298524E-02	1.04799963088E+02	-7.04999363211E+01	2.19025639456E+01	-7.42490977827E+01	-2.52128609727E+01	-3.48494845714E+01	1.02955776478E+02
2.34020750000E+09	3.91233787921E-02	1.03978053401E+02	-6.97575885346E+01	1.76957313825E+01	-7.23128223152E+01	-1.29015837874E+01	-3.67592574395E+01	1.10252943701E+02
