# Hz S DB R 50
! CMT, S5180, 51801906, 22.3.3/1
! Date: 27/01/2023 17:15:21
! Data: Format (Calibration Info)
! Freq	S11:dB/Ang(F2)	S21:dB/Ang(F2)	S12:dB/Ang(F2)	S22:dB/Ang(F2)
5.00000000000E+05	-1.80884377188E-01	-2.02269434372E+00	-5.41161240539E+01	-1.01543633014E+02	-5.05259058573E+01	1.11982865809E+02	-1.58760967208E+00	1.20423618806E+01
2.04975000000E+07	-1.17057347932E-01	-1.87499687436E+01	-7.24848961033E+01	-3.51904573376E+01	-7.66853792884E+01	-4.85936566594E+01	1.15069822021E-02	1.79355148690E+02
4.04950000000E+07	-1.80224465565E-01	-3.64440999831E+01	-8.41130152443E+01	1.79868870524E+02	-8.78464846485E+01	-1.34119261768E+02	-2.20135695251E-02	1.78911243072E+02
6.04925000000E+07	-3.01118184816E-01	-5.41255065342E+01	-8.01873485713E+01	-5.75318670724E+01	-8.35187148387E+01	-4.62404366831E+01	-1.94181385489E-02	1.78103272579E+02
8.04900000000E+07	-4.62997134666E-01	-7.18623095646E+01	-1.03023567590E+02	1.69679324657E+02	-8.49363828308E+01	1.49362253948E+02	-8.07025767323E-03	1.77314572361E+02
1.00487500000E+08	-6.40272054488E-01	-8.94317731043E+01	-8.46548023158E+01	1.05011890262E+02	-8.35960757120E+01	1.21354063893E+02	5.30175943674E-03	1.76644750762E+02
1.20485000000E+08	-8.26468697690E-01	-1.06864983038E+02	-8.79919847991E+01	7.71664205666E+01	-8.34194665393E+01	8.27882630963E+01	1.25608697496E-02	1.76080435290E+02
1.40482500000E+08	-1.03457169039E+00	-1.24215628849E+02	-8.67580863987E+01	1.45208755243E+02	-8.70841122556E+01	1.14873687920E+02	9.65700845094E-03	1.75489553485E+02
1.60480000000E+08	-1.25218232223E+00	-1.41584011237E+02	-7.77034112045E+01	9.62814231342E+01	-7.79570638776E+01	9.07392627661E+01	4.93946105775E-03	1.74809469939E+02
1.80477500000E+08	-1.46546334244E+00	-1.59095513040E+02	-8.17034071450E+01	1.09900582093E+02	-8.21757471011E+01	1.14147816587E+02	4.41228547306E-03	1.74083732377E+02
2.00475000000E+08	-1.66707225705E+00	-1.76627574064E+02	-7.79603107758E+01	1.15632083031E+02	-7.85986135195E+01	1.20701690726E+02	8.96373573026E-03	1.73454362687E+02
2.20472500000E+08	-1.87871051672E+00	1.65761656615E+02	-8.07597325847E+01	9.98407048647E+01	-8.35481209977E+01	1.03119823642E+02	9.33813128056E-03	1.72891757740E+02
2.40470000000E+08	-2.11451686909E+00	1.47887271770E+02	-7.98854127036E+01	1.17423973646E+02	-8.02654551277E+01	1.08956755957E+02	8.14741642559E-04	1.72331513283E+02
2.60467500000E+08	-2.35597502907E+00	1.29799518383E+02	-8.66439183950E+01	1.15599731129E+02	-8.54497961394E+01	1.26637094637E+02	-1.02619027592E-02	1.71690502822E+02
2.80465000000E+08	-2.57794069985E+00	1.11896985086E+02	-8.08185936871E+01	1.58727595264E+02	-8.13841498980E+01	1.56271596859E+02	-1.33942677140E-02	1.70985474386E+02
3.00462500000E+08	-2.82055184467E+00	9.44110481528E+01	-7.70779778613E+01	1.47917579834E+02	-7.75303408372E+01	1.46366084296E+02	-1.18713765703E-02	1.70353945282E+02
3.20460000000E+08	-3.11130715904E+00	7.71175295383E+01	-7.59068192002E+01	1.53679580240E+02	-7.73917901846E+01	-1.79494644369E+02	-1.29685627174E-02	1.69797658877E+02
3.40457500000E+08	-3.41799069437E+00	6.00351689035E+01	-7.28477306774E+01	1.58503109026E+02	-7.38983522678E+01	1.65713341885E+02	-1.80510540655E-02	1.69187612290E+02
3.60455000000E+08	-3.71585932812E+00	4.33198111064E+01	-7.26591543888E+01	1.76490848774E+02	-7.41771071074E+01	1.73746797694E+02	-2.40539337582E-02	1.68498273020E+02
3.80452500000E+08	-4.03324775614E+00	2.70765207468E+01	-7.05225320370E+01	1.54267689132E+02	-7.11289060810E+01	1.60180370518E+02	-2.47873373939E-02	1.67790140017E+02
4.00450000000E+08	-4.40610574623E+00	1.10183695880E+01	-6.93395711480E+01	1.58675468443E+02	-7.13066300933E+01	1.63699803565E+02	-2.23922277640E-02	1.67110411006E+02
4.20447500000E+08	-4.79354639445E+00	-5.09224147337E+00	-6.89973558531E+01	1.54088220878E+02	-6.89982429883E+01	1.66369819807E+02	-2.05851490411E-02	1.66490502686E+02
4.40445000000E+08	-5.15308013709E+00	-2.11193398027E+01	-6.82548403162E+01	1.46593156190E+02	-6.82658720891E+01	1.56162145830E+02	-2.16507271386E-02	1.65839714571E+02
4.60442500000E+08	-5.49773250278E+00	-3.68505292434E+01	-6.82409812655E+01	1.39326701166E+02	-6.82610861032E+01	1.57956273335E+02	-1.74781871593E-02	1.65100087206E+02
4.80440000000E+08	-5.85955553829E+00	-5.24162259224E+01	-6.89185218738E+01	1.39195335815E+02	-6.73986901260E+01	1.50381577267E+02	-4.13687642310E-03	1.64327049609E+02
5.00437500000E+08	-6.23625978450E+00	-6.81559870339E+01	-6.87246027922E+01	1.40163685725E+02	-6.82613209369E+01	1.47677977061E+02	1.96854226754E-02	1.63613238164E+02
5.20435000000E+08	-6.58805447622E+00	-8.39133364474E+01	-7.06024346273E+01	1.38553520358E+02	-7.06428748552E+01	1.47974647942E+02	4.26174043858E-02	1.63023625408E+02
5.40432500000E+08	-6.89409441468E+00	-9.93617336056E+01	-7.18942551045E+01	1.50326107841E+02	-7.09794177077E+01	1.50374151464E+02	5.96658116975E-02	1.62512973745E+02
5.60430000000E+08	-7.17698769620E+00	-1.14310955667E+02	-7.15857946075E+01	1.65941660362E+02	-7.00397954380E+01	-1.70936270376E+02	5.52808165455E-02	1.61984857991E+02
5.80427500000E+08	-7.45972668531E+00	-1.28943822289E+02	-6.99035481254E+01	-1.70508691270E+02	-6.92490421743E+01	-1.69907991947E+02	4.42153404951E-02	1.61318663163E+02
6.00425000000E+08	-7.73683474330E+00	-1.43343323071E+02	-6.98184726353E+01	-1.66326220224E+02	-6.84129572313E+01	-1.60869525488E+02	3.97537305915E-02	1.60504300289E+02
6.20422500000E+08	-8.00279814066E+00	-1.57633153363E+02	-6.84222898397E+01	-1.51789395040E+02	-6.70972682473E+01	-1.44944099390E+02	5.23182486951E-02	1.59686071418E+02
6.40420000000E+08	-8.26505939671E+00	-1.71741817073E+02	-6.51172454720E+01	-1.51001400002E+02	-6.35333013528E+01	-1.46242647098E+02	7.57993236322E-02	1.59084595779E+02
6.60417500000E+08	-8.60010900163E+00	1.74067849052E+02	-6.21454678039E+01	-1.48362076309E+02	-6.14974773320E+01	-1.47371988158E+02	7.69236014139E-02	1.58698980580E+02
6.80415000000E+08	-9.04628249144E+00	1.59122850765E+02	-6.03008641993E+01	-1.54975516992E+02	-5.97233562874E+01	-1.52612037397E+02	5.21885370968E-02	1.58320176615E+02
7.00412500000E+08	-9.55021314566E+00	1.42811671057E+02	-5.94281665364E+01	-1.58337667428E+02	-5.91475501499E+01	-1.57093162957E+02	2.16539782938E-02	1.57657350934E+02
7.20410000000E+08	-1.00054063093E+01	1.25328964425E+02	-5.79598302969E+01	-1.51037169902E+02	-5.78842803085E+01	-1.48741717349E+02	1.69757609080E-02	1.56795194030E+02
7.40407500000E+08	-1.03908448537E+01	1.06839341230E+02	-5.60111840001E+01	-1.64442223977E+02	-5.58917465950E+01	-1.62699541187E+02	3.64837847766E-02	1.55979788166E+02
7.60405000000E+08	-1.07745682553E+01	8.75716713715E+01	-5.48224703397E+01	-1.73091708838E+02	-5.52000033730E+01	-1.68710676314E+02	4.73501545207E-02	1.55388685031E+02
7.80402500000E+08	-1.10613715002E+01	6.72817822431E+01	-5.39813075744E+01	1.78708418939E+02	-5.47757370320E+01	-1.75030618555E+02	1.25492379062E-02	1.54965230654E+02
8.00400000000E+08	-1.11431187213E+01	4.69938333273E+01	-5.41705796022E+01	1.69782526977E+02	-5.51155256841E+01	1.79085927698E+02	-4.63330404764E-02	1.54435063401E+02
8.20397500000E+08	-1.10047181565E+01	2.84011647991E+01	-5.34653434740E+01	1.72691943288E+02	-5.47039904872E+01	-1.77412073473E+02	-7.78613816314E-02	1.53698479900E+02
8.40395000000E+08	-1.08417971766E+01	1.13385717000E+01	-5.35328687975E+01	1.55545386216E+02	-5.49671753321E+01	1.71307741572E+02	-5.80482964839E-02	1.52864953972E+02
8.60392500000E+08	-1.07479064981E+01	-4.23131160234E+00	-5.39377747330E+01	1.50587483685E+02	-5.49014813249E+01	1.71500825216E+02	-3.85657523798E-03	1.52129949304E+02
8.80390000000E+08	-1.06325017217E+01	-1.86553117528E+01	-5.43624858257E+01	1.50181014198E+02	-5.48754831749E+01	1.73316974757E+02	3.14342806586E-02	1.51599590543E+02
9.00387500000E+08	-1.05143172555E+01	-3.16903042362E+01	-5.54310959503E+01	1.42449840234E+02	-5.58919044037E+01	1.65026385433E+02	1.76713536007E-02	1.51196250865E+02
9.20385000000E+08	-1.05056781505E+01	-4.30918992787E+01	-5.60556430764E+01	1.46631241196E+02	-5.66519464087E+01	1.72613506324E+02	-2.94882438520E-02	1.50688309746E+02
9.40382500000E+08	-1.07176308251E+01	-5.41585979064E+01	-5.67794787684E+01	1.44518621144E+02	-5.71304341383E+01	1.72479476261E+02	-6.63364549748E-02	1.49943680776E+02
9.60380000000E+08	-1.11397544655E+01	-6.55026253578E+01	-5.81082647595E+01	1.39325656506E+02	-5.71920175568E+01	1.71141556464E+02	-5.10671933428E-02	1.48958575220E+02
9.80377500000E+08	-1.16996206335E+01	-7.75138240007E+01	-6.02856914129E+01	1.51064684180E+02	-5.90364465572E+01	1.76247494748E+02	1.81634914465E-02	1.47963715901E+02
1.00037500000E+09	-1.23277772033E+01	-8.98715778700E+01	-6.08601694441E+01	-1.79175457123E+02	-5.96477635434E+01	-1.61354408347E+02	9.09134152082E-02	1.47280104974E+02
1.02037250000E+09	-1.30943737113E+01	-1.03177488485E+02	-5.92367595785E+01	-1.78969991909E+02	-5.81053418951E+01	-1.59872245628E+02	1.23781595604E-01	1.46955338522E+02
1.04037000000E+09	-1.40904946565E+01	-1.18173566940E+02	-5.89310607376E+01	-1.60856685289E+02	-5.75153991814E+01	-1.42563852913E+02	1.07561915904E-01	1.46666898892E+02
1.06036750000E+09	-1.50199943484E+01	-1.35290686925E+02	-5.74164660853E+01	-1.51360560231E+02	-5.58436550196E+01	-1.35359770438E+02	7.96425500962E-02	1.46115054226E+02
1.08036500000E+09	-1.57044348890E+01	-1.54103611721E+02	-5.57259875977E+01	-1.38454274587E+02	-5.41550981652E+01	-1.27926635950E+02	7.90220797357E-02	1.45293147410E+02
1.10036250000E+09	-1.61754059742E+01	-1.73389448229E+02	-5.29869049882E+01	-1.38067985785E+02	-5.17029621744E+01	-1.30441569185E+02	1.07975296816E-01	1.44416091171E+02
1.12036000000E+09	-1.65703909495E+01	1.67137761027E+02	-5.13859693031E+01	-1.42800051402E+02	-5.05117345505E+01	-1.34904254037E+02	1.35297925699E-01	1.43725843703E+02
1.14035750000E+09	-1.67175515688E+01	1.46959266962E+02	-5.04365351830E+01	-1.44769219045E+02	-4.95502345572E+01	-1.36196666035E+02	1.34447068904E-01	1.43151834625E+02
1.16035500000E+09	-1.63063573402E+01	1.28321295975E+02	-4.90330264437E+01	-1.38983232856E+02	-4.79775995693E+01	-1.33396280746E+02	1.23016208536E-01	1.42650783978E+02
1.18035250000E+09	-1.58993478256E+01	1.11852163692E+02	-4.69587216919E+01	-1.43593530072E+02	-4.66219249091E+01	-1.42048588552E+02	1.00973920275E-01	1.42116199024E+02
1.20035000000E+09	-1.57377870766E+01	9.65207919360E+01	-4.51997678384E+01	-1.50976337732E+02	-4.58082329734E+01	-1.47773855387E+02	8.99612542497E-02	1.41552612555E+02
1.22034750000E+09	-1.59590292529E+01	8.08557564054E+01	-4.46418496754E+01	-1.61243789440E+02	-4.52859135951E+01	-1.53430827401E+02	7.51354120744E-02	1.40974324444E+02
1.24034500000E+09	-1.62352535313E+01	6.48405225103E+01	-4.45131724117E+01	-1.68031915872E+02	-4.50277301541E+01	-1.58326068276E+02	5.12478390021E-02	1.40374847735E+02
1.26034250000E+09	-1.63977063196E+01	4.80325377752E+01	-4.35396581676E+01	-1.71613158456E+02	-4.42431653251E+01	-1.62070810829E+02	3.12721901460E-02	1.39751886537E+02
1.28034000000E+09	-1.68209576246E+01	3.00021854121E+01	-4.28729057686E+01	1.76866825077E+02	-4.42406288789E+01	-1.70688036825E+02	1.95420475191E-02	1.39128566721E+02
1.30033750000E+09	-1.73890800474E+01	9.88764657896E+00	-4.32192663722E+01	1.65612927215E+02	-4.46166206076E+01	-1.74301733477E+02	1.84464595518E-02	1.38532933738E+02
1.32033500000E+09	-1.77504905320E+01	-1.32772017413E+01	-4.43127482236E+01	1.56608628046E+02	-4.49433375518E+01	-1.77220151344E+02	1.56540646144E-02	1.37995363616E+02
1.34033250000E+09	-1.73745732721E+01	-3.44913445938E+01	-4.53690313609E+01	1.55335377429E+02	-4.52224527879E+01	-1.77639612270E+02	6.39813583513E-03	1.37470128642E+02
1.36033000000E+09	-1.65650264822E+01	-5.27837865143E+01	-4.53923998810E+01	1.52007837157E+02	-4.51765356070E+01	1.78727751391E+02	-9.87099035907E-03	1.37045647884E+02
1.38032750000E+09	-1.59118010101E+01	-6.88366264352E+01	-4.63812729319E+01	1.44231852635E+02	-4.61109449466E+01	1.77076858539E+02	-2.67477744698E-02	1.36505192785E+02
1.40032500000E+09	-1.53042840576E+01	-8.29878565055E+01	-4.78318572360E+01	1.41582409056E+02	-4.64595779744E+01	1.77520045724E+02	-3.96943423269E-02	1.35666988616E+02
1.42032250000E+09	-1.46957216313E+01	-9.59110308590E+01	-4.93842453491E+01	1.40745038422E+02	-4.68958591920E+01	1.75834777467E+02	-1.42385871035E-02	1.34513043166E+02
1.44032000000E+09	-1.40878879786E+01	-1.06124217635E+02	-5.11713534546E+01	1.48861198659E+02	-4.79724878154E+01	1.77242577088E+02	5.78406496486E-02	1.33470643391E+02
1.46031750000E+09	-1.35863109344E+01	-1.14911896984E+02	-5.21797693455E+01	1.51641937801E+02	-4.92963263024E+01	1.79085281225E+02	1.49760973101E-01	1.32873139899E+02
1.48031500000E+09	-1.33987257426E+01	-1.22906443042E+02	-5.39880744983E+01	1.61337932138E+02	-5.07815583570E+01	-1.69947179675E+02	2.06605978886E-01	1.32657340002E+02
1.50031250000E+09	-1.35340468078E+01	-1.30768091850E+02	-5.51363124659E+01	-1.79786718459E+02	-5.12194851618E+01	-1.50304543391E+02	2.06270186222E-01	1.32316555766E+02
1.52031000000E+09	-1.38616343796E+01	-1.38371706699E+02	-5.42274179195E+01	-1.55456839757E+02	-4.98202201088E+01	-1.35123594158E+02	1.76710475608E-01	1.31439939592E+02
1.54030750000E+09	-1.44226390376E+01	-1.45402451286E+02	-5.13031104533E+01	-1.43535618973E+02	-4.75206514254E+01	-1.29457066210E+02	1.64845411506E-01	1.30143238485E+02
1.56030500000E+09	-1.53904013831E+01	-1.53019211155E+02	-4.95686960588E+01	-1.37385974217E+02	-4.64556406248E+01	-1.24730583455E+02	2.03351541082E-01	1.28924541615E+02
1.58030250000E+09	-1.71095322623E+01	-1.62346838412E+02	-4.73792067938E+01	-1.36798386833E+02	-4.47449351280E+01	-1.22266984011E+02	2.93315565472E-01	1.28180256276E+02
1.60030000000E+09	-1.98217157146E+01	-1.76472628786E+02	-4.56284143302E+01	-1.36334845360E+02	-4.29881277108E+01	-1.21562680466E+02	3.88141590911E-01	1.27908305574E+02
1.62029750000E+09	-2.31143815295E+01	1.60236359341E+02	-4.37645680532E+01	-1.36299088844E+02	-4.13744258399E+01	-1.25906874273E+02	4.48176269570E-01	1.27677788203E+02
1.64029500000E+09	-2.54392717247E+01	1.20675544239E+02	-4.19620138197E+01	-1.40398460737E+02	-4.05544596899E+01	-1.32681329319E+02	4.31112795781E-01	1.27186631991E+02
1.66029250000E+09	-2.40855428670E+01	7.11667869440E+01	-4.02061254503E+01	-1.44860214400E+02	-3.96784672356E+01	-1.35216941455E+02	3.47242867348E-01	1.26382022915E+02
1.68029000000E+09	-2.04795336625E+01	4.08936233155E+01	-3.90022389810E+01	-1.51299737036E+02	-3.89193964338E+01	-1.38887410059E+02	2.62652869291E-01	1.25504947688E+02
1.70028750000E+09	-1.76449078543E+01	2.42832917811E+01	-3.76535277613E+01	-1.57911953974E+02	-3.80210409886E+01	-1.44458957343E+02	2.46461582861E-01	1.24823380640E+02
1.72028500000E+09	-1.57822028255E+01	1.38423126815E+01	-3.63878119890E+01	-1.67399290963E+02	-3.75532801407E+01	-1.51683030514E+02	3.11705337276E-01	1.24569552956E+02
1.74028250000E+09	-1.46465092508E+01	5.47715506176E+00	-3.60494590296E+01	1.78914576677E+02	-3.78471048194E+01	-1.58860534995E+02	3.87156079897E-01	1.24510713765E+02
1.76028000000E+09	-1.37508978804E+01	-3.90037160758E+00	-3.61784316960E+01	1.70898374110E+02	-3.78747631793E+01	-1.58726234177E+02	3.91445036975E-01	1.24257235261E+02
1.78027750000E+09	-1.32200785982E+01	-1.22341879082E+01	-3.65850470413E+01	1.65057072488E+02	-3.76744007259E+01	-1.61260753207E+02	3.21019446124E-01	1.23537055186E+02
1.80027500000E+09	-1.30812789396E+01	-1.96360088528E+01	-3.64439228360E+01	1.59939178824E+02	-3.75052529910E+01	-1.65616788819E+02	2.34292112140E-01	1.22626674875E+02
1.82027250000E+09	-1.34327543951E+01	-2.52065322545E+01	-3.64770891037E+01	1.50388539978E+02	-3.78069149646E+01	-1.70202383760E+02	1.98347157643E-01	1.21878102752E+02
1.84027000000E+09	-1.41429353201E+01	-3.18921504316E+01	-3.75998615479E+01	1.41104276268E+02	-3.84020055000E+01	-1.70833647599E+02	2.28030511006E-01	1.21411858733E+02
1.86026750000E+09	-1.52924921543E+01	-4.11256688998E+01	-3.91783860826E+01	1.37994492298E+02	-3.83271223462E+01	-1.69772154294E+02	2.89415086406E-01	1.20971971187E+02
1.88026500000E+09	-1.68365737890E+01	-5.21809800092E+01	-4.06104106720E+01	1.39702861183E+02	-3.83736909948E+01	-1.73382555251E+02	3.41406865914E-01	1.20324762012E+02
1.90026250000E+09	-1.86817702410E+01	-6.51943347305E+01	-4.14964222383E+01	1.42134294992E+02	-3.89802984544E+01	-1.77081488411E+02	3.47071261695E-01	1.19577292883E+02
1.92026000000E+09	-2.07687581081E+01	-8.28799402097E+01	-4.23476526937E+01	1.41597930965E+02	-3.99375807887E+01	-1.79490438951E+02	3.00068432834E-01	1.18854248683E+02
1.94025750000E+09	-2.22251281177E+01	-1.11327154377E+02	-4.45185798180E+01	1.41507306259E+02	-4.15292883725E+01	1.79061003410E+02	2.26897929020E-01	1.17993450902E+02
1.96025500000E+09	-2.18238215513E+01	-1.43516611321E+02	-4.72299728469E+01	1.53614531361E+02	-4.34575714341E+01	-1.74662393602E+02	1.73113133893E-01	1.16783260473E+02
1.98025250000E+09	-2.01136836551E+01	-1.65973905123E+02	-4.88847947798E+01	1.77680598478E+02	-4.50577324620E+01	-1.59196424593E+02	1.86466017462E-01	1.15257712458E+02
2.00025000000E+09	-1.86498335959E+01	-1.79459012818E+02	-4.77952607193E+01	-1.53517895350E+02	-4.46149011371E+01	-1.37598261092E+02	2.59095464879E-01	1.13824562797E+02
2.02024750000E+09	-1.74614557193E+01	1.71250110712E+02	-4.54311596536E+01	-1.43928465374E+02	-4.29201161869E+01	-1.29769969273E+02	3.34142930391E-01	1.12914116495E+02
2.04024500000E+09	-1.66365299062E+01	1.61912254274E+02	-4.40738724528E+01	-1.29188587228E+02	-4.15019563618E+01	-1.16429635080E+02	3.62888567057E-01	1.12398173477E+02
2.06024250000E+09	-1.61031048113E+01	1.54708959995E+02	-4.13530728505E+01	-1.20853993769E+02	-3.91262045677E+01	-1.12098569080E+02	3.44220456383E-01	1.11856733989E+02
2.08024000000E+09	-1.59543831939E+01	1.49159503652E+02	-3.85933698876E+01	-1.19185066794E+02	-3.70219634536E+01	-1.14268175799E+02	3.09290296754E-01	1.11038806551E+02
2.10023750000E+09	-1.64129806280E+01	1.45645024645E+02	-3.61707017215E+01	-1.26224710739E+02	-3.54635953075E+01	-1.21084293559E+02	2.98468572122E-01	1.10043426129E+02
2.12023500000E+09	-1.73978419361E+01	1.40771035942E+02	-3.50194360374E+01	-1.32566976851E+02	-3.47431377024E+01	-1.24803723440E+02	3.13484621791E-01	1.09110720378E+02
2.14023250000E+09	-1.95139288748E+01	1.34061692873E+02	-3.36799130924E+01	-1.37801464322E+02	-3.35041699595E+01	-1.27754429447E+02	3.45674085550E-01	1.08377309385E+02
2.16023000000E+09	-2.28249718586E+01	1.26009830849E+02	-3.25212587015E+01	-1.46286520976E+02	-3.25214629749E+01	-1.34115079302E+02	3.90785083973E-01	1.07939754053E+02
2.18022750000E+09	-2.88410146890E+01	1.05335246763E+02	-3.15666096367E+01	-1.53764413230E+02	-3.19260660095E+01	-1.38315276854E+02	4.21452541083E-01	1.07692603214E+02
2.20022500000E+09	-3.44851694306E+01	-1.07566151432E+01	-3.07010021905E+01	-1.66876179780E+02	-3.12564036956E+01	-1.45161430977E+02	4.29092138335E-01	1.07340730364E+02
2.22022250000E+09	-2.40838281223E+01	-4.33763018117E+01	-3.10342853832E+01	-1.79621543609E+02	-3.14187022461E+01	-1.50518640311E+02	4.18668912658E-01	1.06831138108E+02
2.24022000000E+09	-1.88327888009E+01	-5.12439288522E+01	-3.11762282596E+01	1.72197657466E+02	-3.10769055029E+01	-1.51378939953E+02	4.44945027154E-01	1.06138479643E+02
2.26021750000E+09	-1.61855670124E+01	-5.56758342696E+01	-3.15468432791E+01	1.61542424077E+02	-3.07593365977E+01	-1.54938392092E+02	4.98714089280E-01	1.05636019108E+02
2.28021500000E+09	-1.44121400951E+01	-5.93834280944E+01	-3.22230982866E+01	1.54426165332E+02	-3.06076888730E+01	-1.55682810255E+02	5.39904829352E-01	1.05448461278E+02
2.30021250000E+09	-1.33809647604E+01	-6.43364512784E+01	-3.27642307887E+01	1.47315032654E+02	-3.01221898119E+01	-1.58500509615E+02	5.35494226171E-01	1.05210967967E+02
2.32021000000E+09	-1.26618084577E+01	-6.78070383216E+01	-3.38075902381E+01	1.41122737455E+02	-3.01675440516E+01	-1.62268880966E+02	4.82782339592E-01	1.04719872846E+02
2.34020750000E+09	-1.21993079959E+01	-7.15271301254E+01	-3.45559312984E+01	1.37955350797E+02	-2.98735780121E+01	-1.64634411065E+02	4.63841830144E-01	1.03941046854E+02
