# Hz S DB R 50
! CMT, S5180, 51801906, 22.3.3/1
! Date: 27/01/2023 17:16:04
! Data: Format (Calibration Info)
! Freq	S11:dB/Ang(F2)	S21:dB/Ang(F2)	S12:dB/Ang(F2)	S22:dB/Ang(F2)
5.00000000000E+05	-2.07321863993E-01	-1.92930510022E+00	-5.15435207876E+01	-7.15157463547E+01	-6.42638948960E+01	-1.65412613345E+02	-6.37783084839E-01	1.23258042072E+01
2.04975000000E+07	-1.23310790062E-01	-1.87077906631E+01	-7.78834217510E+01	-7.89704306721E+00	-7.68540281862E+01	-4.99701307484E+00	-5.66469897633E+01	-7.63099196437E+01
4.04950000000E+07	-1.76959541250E-01	-3.63874250060E+01	-8.08706557272E+01	-1.04829809324E+02	-8.00029263973E+01	-8.53514676970E+01	-5.23157915355E+01	-4.45489940669E+00
6.04925000000E+07	-2.87012537634E-01	-5.40513040605E+01	-7.65043711425E+01	-2.13451291986E+01	-7.69039826082E+01	-5.53269658197E+01	-5.06216764325E+01	3.34576298967E+01
8.04900000000E+07	-4.56454580316E-01	-7.17888358361E+01	-8.98126194731E+01	1.42553029180E+02	-9.01816918849E+01	1.77554960908E+02	-5.09818100727E+01	7.53841530722E+01
1.00487500000E+08	-6.34651085805E-01	-8.93942048067E+01	-8.35744839277E+01	1.04418144965E+02	-8.26306054464E+01	8.25912704064E+01	-5.20198428275E+01	1.14574825888E+02
1.20485000000E+08	-8.16217686752E-01	-1.06854815138E+02	-8.92464414075E+01	1.13583620470E+02	-8.54264259477E+01	9.67066818743E+01	-5.47269193667E+01	1.52904675189E+02
1.40482500000E+08	-1.02427436957E+00	-1.24186803063E+02	-7.84589883265E+01	1.30974075662E+02	-8.17074153494E+01	1.51613422746E+02	-6.08957227500E+01	-1.67265418314E+02
1.60480000000E+08	-1.24156769189E+00	-1.41568242854E+02	-7.51771653140E+01	1.07875115910E+02	-7.80481549671E+01	1.12552952253E+02	-6.74921849886E+01	2.22324935181E+01
1.80477500000E+08	-1.45912995663E+00	-1.59099039644E+02	-7.64653347817E+01	1.23800599595E+02	-7.54685746252E+01	1.31077382251E+02	-5.66033454703E+01	9.88300441706E+01
2.00475000000E+08	-1.65705041093E+00	-1.76613805865E+02	-7.34901388922E+01	1.31836355858E+02	-7.32468148715E+01	1.32052151986E+02	-5.14628828883E+01	1.47062685294E+02
2.20472500000E+08	-1.86844411381E+00	1.65805746557E+02	-7.32430312981E+01	1.33539161657E+02	-7.25014378654E+01	1.34588841923E+02	-4.97829260144E+01	-1.73763680295E+02
2.40470000000E+08	-2.10946605854E+00	1.47938151899E+02	-7.17329270756E+01	1.31532962200E+02	-7.15751023929E+01	1.34983350817E+02	-4.94065203013E+01	-1.36488017724E+02
2.60467500000E+08	-2.35095582045E+00	1.29811783368E+02	-7.00074672459E+01	1.30511971481E+02	-7.01015708824E+01	1.27229147053E+02	-5.12414328211E+01	-1.00365810434E+02
2.80465000000E+08	-2.56721789066E+00	1.11883694281E+02	-6.92680291744E+01	1.36076762486E+02	-6.94061711700E+01	1.29675393324E+02	-5.61321847858E+01	-8.02306555187E+01
3.00462500000E+08	-2.80204798653E+00	9.44322356841E+01	-6.72807133106E+01	1.40190089335E+02	-6.85076283687E+01	1.25451984861E+02	-6.00023769034E+01	-1.01133085926E+02
3.20460000000E+08	-3.09434032156E+00	7.71485225312E+01	-6.74011624984E+01	1.30404391078E+02	-6.78526253551E+01	1.26134025269E+02	-5.42817086260E+01	-1.09768254640E+02
3.40457500000E+08	-3.40042225110E+00	6.00377042604E+01	-6.58906002278E+01	1.33623696259E+02	-6.66334715761E+01	1.31632437219E+02	-5.11771736893E+01	-8.80421812529E+01
3.60455000000E+08	-3.69797594242E+00	4.32968471532E+01	-6.65458274166E+01	1.33315501285E+02	-6.79527243211E+01	1.32167484682E+02	-5.02863133726E+01	-6.04060734662E+01
3.80452500000E+08	-4.01124113267E+00	2.70630557490E+01	-6.49103287004E+01	1.32531257972E+02	-6.59910833042E+01	1.32155839588E+02	-5.12521957101E+01	-3.67908445391E+01
4.00450000000E+08	-4.38683187906E+00	1.10298399612E+01	-6.49023959155E+01	1.34591498020E+02	-6.52852207584E+01	1.35550377133E+02	-5.29650508040E+01	-2.50992131815E+01
4.20447500000E+08	-4.78074699582E+00	-5.11811235938E+00	-6.40313911666E+01	1.32673202759E+02	-6.43769296851E+01	1.37393834711E+02	-5.27854568896E+01	-2.56751220044E+01
4.40445000000E+08	-5.14347053618E+00	-2.11848212267E+01	-6.32206524232E+01	1.34999335571E+02	-6.37653685535E+01	1.37517942583E+02	-5.04536159510E+01	-1.78995181314E+01
4.60442500000E+08	-5.48092609450E+00	-3.68465068962E+01	-6.34202974988E+01	1.33033392767E+02	-6.34140894685E+01	1.40737660625E+02	-4.85231004333E+01	6.64760044709E+00
4.80440000000E+08	-5.84514157619E+00	-5.23831983263E+01	-6.18801314514E+01	1.32702758059E+02	-6.20921557750E+01	1.39496806099E+02	-4.67976588957E+01	3.33951978586E+01
5.00437500000E+08	-6.22742740442E+00	-6.81383695314E+01	-6.20139421789E+01	1.35430171801E+02	-6.12820313711E+01	1.35200181324E+02	-4.64377589326E+01	5.96182609672E+01
5.20435000000E+08	-6.58196293933E+00	-8.39459327991E+01	-6.15891497537E+01	1.35294262448E+02	-6.08587940081E+01	1.34644720830E+02	-4.68678853196E+01	8.82092225305E+01
5.40432500000E+08	-6.88424235418E+00	-9.94603405662E+01	-6.13745355096E+01	1.34320431412E+02	-6.04793279577E+01	1.35655818065E+02	-4.83812560889E+01	1.13479012979E+02
5.60430000000E+08	-7.16382159932E+00	-1.14372225770E+02	-6.10191979609E+01	1.40402777130E+02	-6.06422812313E+01	1.38518097533E+02	-5.19025028350E+01	1.39666940533E+02
5.80427500000E+08	-7.44504829014E+00	-1.29011236812E+02	-5.97839434678E+01	1.39379450852E+02	-5.93315834432E+01	1.35445374702E+02	-6.08467902584E+01	1.13795331091E+02
6.00425000000E+08	-7.71976903510E+00	-1.43440486820E+02	-5.97377141798E+01	1.39439498662E+02	-5.97550472923E+01	1.33174875683E+02	-5.20596197346E+01	6.57424108116E+01
6.20422500000E+08	-7.98414951394E+00	-1.57754983358E+02	-6.01689224466E+01	1.39088527730E+02	-6.00489848833E+01	1.35315780567E+02	-4.63414513560E+01	9.34034476980E+01
6.40420000000E+08	-8.23318291521E+00	-1.71841075591E+02	-5.87900448852E+01	1.44588955898E+02	-5.90098892191E+01	1.39658387942E+02	-4.32953250468E+01	1.30961016849E+02
6.60417500000E+08	-8.56612266448E+00	1.74068650190E+02	-5.79921368856E+01	1.46210004798E+02	-5.87381872463E+01	1.41059207167E+02	-4.18674304301E+01	1.65966976952E+02
6.80415000000E+08	-9.02171208070E+00	1.59186840681E+02	-5.71960824686E+01	1.44125395190E+02	-5.79902792236E+01	1.41891594753E+02	-4.20255901695E+01	-1.56576707976E+02
7.00412500000E+08	-9.54736462341E+00	1.42828588272E+02	-5.71638878112E+01	1.40559918517E+02	-5.75841104821E+01	1.40073159403E+02	-4.47418053148E+01	-1.16649177166E+02
7.20410000000E+08	-1.00104348771E+01	1.25171081496E+02	-5.76515743468E+01	1.45482767775E+02	-5.81462740857E+01	1.45415948730E+02	-5.19134356918E+01	-6.91498836038E+01
7.40407500000E+08	-1.03708620641E+01	1.06663887244E+02	-5.63551232918E+01	1.43349344942E+02	-5.63377768071E+01	1.44803591586E+02	-5.53955439297E+01	1.02507437311E+02
7.60405000000E+08	-1.07536277905E+01	8.74883910133E+01	-5.57005796679E+01	1.43854117943E+02	-5.60765994061E+01	1.43568696562E+02	-4.58533107427E+01	1.60333398036E+02
7.80402500000E+08	-1.10529415280E+01	6.71810484094E+01	-5.53122279582E+01	1.42832923500E+02	-5.55260480492E+01	1.41952922610E+02	-4.24693664626E+01	-1.57708644416E+02
8.00400000000E+08	-1.11355274028E+01	4.67694407712E+01	-5.52540092700E+01	1.39396203773E+02	-5.55712111417E+01	1.38085769304E+02	-4.07365440338E+01	-1.18304973614E+02
8.20397500000E+08	-1.09772622439E+01	2.81695127016E+01	-5.60117898635E+01	1.46249870928E+02	-5.66201311255E+01	1.44666263761E+02	-4.06881105936E+01	-8.01012077428E+01
8.40395000000E+08	-1.08087148314E+01	1.12351137243E+01	-5.49778097391E+01	1.42387160084E+02	-5.56947916782E+01	1.43212503652E+02	-4.20596783574E+01	-4.20565421827E+01
8.60392500000E+08	-1.07269377357E+01	-4.27975375051E+00	-5.48203539157E+01	1.42592834163E+02	-5.56988896844E+01	1.46744443744E+02	-4.52908903564E+01	-1.81207227633E+00
8.80390000000E+08	-1.06238404550E+01	-1.87968319611E+01	-5.50407937427E+01	1.47621477476E+02	-5.54056107093E+01	1.51771899903E+02	-5.24422775775E+01	5.07452267766E+01
9.00387500000E+08	-1.04940196576E+01	-3.19118794660E+01	-5.44889370684E+01	1.44229748363E+02	-5.48779395277E+01	1.48655409352E+02	-5.45336965955E+01	-1.71361187780E+02
9.20385000000E+08	-1.04747251766E+01	-4.32209678839E+01	-5.48393019544E+01	1.48767961079E+02	-5.52973639339E+01	1.54090301405E+02	-4.65003493962E+01	-1.06858677149E+02
9.40382500000E+08	-1.06892487379E+01	-5.41685366815E+01	-5.39402659060E+01	1.48803235848E+02	-5.40098283306E+01	1.56501232348E+02	-4.29485928186E+01	-6.63946640926E+01
9.60380000000E+08	-1.11319948121E+01	-6.54804413821E+01	-5.35760154576E+01	1.50325466550E+02	-5.30683318264E+01	1.57525400285E+02	-4.10268833536E+01	-2.50961843034E+01
9.80377500000E+08	-1.17047591413E+01	-7.75616414050E+01	-5.33049193704E+01	1.49181660553E+02	-5.28369338203E+01	1.52908798358E+02	-4.00929959772E+01	1.42341340387E+01
1.00037500000E+09	-1.23332907616E+01	-9.00054672992E+01	-5.32185828309E+01	1.53104505831E+02	-5.27420013483E+01	1.55817964453E+02	-4.02675818400E+01	5.34810181880E+01
1.02037250000E+09	-1.31033600298E+01	-1.03344247175E+02	-5.21974311437E+01	1.56120993434E+02	-5.19945676660E+01	1.58589664428E+02	-4.19714634252E+01	8.92386702474E+01
1.04037000000E+09	-1.41091559936E+01	-1.18460039517E+02	-5.20021817928E+01	1.51599090222E+02	-5.15591342785E+01	1.51823695543E+02	-4.60368094141E+01	1.25306083086E+02
1.06036750000E+09	-1.50327581781E+01	-1.35736801999E+02	-5.25373058623E+01	1.52816898993E+02	-5.21352277692E+01	1.53017176911E+02	-5.59181161143E+01	1.37733120611E+02
1.08036500000E+09	-1.56668793737E+01	-1.54613929632E+02	-5.19903834120E+01	1.55000155228E+02	-5.20367698751E+01	1.52794570269E+02	-5.21506007785E+01	4.72745537780E+01
1.10036250000E+09	-1.61045901788E+01	-1.73628396556E+02	-5.09428936343E+01	1.55083168488E+02	-5.09877705406E+01	1.54150084336E+02	-4.54734712065E+01	7.00451908572E+01
1.12036000000E+09	-1.65373506397E+01	1.67046767597E+02	-5.09995367095E+01	1.55827233955E+02	-5.11879902764E+01	1.54014471563E+02	-4.30805934118E+01	1.00231190016E+02
1.14035750000E+09	-1.67174918815E+01	1.46774294544E+02	-5.10314978362E+01	1.53677516680E+02	-5.14028812567E+01	1.53148250662E+02	-4.25114462565E+01	1.27891617735E+02
1.16035500000E+09	-1.62904089156E+01	1.28014595276E+02	-5.08841083128E+01	1.59980137387E+02	-5.11053858692E+01	1.61292834764E+02	-4.32023480170E+01	1.48276357202E+02
1.18035250000E+09	-1.58513524051E+01	1.11504934637E+02	-4.98052690246E+01	1.59742627926E+02	-4.99398741958E+01	1.61306196654E+02	-4.38582662369E+01	1.58855979911E+02
1.20035000000E+09	-1.57030067262E+01	9.64508058813E+01	-4.96034488692E+01	1.58814192475E+02	-4.93938630728E+01	1.59188747385E+02	-4.36167333215E+01	1.67114648747E+02
1.22034750000E+09	-1.59547400697E+01	8.08131149652E+01	-4.90367643964E+01	1.56643341076E+02	-4.90356735451E+01	1.56007628841E+02	-4.29103301642E+01	1.77884570502E+02
1.24034500000E+09	-1.62394593593E+01	6.45750804661E+01	-4.96276942545E+01	1.54743842399E+02	-4.98267229741E+01	1.55416960688E+02	-4.26935950098E+01	-1.66767187867E+02
1.26034250000E+09	-1.63728391174E+01	4.77125665936E+01	-4.90797668022E+01	1.60030425388E+02	-4.90777703774E+01	1.59889676173E+02	-4.33098077398E+01	-1.53020191922E+02
1.28034000000E+09	-1.67983128957E+01	2.98061811411E+01	-4.83898090663E+01	1.59413220454E+02	-4.84695345026E+01	1.58280705513E+02	-4.45272409573E+01	-1.41830773312E+02
1.30033750000E+09	-1.74114851962E+01	9.64564810756E+00	-4.83696023111E+01	1.59501965097E+02	-4.86251096578E+01	1.58711418347E+02	-4.58374501201E+01	-1.39855994634E+02
1.32033500000E+09	-1.77728868126E+01	-1.39116950708E+01	-4.81523057333E+01	1.56841806304E+02	-4.83298908655E+01	1.58389825003E+02	-4.63461697854E+01	-1.40809720937E+02
1.34033250000E+09	-1.73300359619E+01	-3.53336972965E+01	-4.84676650689E+01	1.59102557598E+02	-4.85213532504E+01	1.61190399956E+02	-4.54580541451E+01	-1.47235667248E+02
1.36033000000E+09	-1.64704791858E+01	-5.32287893303E+01	-4.81241194104E+01	1.61382657962E+02	-4.80631229917E+01	1.64240340565E+02	-4.23920398388E+01	-1.42740744091E+02
1.38032750000E+09	-1.58308467772E+01	-6.88780461988E+01	-4.77207098301E+01	1.60687798096E+02	-4.76589758937E+01	1.65414552535E+02	-3.96610711651E+01	-1.26395981732E+02
1.40032500000E+09	-1.52789384663E+01	-8.28907706378E+01	-4.76108926092E+01	1.63222512379E+02	-4.71972912529E+01	1.67487442940E+02	-3.76181497436E+01	-9.90158464107E+01
1.42032250000E+09	-1.47044447309E+01	-9.60125196454E+01	-4.72119678234E+01	1.62101999237E+02	-4.64628955052E+01	1.66287863236E+02	-3.68944534288E+01	-6.84210692098E+01
1.44032000000E+09	-1.40840107479E+01	-1.06338593289E+02	-4.71890747693E+01	1.63424456353E+02	-4.63421881851E+01	1.65641296791E+02	-3.74510701532E+01	-3.55309712972E+01
1.46031750000E+09	-1.35653781409E+01	-1.15083479770E+02	-4.69264704905E+01	1.64118746818E+02	-4.59912564008E+01	1.65281102819E+02	-3.96463229491E+01	6.41290918112E-01
1.48031500000E+09	-1.33807973030E+01	-1.23005503117E+02	-4.65888570446E+01	1.66369640007E+02	-4.57392320951E+01	1.67893666050E+02	-4.47360711487E+01	3.51982297435E+01
1.50031250000E+09	-1.35386127918E+01	-1.30921084607E+02	-4.61616121987E+01	1.66251636500E+02	-4.52093344999E+01	1.65652162328E+02	-6.61411588477E+01	-1.96249477501E+01
1.52031000000E+09	-1.38691275584E+01	-1.38723666979E+02	-4.59211073543E+01	1.65979655406E+02	-4.53063156467E+01	1.64104427290E+02	-4.45135172712E+01	-6.32152038186E+01
1.54030750000E+09	-1.44117164604E+01	-1.45758326100E+02	-4.59342426410E+01	1.65057102952E+02	-4.55488402834E+01	1.62721380543E+02	-3.87483204189E+01	-3.11050168901E+01
1.56030500000E+09	-1.53614210388E+01	-1.53185507036E+02	-4.57165634442E+01	1.68926679325E+02	-4.54288566968E+01	1.67102132205E+02	-3.60749823123E+01	1.76540655444E+00
1.58030250000E+09	-1.71138842763E+01	-1.62338540158E+02	-4.52465938195E+01	1.71438851426E+02	-4.50581686998E+01	1.70549736059E+02	-3.47065326901E+01	3.30745390902E+01
1.60030000000E+09	-1.98977099829E+01	-1.76783291011E+02	-4.46502765511E+01	1.70521884191E+02	-4.47092873566E+01	1.69417486542E+02	-3.43331716447E+01	6.11819371548E+01
1.62029750000E+09	-2.31666782704E+01	1.58890359689E+02	-4.44660480446E+01	1.69936178042E+02	-4.44714588789E+01	1.69516164157E+02	-3.49866768121E+01	8.82359019693E+01
1.64029500000E+09	-2.52587427480E+01	1.19372804567E+02	-4.44606171205E+01	1.70668766329E+02	-4.45714457074E+01	1.70099075690E+02	-3.67379455578E+01	1.14656698389E+02
1.66029250000E+09	-2.38925113700E+01	7.11986950745E+01	-4.38940966841E+01	1.71556053950E+02	-4.40125443160E+01	1.71588041214E+02	-4.04689731160E+01	1.35344405444E+02
1.68029000000E+09	-2.04097803346E+01	4.10218935110E+01	-4.33624785345E+01	1.72167333327E+02	-4.35733451001E+01	1.72310119565E+02	-4.89626762432E+01	1.29077787753E+02
1.70028750000E+09	-1.75919501563E+01	2.43657582397E+01	-4.29176639298E+01	1.71201829600E+02	-4.30405122265E+01	1.70746362591E+02	-4.36545209661E+01	6.57507552182E+01
1.72028500000E+09	-1.57404381663E+01	1.38889868589E+01	-4.26094765104E+01	1.69676912250E+02	-4.28173838582E+01	1.68372338833E+02	-3.75412484121E+01	7.97236751260E+01
1.74028250000E+09	-1.46429253191E+01	5.39238836797E+00	-4.27010308409E+01	1.67560936559E+02	-4.32620753139E+01	1.66340859643E+02	-3.45548517609E+01	1.05001389849E+02
1.76028000000E+09	-1.37546424372E+01	-4.18843917539E+00	-4.23256735494E+01	1.70395022993E+02	-4.31747771152E+01	1.71215194619E+02	-3.37592001439E+01	1.29340755508E+02
1.78027750000E+09	-1.32099851708E+01	-1.27056048483E+01	-4.19207153849E+01	1.70376548042E+02	-4.27236395617E+01	1.72985492978E+02	-3.45150681155E+01	1.53893531638E+02
1.80027500000E+09	-1.30411817106E+01	-2.00274505258E+01	-4.15638820742E+01	1.68554585217E+02	-4.22293478470E+01	1.72110179258E+02	-3.64151522994E+01	1.71951137057E+02
1.82027250000E+09	-1.34009060754E+01	-2.53855561491E+01	-4.14927823339E+01	1.66021244655E+02	-4.22470005368E+01	1.70181372654E+02	-3.91503724658E+01	-1.78643611794E+02
1.84027000000E+09	-1.41389789531E+01	-3.18727701484E+01	-4.18825447074E+01	1.67007366878E+02	-4.24605726395E+01	1.73657850810E+02	-4.06786474954E+01	1.78484802372E+02
1.86026750000E+09	-1.53197924840E+01	-4.12711314870E+01	-4.15857770580E+01	1.70846357664E+02	-4.16428812914E+01	1.78418068554E+02	-4.06905556205E+01	1.75248906777E+02
1.88026500000E+09	-1.68672953057E+01	-5.25576249524E+01	-4.10922096462E+01	1.70804577293E+02	-4.06924082056E+01	1.77470299406E+02	-4.00600508053E+01	1.75258728384E+02
1.90026250000E+09	-1.86862197613E+01	-6.56313746152E+01	-4.07358877581E+01	1.69499996059E+02	-4.02790098038E+01	1.74399653499E+02	-3.89049164286E+01	1.77602785124E+02
1.92026000000E+09	-2.07792131881E+01	-8.31952743055E+01	-4.06462538038E+01	1.67042273641E+02	-4.01309595412E+01	1.72041090272E+02	-3.68159400258E+01	-1.75010624069E+02
1.94025750000E+09	-2.22606867443E+01	-1.11922808268E+02	-4.10256150271E+01	1.69520031880E+02	-4.02636896893E+01	1.73039084065E+02	-3.51900712685E+01	-1.57181952021E+02
1.96025500000E+09	-2.17720420117E+01	-1.44434391037E+02	-4.06060938654E+01	1.72766645847E+02	-3.98208076476E+01	1.73561959440E+02	-3.41684829688E+01	-1.32203811363E+02
1.98025250000E+09	-2.00068125225E+01	-1.66247841098E+02	-4.00496153970E+01	1.73475863776E+02	-3.94288805846E+01	1.71865985707E+02	-3.43192040786E+01	-1.03952483711E+02
2.00025000000E+09	-1.85645789172E+01	-1.79156102143E+02	-3.97407479340E+01	1.71897600563E+02	-3.93194606020E+01	1.69950208356E+02	-3.55399103858E+01	-7.58372394155E+01
2.02024750000E+09	-1.74736987579E+01	1.71625034174E+02	-3.98906927497E+01	1.72707225728E+02	-3.95049154997E+01	1.70518923713E+02	-3.78658688174E+01	-5.06106888880E+01
2.04024500000E+09	-1.66830018358E+01	1.61912616108E+02	-3.93958566421E+01	1.74356404509E+02	-3.91486000056E+01	1.72172757237E+02	-4.16501205298E+01	-3.74225482102E+01
2.06024250000E+09	-1.61462359122E+01	1.54340075086E+02	-3.90668783096E+01	1.76278297887E+02	-3.89525434722E+01	1.73971335375E+02	-4.44024823520E+01	-5.54319478115E+01
2.08024000000E+09	-1.59459188749E+01	1.48714565636E+02	-3.83289067011E+01	1.76291198094E+02	-3.83164510914E+01	1.74545653146E+02	-4.12311211750E+01	-6.44450480771E+01
2.10023750000E+09	-1.63902741491E+01	1.45295483550E+02	-3.79675540548E+01	1.72685460897E+02	-3.78979143108E+01	1.71006750786E+02	-3.83219563747E+01	-5.19503654752E+01
2.12023500000E+09	-1.73969627012E+01	1.40625232675E+02	-3.81297524940E+01	1.74000537712E+02	-3.80434300898E+01	1.72063215564E+02	-3.65131584699E+01	-3.16549717631E+01
2.14023250000E+09	-1.95453951636E+01	1.33677183817E+02	-3.75187771113E+01	1.75520696439E+02	-3.75343667487E+01	1.73230794200E+02	-3.55196297480E+01	-9.26533825965E+00
2.16023000000E+09	-2.28703098638E+01	1.24973081788E+02	-3.71071409502E+01	1.73792715480E+02	-3.71901310513E+01	1.71263821479E+02	-3.51141923921E+01	1.30316190636E+01
2.18022750000E+09	-2.87900862232E+01	1.03488156688E+02	-3.67636897118E+01	1.73926311101E+02	-3.69716627806E+01	1.71972481202E+02	-3.56752635562E+01	3.24755639081E+01
2.20022500000E+09	-3.42672450954E+01	-9.65091250901E+00	-3.63150914921E+01	1.70868825874E+02	-3.66760498476E+01	1.69974218650E+02	-3.71729964607E+01	4.90747478712E+01
2.22022250000E+09	-2.39940702239E+01	-4.38896307268E+01	-3.64645396126E+01	1.69220968183E+02	-3.70438332015E+01	1.69265539087E+02	-3.90450811594E+01	5.08769382766E+01
2.24022000000E+09	-1.87294034826E+01	-5.15301171148E+01	-3.61941401899E+01	1.70792420728E+02	-3.68809325071E+01	1.73101490821E+02	-3.86615172395E+01	4.41233376713E+01
2.26021750000E+09	-1.61035377354E+01	-5.56546450968E+01	-3.58782742133E+01	1.68894552283E+02	-3.65707472283E+01	1.74216791321E+02	-3.60472598230E+01	4.78666291326E+01
2.28021500000E+09	-1.43599456678E+01	-5.92213444186E+01	-3.57970246322E+01	1.69292841015E+02	-3.62563411729E+01	1.77810924019E+02	-3.43465346557E+01	6.52704903457E+01
2.30021250000E+09	-1.33753223095E+01	-6.42612829214E+01	-3.53970026530E+01	1.68335185370E+02	-3.55210070015E+01	1.78799626606E+02	-3.41024069788E+01	8.54161008459E+01
2.32021000000E+09	-1.26780888990E+01	-6.78891306817E+01	-3.55344191074E+01	1.66987383543E+02	-3.53627996981E+01	1.78870848936E+02	-3.53343744693E+01	1.03324828542E+02
