# Hz S DB R 50
! CMT, S5180, 51801906, 22.3.3/1
! Date: 27/01/2023 17:17:27
! Data: Format (Calibration Info)
! Freq	S11:dB/Ang(F2)	S21:dB/Ang(F2)	S12:dB/Ang(F2)	S22:dB/Ang(F2)
5.00000000000E+05	-1.06730830550E+00	-6.14944465977E+00	-1.52048348148E+01	4.94535646404E+01	-1.86127773377E+01	2.87442865506E+01	-8.04144251544E-01	-5.68361850003E+00
2.04975000000E+07	-4.95804739016E+01	1.00658387751E+02	-1.17890278742E-02	-1.27923096884E-01	-1.33866062454E-02	-5.75588549401E-02	-5.37722908359E+01	-4.22567470874E+01
4.04950000000E+07	-5.12482064854E+01	-1.12482516499E+02	7.36299318619E-03	1.89385592549E-01	-5.40309241202E-05	2.18360604990E-01	-5.89231815421E+01	-1.43155736894E+01
6.04925000000E+07	-5.93895389352E+01	-8.61738398671E+01	-3.56554897944E-03	1.97380490376E-01	-4.58349631599E-03	2.27687588375E-01	-5.31466005953E+01	6.45026947335E+01
8.04900000000E+07	-5.83033884380E+01	8.00176763044E+01	-3.85862796197E-03	1.68690202985E-01	-4.72713071448E-03	1.97391919049E-01	-4.89589497644E+01	9.01064271617E+01
1.00487500000E+08	-5.44086960491E+01	1.05437653671E+02	-9.92172681595E-04	1.13604958761E-01	-1.84607173412E-04	1.78433386203E-01	-4.90663005360E+01	1.15876812205E+02
1.20485000000E+08	-5.89777395511E+01	1.26696812411E+02	6.90542648736E-03	1.18709742792E-01	6.24724614648E-03	1.43420848722E-01	-5.20727211698E+01	1.45466165770E+02
1.40482500000E+08	-6.52664307207E+01	1.67341463674E+02	1.26334123773E-02	1.28397497851E-01	1.13153962694E-02	1.50377108638E-01	-5.97387560805E+01	1.64586610221E+02
1.60480000000E+08	-6.17468468850E+01	1.17568892308E+02	1.21260857274E-02	1.57867658983E-01	9.80861764329E-03	2.00361694134E-01	-6.01366987907E+01	5.95718291805E+01
1.80477500000E+08	-5.13418564563E+01	1.08828046800E+02	1.10860694098E-02	2.03609179246E-01	9.37632012202E-03	2.33991128465E-01	-5.18461364611E+01	8.47745701751E+01
2.00475000000E+08	-5.00013563674E+01	1.20188464444E+02	6.99138665145E-03	2.17982260642E-01	4.78382868533E-03	2.49935033396E-01	-5.15381140161E+01	1.29578966605E+02
2.20472500000E+08	-5.62821414289E+01	1.58384699823E+02	6.13444112435E-03	1.98350591962E-01	3.17859647082E-03	2.24067241495E-01	-4.93489138138E+01	-1.68913592983E+02
2.40470000000E+08	-5.87492981861E+01	-7.97668484955E+01	1.03843236655E-02	1.92392444075E-01	9.92664270040E-03	2.09438742967E-01	-4.84150404960E+01	-1.30124803722E+02
2.60467500000E+08	-5.35408277463E+01	-2.00113161878E+01	1.62157633483E-02	1.72125942836E-01	1.60279919872E-02	2.10865416547E-01	-5.06870379694E+01	-9.03160035881E+01
2.80465000000E+08	-5.17656711549E+01	1.99585919173E+01	2.09049533559E-02	2.15672721736E-01	1.77811719734E-02	2.45132452470E-01	-5.42247643100E+01	-4.55651574715E+01
3.00462500000E+08	-5.40757525434E+01	3.26331957229E+01	1.94936332476E-02	2.66425414879E-01	1.67449177309E-02	2.73797403470E-01	-5.68589314085E+01	-5.29349476005E+01
3.20460000000E+08	-6.10991405368E+01	-1.64552950979E+01	1.62942354975E-02	2.88927174542E-01	1.36428542299E-02	3.13508632375E-01	-5.12166954341E+01	-9.11683257100E+01
3.40457500000E+08	-5.38775964480E+01	-5.79572750453E+01	1.72343063857E-02	3.00797607065E-01	1.38796160100E-02	3.11183510771E-01	-4.79704547728E+01	-8.44024912386E+01
3.60455000000E+08	-5.27341208541E+01	-3.27007833922E+01	2.02037988326E-02	2.92220381643E-01	1.74076086797E-02	2.87831261657E-01	-4.77904351491E+01	-6.38860305686E+01
3.80452500000E+08	-5.36406618358E+01	-2.51896955961E+00	2.43648762696E-02	2.83729558282E-01	2.30982715651E-02	2.87516717708E-01	-4.90716730807E+01	-4.09423347333E+01
4.00450000000E+08	-5.91669417282E+01	-3.62801965983E+01	2.74132010539E-02	3.10580939552E-01	2.41758097001E-02	3.05542831301E-01	-4.95202156491E+01	-4.18232061849E+01
4.20447500000E+08	-5.07562802904E+01	-9.80823550999E+01	2.61722888003E-02	3.37853316785E-01	2.72095444684E-02	3.49561776015E-01	-4.94386680149E+01	-5.41308760628E+01
4.40445000000E+08	-4.79996634342E+01	-9.66897838506E+01	2.15873084514E-02	3.50675550533E-01	2.25518267401E-02	3.55388671328E-01	-5.08934718863E+01	-3.64830977391E+01
4.60442500000E+08	-5.01826398494E+01	-8.21837881373E+01	2.02359170733E-02	3.41200712298E-01	2.44805092068E-02	3.32169766547E-01	-4.96446739973E+01	7.37509956318E+00
4.80440000000E+08	-5.70702953509E+01	-4.59874317606E+01	2.61698391019E-02	3.44672099300E-01	2.83032629950E-02	3.44076827309E-01	-4.67706784192E+01	3.75924923693E+01
5.00437500000E+08	-6.56448543943E+01	6.94076920227E+01	2.66218217186E-02	3.34075432020E-01	3.77291033312E-02	3.44629551958E-01	-4.60700421848E+01	6.03149021081E+01
5.20435000000E+08	-5.88169515852E+01	1.47444567876E+02	3.45508335148E-02	3.28364721241E-01	4.12981903893E-02	3.35524909481E-01	-4.66045970191E+01	9.06443622182E+01
5.40432500000E+08	-5.47552163091E+01	1.78940513956E+02	3.45859601485E-02	3.52456174876E-01	4.12858275380E-02	3.66192403304E-01	-4.64445065134E+01	1.23917046474E+02
5.60430000000E+08	-5.21221699877E+01	-1.76044143267E+02	3.77276547939E-02	3.66038472141E-01	4.07469481889E-02	3.95806580247E-01	-4.80794365627E+01	1.39687784852E+02
5.80427500000E+08	-5.00908422288E+01	1.68834257030E+02	3.43268242830E-02	4.15431581774E-01	3.49422773900E-02	3.93498019876E-01	-5.42051912192E+01	1.25004077677E+02
6.00425000000E+08	-4.75466184767E+01	1.45445188935E+02	3.42563123672E-02	4.29790027666E-01	3.15600068408E-02	4.02994192044E-01	-5.12314806459E+01	7.55428319914E+01
6.20422500000E+08	-4.55051980564E+01	1.30526334171E+02	3.18036770276E-02	4.37103596449E-01	3.05886727601E-02	4.24179994207E-01	-4.54610915986E+01	9.32831749809E+01
6.40420000000E+08	-4.54831715444E+01	1.28739526776E+02	2.72721440366E-02	4.41161099759E-01	3.04234738656E-02	4.52180483016E-01	-4.19257647045E+01	1.30256562760E+02
6.60417500000E+08	-4.87233615151E+01	1.38426041821E+02	2.87676054991E-02	4.10284800346E-01	3.42688917903E-02	4.60050730780E-01	-4.04067103881E+01	1.61974924310E+02
6.80415000000E+08	-5.41025919401E+01	1.79862251139E+02	3.69162735771E-02	4.09191440123E-01	3.61953900680E-02	4.50969998192E-01	-4.15292437528E+01	-1.64370631879E+02
7.00412500000E+08	-5.84935404261E+01	-1.68245672425E+02	4.44936146538E-02	4.12854769093E-01	4.17911246848E-02	4.59535167120E-01	-4.50460242383E+01	-1.16048630902E+02
7.20410000000E+08	-5.36357670920E+01	9.74245438328E+01	5.21035805528E-02	4.87762833929E-01	4.77883012936E-02	5.06111757791E-01	-5.06993001684E+01	-4.22624020095E+01
7.40407500000E+08	-4.63829504881E+01	8.55673179668E+01	5.21815592942E-02	5.51129022811E-01	4.87362200875E-02	5.53473935722E-01	-5.28179172605E+01	6.66629096006E+01
7.60405000000E+08	-4.63080466496E+01	7.80600044936E+01	4.62270530622E-02	5.46334289358E-01	4.02428410053E-02	5.62790205634E-01	-4.63785252636E+01	1.57656057963E+02
7.80402500000E+08	-5.14081018006E+01	4.10456421006E+01	3.83040449598E-02	5.03308449801E-01	2.74497656679E-02	5.27033971943E-01	-4.18585142007E+01	-1.57511385563E+02
8.00400000000E+08	-4.87317678857E+01	-3.01557865918E+01	3.31918113295E-02	4.39640396841E-01	2.03878568798E-02	4.50217359047E-01	-3.99903643748E+01	-1.13950999316E+02
8.20397500000E+08	-4.77458357226E+01	-4.92745366592E+01	3.55313007935E-02	4.98469380095E-01	2.70252380078E-02	4.12965257384E-01	-3.92951694120E+01	-7.58246064637E+01
8.40395000000E+08	-5.38836583701E+01	-6.78054150411E+01	4.04446503731E-02	5.91222978663E-01	4.72714599788E-02	4.60051750034E-01	-3.97332819954E+01	-4.39733761992E+01
8.60392500000E+08	-5.70630915337E+01	-1.59124523013E+02	5.45875353519E-02	6.33401209260E-01	6.63732122261E-02	5.41923503230E-01	-4.39344726652E+01	-1.73394972215E+01
8.80390000000E+08	-5.51036620455E+01	-1.15346780791E+02	6.29400690239E-02	6.42487898685E-01	7.31766714178E-02	6.17281986550E-01	-5.50463041309E+01	4.83666372636E+01
9.00387500000E+08	-4.58122028782E+01	-7.02414318137E+01	6.50626007645E-02	6.10940441608E-01	6.29013574422E-02	7.37548585292E-01	-5.16978751557E+01	-1.74668447388E+02
9.20385000000E+08	-4.15260054740E+01	-6.60073292018E+01	6.34765122977E-02	6.11125788817E-01	5.25021672133E-02	7.42728285703E-01	-4.55264910447E+01	-1.17124543172E+02
9.40382500000E+08	-4.33891222164E+01	-7.96276130103E+01	6.43283099879E-02	6.70627461609E-01	5.53387295250E-02	6.09374617774E-01	-4.12784685380E+01	-7.78086513073E+01
9.60380000000E+08	-4.77476743012E+01	-1.39319183248E+02	5.57510364246E-02	6.83811918361E-01	7.10285391999E-02	4.03969647048E-01	-4.00372888877E+01	-3.96731361517E+01
9.80377500000E+08	-4.60607399409E+01	1.72334389631E+02	5.25317575641E-02	6.76822917179E-01	7.62136664002E-02	3.53798426431E-01	-4.03006377332E+01	5.17011469331E+00
1.00037500000E+09	-4.65193324845E+01	1.63399169665E+02	5.46087535046E-02	6.29697724514E-01	9.34883309833E-02	4.84980164203E-01	-3.98501384528E+01	5.22973635946E+01
1.02037250000E+09	-5.12654106638E+01	1.60912915267E+02	6.74409433151E-02	5.95111394148E-01	9.68562195557E-02	6.19602265778E-01	-4.07908968095E+01	9.15775212628E+01
1.04037000000E+09	-5.26828139139E+01	1.66177473522E+02	7.86437562663E-02	6.03328613807E-01	9.63671697363E-02	6.81685153775E-01	-4.40833471582E+01	1.30183740813E+02
1.06036750000E+09	-4.69531386955E+01	1.63775014405E+02	8.30539867111E-02	6.55019602853E-01	8.64268497174E-02	6.24116663359E-01	-5.15935572235E+01	1.53570100769E+02
1.08036500000E+09	-4.26295979550E+01	1.66008906700E+02	8.14299667339E-02	7.37003543566E-01	8.16544572995E-02	5.99425522619E-01	-5.25723087215E+01	7.02846492500E+01
1.10036250000E+09	-4.21306153129E+01	1.62689814762E+02	7.83858790638E-02	7.71780648692E-01	8.32183100261E-02	6.63328350911E-01	-4.35416633098E+01	7.95438234521E+01
1.12036000000E+09	-4.60109668719E+01	1.47460808546E+02	7.69196728030E-02	7.30576281402E-01	8.80482675061E-02	7.16374684374E-01	-4.07539429580E+01	1.00350305306E+02
1.14035750000E+09	-4.92261431601E+01	9.39796811862E+01	7.96186074095E-02	7.13200886529E-01	8.75813343313E-02	7.83199193473E-01	-4.11962833219E+01	1.19509656774E+02
1.16035500000E+09	-4.66017953386E+01	7.31664461208E+01	7.71366953589E-02	7.59961885408E-01	8.32039818751E-02	8.29029588688E-01	-4.28515961078E+01	1.41525552726E+02
1.18035250000E+09	-4.55757915196E+01	8.14542387830E+01	8.59671874547E-02	8.17442166140E-01	8.30161586026E-02	8.35021240189E-01	-4.42530442187E+01	1.52604492476E+02
1.20035000000E+09	-4.76938153867E+01	9.03427392705E+01	9.16598550987E-02	8.75759190985E-01	7.97824114019E-02	8.62180801506E-01	-4.38496892497E+01	1.62490303820E+02
1.22034750000E+09	-5.35244619703E+01	7.76198458313E+01	9.90824824300E-02	8.53880687224E-01	8.11659905872E-02	8.50509081211E-01	-4.33080180804E+01	1.75660480602E+02
1.24034500000E+09	-5.25899384884E+01	1.52110913192E+01	1.00800760207E-01	7.82035354040E-01	8.06744679486E-02	8.11584869945E-01	-4.35582717653E+01	-1.61606012600E+02
1.26034250000E+09	-4.99406603394E+01	3.29050002920E+00	9.49128322221E-02	8.23668408293E-01	7.81734474253E-02	7.82681865602E-01	-4.36695825344E+01	-1.44227262045E+02
1.28034000000E+09	-5.12868432259E+01	1.29962131358E+01	1.03230627539E-01	9.45557659590E-01	7.75402468588E-02	8.48867465863E-01	-4.44632337109E+01	-1.33611669803E+02
1.30033750000E+09	-5.60755840900E+01	-1.74486029189E+01	1.16753943346E-01	9.87439503809E-01	8.48432709559E-02	9.34801367787E-01	-4.41548057158E+01	-1.34305211767E+02
1.32033500000E+09	-4.85507586682E+01	-8.41414722788E+01	1.25619663726E-01	8.76812665837E-01	1.01093697536E-01	9.17045685331E-01	-4.49050367444E+01	-1.43097405776E+02
1.34033250000E+09	-4.36720379953E+01	-8.56243048276E+01	1.21667382323E-01	7.57920883607E-01	1.05519496968E-01	8.73044304141E-01	-4.56042319786E+01	-1.48202902044E+02
1.36033000000E+09	-4.26585340128E+01	-8.21199486039E+01	1.23282655436E-01	7.49705398400E-01	9.89546214793E-02	8.76258314878E-01	-4.30571551228E+01	-1.40826174710E+02
1.38032750000E+09	-4.77634944789E+01	-8.50189288736E+01	1.41833225242E-01	9.03241162585E-01	9.28857059688E-02	8.66177438687E-01	-3.89263603657E+01	-1.24437040277E+02
1.40032500000E+09	-5.79111194614E+01	1.36415642775E+02	1.75124644717E-01	9.85888167774E-01	1.05383477804E-01	6.52879291650E-01	-3.61462315056E+01	-1.07764973875E+02
1.42032250000E+09	-4.74199882059E+01	1.10800649624E+02	1.86201098022E-01	9.32946407698E-01	1.13320028142E-01	3.88320506169E-01	-3.62786428241E+01	-8.19615687909E+01
1.44032000000E+09	-4.85455401175E+01	1.26266636039E+02	1.73479508367E-01	8.84365216648E-01	1.50420437406E-01	3.23846942080E-01	-3.76511414735E+01	-4.30439598736E+01
1.46031750000E+09	-4.85444541993E+01	1.56609979394E+02	1.60001819994E-01	8.57113619894E-01	1.86492123816E-01	4.16491222526E-01	-3.95953399859E+01	-1.14798868238E+00
1.48031500000E+09	-4.55785745938E+01	1.50997648985E+02	1.62366131158E-01	8.00513304830E-01	1.94970550292E-01	4.97641239198E-01	-4.48977581271E+01	4.05476783978E+01
1.50031250000E+09	-4.17376104182E+01	1.23830806977E+02	1.73796906487E-01	7.65578122816E-01	1.59733351424E-01	4.68618001412E-01	-5.90231475288E+01	1.35850634605E+02
1.52031000000E+09	-3.94870383406E+01	1.12143839977E+02	1.87274795386E-01	7.85024807546E-01	1.25715870356E-01	4.93653222823E-01	-4.76283676692E+01	-7.92367182600E+01
1.54030750000E+09	-3.96129080455E+01	1.02904022909E+02	1.96420768090E-01	8.86498488116E-01	1.42313107163E-01	5.23819155763E-01	-4.04649859931E+01	-2.68049130039E+01
1.56030500000E+09	-4.30990755856E+01	8.36009880573E+01	1.96450498096E-01	9.42825564734E-01	1.87944661308E-01	5.13773832318E-01	-3.60862477989E+01	7.58442109912E+00
1.58030250000E+09	-4.67285920976E+01	5.96167219283E+01	1.88343382518E-01	9.03887417468E-01	2.25948515631E-01	5.71256000638E-01	-3.40046414278E+01	3.38894831936E+01
1.60030000000E+09	-4.48636201286E+01	7.46304955998E+01	1.85665414545E-01	8.74416645831E-01	2.30027013951E-01	6.59664848073E-01	-3.37402492163E+01	5.83749542065E+01
1.62029750000E+09	-3.95636704881E+01	9.34454731162E+01	1.94664056639E-01	8.16615831874E-01	2.21145521888E-01	8.19948770503E-01	-3.42957326775E+01	8.53751059837E+01
1.64029500000E+09	-3.74211281494E+01	9.19678681672E+01	2.12155626861E-01	7.47570444425E-01	2.16031690567E-01	8.71557458063E-01	-3.60256494639E+01	1.11194049589E+02
1.66029250000E+09	-3.98791997538E+01	7.52171893663E+01	2.19536734724E-01	6.34098836017E-01	2.10012638794E-01	7.47286522587E-01	-3.96367289349E+01	1.35955543333E+02
1.68029000000E+09	-4.56134333379E+01	2.43663553229E+01	2.17014218236E-01	5.42996336250E-01	2.08721507111E-01	6.29273523130E-01	-4.75626245377E+01	1.34159274374E+02
1.70028750000E+09	-4.74244070132E+01	-5.03850670719E+01	2.16170304667E-01	5.71814519014E-01	2.17543305393E-01	6.60566495913E-01	-4.48118613768E+01	5.97869728534E+01
1.72028500000E+09	-4.56125546298E+01	-1.27340929257E+02	2.26291543880E-01	6.48172661332E-01	2.31563499981E-01	9.34511228979E-01	-3.73829318873E+01	7.64361283613E+01
1.74028250000E+09	-4.10887015781E+01	-1.57045792503E+02	2.54218866483E-01	6.37493090149E-01	2.50107921505E-01	1.24302232752E+00	-3.39936917223E+01	1.05309098526E+02
1.76028000000E+09	-4.03608329489E+01	-1.56070430846E+02	2.73735513916E-01	4.36138122923E-01	2.46824452360E-01	1.17230623395E+00	-3.24560213999E+01	1.31925590334E+02
1.78027750000E+09	-4.21785973721E+01	-1.29055957778E+02	2.68577596053E-01	2.64117070239E-01	2.10619217754E-01	8.64451249376E-01	-3.31341016577E+01	1.54038384812E+02
1.80027500000E+09	-4.10117686643E+01	-1.05859911100E+02	2.58078309107E-01	2.27493223962E-01	1.89951899292E-01	6.25987937266E-01	-3.54739566205E+01	1.75967043892E+02
1.82027250000E+09	-3.97188516133E+01	-1.25027105604E+02	2.56569504146E-01	3.54042843238E-01	2.08802842716E-01	5.93731888038E-01	-3.78502189193E+01	-1.73537064966E+02
1.84027000000E+09	-3.70406303417E+01	-1.64012382130E+02	2.70685397057E-01	4.24707333644E-01	2.52580862834E-01	4.75991367704E-01	-3.83970747523E+01	1.79146956192E+02
1.86026750000E+09	-3.59521526946E+01	1.68445376883E+02	2.71120888428E-01	3.15002411571E-01	2.51691580385E-01	1.67894653364E-01	-3.78101662093E+01	1.67703570531E+02
1.88026500000E+09	-3.84738182962E+01	1.56980880864E+02	2.59991838302E-01	2.16761806913E-01	2.10989375565E-01	1.19642872329E-01	-3.79363251520E+01	1.66314894558E+02
1.90026250000E+09	-4.34619405807E+01	1.53373007498E+02	2.61524373842E-01	1.14333600960E-01	1.96151547839E-01	2.23855832550E-01	-3.74673468746E+01	1.68205924231E+02
1.92026000000E+09	-4.82322454276E+01	1.52266434100E+02	2.71215157453E-01	6.64202107534E-02	1.79704148679E-01	2.14822141073E-01	-3.55800751895E+01	1.75852783591E+02
1.94025750000E+09	-4.79326693295E+01	1.42063099501E+02	2.72556084623E-01	-2.64180762863E-02	1.40073499194E-01	1.59262949060E-02	-3.43743389320E+01	-1.68721072803E+02
1.96025500000E+09	-4.71878901252E+01	1.38815135095E+02	2.51157381570E-01	-4.89379603850E-02	1.04369709487E-01	-2.51652397846E-01	-3.46552911843E+01	-1.43653295208E+02
1.98025250000E+09	-5.07252098404E+01	1.37135585168E+02	2.36058748604E-01	-4.96045649834E-02	1.13483702131E-01	-3.89817817390E-01	-3.54577668127E+01	-1.06962214123E+02
2.00025000000E+09	-5.44264163165E+01	6.51592116001E+00	2.36154102002E-01	-4.27217273831E-02	1.73133731864E-01	-3.96809109548E-01	-3.63478941024E+01	-6.98935447615E+01
2.02024750000E+09	-4.32307554190E+01	-1.60557579607E+01	2.48167676315E-01	-9.97053075236E-02	2.16877953714E-01	-2.79970766262E-01	-3.84407990760E+01	-4.22515656963E+01
2.04024500000E+09	-3.95698982710E+01	-1.37222642259E+01	2.51712325867E-01	-1.91171768024E-01	2.26111888489E-01	-2.00634836982E-01	-4.19428021663E+01	-3.46814057385E+01
2.06024250000E+09	-3.93432114203E+01	-3.49790986041E+00	2.49672922088E-01	-2.27932509697E-01	2.14279798369E-01	-1.97348654148E-01	-4.31604829529E+01	-5.93413995619E+01
2.08024000000E+09	-4.03739559062E+01	4.62806698393E+00	2.40540927715E-01	-2.34384403933E-01	2.15324618072E-01	-2.33986187737E-01	-4.02859389850E+01	-5.87285222304E+01
2.10023750000E+09	-4.10961805927E+01	-1.74272211361E+00	2.39636259045E-01	-2.58767706832E-01	2.30951597751E-01	-3.23307955771E-01	-3.74261925975E+01	-4.24821741873E+01
2.12023500000E+09	-4.01199827548E+01	-1.90076676224E+01	2.44598287202E-01	-2.96564578761E-01	2.48184713146E-01	-3.26479176836E-01	-3.55558037472E+01	-2.36666199290E+01
2.14023250000E+09	-3.94958566183E+01	-2.72344298520E+01	2.45068291870E-01	-3.12394523328E-01	2.56704129506E-01	-2.90351518520E-01	-3.49854720489E+01	-7.15136774077E+00
2.16023000000E+09	-4.13208684138E+01	-2.09552293617E+01	2.40299665613E-01	-2.16741523036E-01	2.68533768245E-01	-1.32817240667E-01	-3.47526742945E+01	1.25222928663E+01
2.18022750000E+09	-4.64752168175E+01	-1.20801083459E+01	2.30299414705E-01	-1.98839906431E-01	2.65668527492E-01	3.09498645581E-02	-3.51777899942E+01	3.22771440255E+01
2.20022500000E+09	-6.33225108225E+01	-2.86090771516E+01	2.17033029825E-01	-2.31667990921E-01	2.62838634725E-01	1.23928791959E-01	-3.62837486384E+01	4.91287962736E+01
2.22022250000E+09	-5.16428020768E+01	-1.40455192832E+02	2.01315288084E-01	-3.42056347714E-01	2.62962189190E-01	4.69422856140E-03	-3.81283447027E+01	4.84516350017E+01
2.24022000000E+09	-5.15928680385E+01	-1.57408696953E+02	1.95875213079E-01	-4.04329793485E-01	2.81117915150E-01	-1.50956152445E-01	-3.75535728385E+01	3.78456594142E+01
2.26021750000E+09	-4.82274134791E+01	1.24810280690E+02	1.95063517929E-01	-4.01531631201E-01	3.04320198013E-01	-1.90682246716E-01	-3.51602477643E+01	4.28368426908E+01
2.28021500000E+09	-4.06869391188E+01	1.08120025324E+02	1.93593248586E-01	-3.59293680169E-01	2.94326823344E-01	-1.26527516105E-01	-3.34505526024E+01	6.29761096666E+01
2.30021250000E+09	-3.74706402967E+01	1.09620940387E+02	1.90032292937E-01	-4.06118378740E-01	2.49684248173E-01	-5.05535791683E-02	-3.28758428797E+01	8.56252381113E+01
2.32021000000E+09	-3.72820190505E+01	1.12494018657E+02	1.75300857921E-01	-4.87873960818E-01	1.97166202054E-01	-1.22140885231E-01	-3.36200232310E+01	1.00899856731E+02
2.34020750000E+09	-3.78064208702E+01	1.10605419023E+02	1.63440657326E-01	-4.90136938242E-01	1.66382437787E-01	-3.06913330101E-01	-3.58576908513E+01	1.03886124083E+02
2.36020500000E+09	-3.76136359260E+01	1.04809608924E+02	1.59375893063E-01	-4.53713596666E-01	1.55182400494E-01	-3.54781516248E-01	-3.66207045422E+01	9.57673285766E+01
