!Created with skrf (http://scikit-rf.org).
# GHz S DB R 50.0 
!freq dBS11 angS11 dBS21 angS21 dBS12 angS12 dBS22 angS22
0.001 4.274362666964374 165.5313486470263 -2.901684339251638 -3.645721346608527 -0.010120334267277941 -4.295844477408196 -23.341819933184162 -152.97396459020143
0.082612244 -22.860165147421704 -119.0534597673503 -0.3873040453311926 -23.628700581997876 -0.22988320230748677 -24.817170283530718 -22.16612572500924 -114.9693237099888
0.164224489 -16.864886226704236 -98.54320408963031 0.3691984369029577 -50.7144708746921 0.8953407184720095 -46.98327399378351 -18.586533252288554 -97.97250891906411
0.245836734 -11.008741605588373 -158.27688034129284 0.7972206632372536 -73.75896221111611 -0.30210935893455526 -69.09723704723046 -12.20795332775743 -149.62191788750866
0.327448979 -8.402792385791848 163.91416536547538 -0.4379065046359031 -91.27394912812395 -0.8659046286330512 -92.64787323120166 -9.11133027612134 171.69295916425278
0.409061224 -7.1326726024176965 146.64810865969554 -0.37364879734421236 -119.11078894381093 -1.2743418513235103 -117.94868351498327 -8.65044695963305 145.39852498042046
0.490673469 -6.748980268660772 117.42760841669549 -1.1396717366995388 -154.36909930565938 -1.1574592825431762 -157.40788120387776 -7.666956010245194 108.89939615093017
0.572285714 -11.99610552760963 69.97365400426199 -0.6836113729438431 152.32623396802265 -1.3254738034738738 154.45705427727543 -12.409242703179878 66.30884630612461
0.653897959 -1.6435507961031357 119.79461820514412 -6.6259400575297605 38.738166272480846 -7.603099140343328 25.965669228171386 -1.1538400128719004 110.31237170142552
0.735510204 1.0831201656857024 52.74731742956305 -37.6928401644778 -15.974027078350217 -51.33494010884714 93.85658606349999 0.7526671153979076 64.44795022491711
0.817122448 0.6370736515553365 18.0209923993804 -23.47156523470996 -66.9294257321338 -23.287416466686444 -68.0845324303785 -0.25837170824890965 20.185380678367757
0.898734693 -0.5209695603914654 -2.917637587276651 -17.13724772986087 -84.82354912008118 -14.880859348255381 -89.03361532855358 -0.282948808436254 -3.527499536744518
0.980346938 -1.413277460935897 -23.9633637282483 -13.250159331565332 -106.86296331611295 -10.890098474065784 -116.17363516133284 -1.2679212642072466 -21.592716606774523
1.061959183 -1.95492638128026 -42.83838627352915 -9.949444602493617 -126.8346486247238 -8.453807131023884 -130.02254097315563 -2.1695129736613104 -39.69612449047314
1.143571428 -2.7330236924396463 -54.137287037237186 -6.907460427148955 -151.0995252442145 -7.70002294523702 -158.32502766611694 -2.5426424648434987 -65.07831652742867
1.225183673 -4.360876375043904 -78.16609707710566 -5.208837007316765 -177.6054914820463 -5.487452740226523 -179.66094174234811 -3.3991430460489203 -89.09327269521398
1.306795918 -6.953129341659667 -108.84315921183484 -2.9769094983406146 156.39291159487905 -4.022367350903084 158.15408649368473 -6.501054917019191 -110.09291993160899
1.388408163 -10.279766691385381 -130.92251586045745 -1.4345991329957006 133.382587290202 -1.4779685893536718 133.6372958587337 -11.150443876252377 -129.1497825041422
1.470020408 -19.966877236203292 -99.2458825763198 0.7259853153891292 108.36056906576638 0.28811583800586144 104.33944862591564 -27.037572862571793 -101.76047508065632
1.551632653 -12.407846003856626 -33.00820039527324 -0.45740692206239897 76.2730387551586 0.020389400069175147 78.13221812778389 -10.515634604632378 -23.395607644086024
1.633244897 -10.616912306555033 -57.83882631518652 -0.9045422863933007 46.24354898189486 -0.6812792999032395 41.58123044267024 -11.286058351829315 -52.6979567236412
1.714857142 -12.742871120461814 -83.81090765804262 -1.7690499964053654 22.25010012305093 -2.2200517166950604 19.038193261879254 -13.864736585990286 -70.73812458050712
1.796469387 -19.254730970656876 -123.83316895919121 -1.560933587187542 -13.484606771498987 -1.4056898067683377 -11.466025341886395 -17.328756641971932 -112.89727095487537
1.878081632 -35.457126761612535 -81.9696594601827 -2.3406353713955963 -56.30801075519327 -2.2679587928820495 -60.34333381462509 -22.54927348240255 -45.16718735967978
1.959693877 -8.541460586408164 -46.609497971479186 -3.8671921319620006 -129.72113712227366 -3.803624187580824 -126.58432082779824 -9.965281249577577 -54.55541579009764
2.041306122 -5.024796856468741 -40.66635617733813 -13.609021922555955 119.51175503942032 -13.586109934953491 113.54796459842827 -6.004867893276668 -57.648850358472885
2.122918367 -3.2358203322893075 -82.11566282958778 -58.38784846436995 177.74173550318767 -39.42200535774574 179.05673315531206 -4.474177306707971 -79.59037778841679
2.204530612 -3.17273649902549 -103.33315512795659 -33.103457278809124 153.91181408629944 -32.73855758643507 -161.55925700417325 -4.689681571057002 -95.73363859908189
2.286142857 -4.301904043110275 -126.92859371422468 -24.74106557489605 124.92974697780826 -22.855204485685814 127.28583913860491 -4.955562010588246 -130.91155673214215
2.367755102 -2.8816848352292523 -167.19129531478455 -14.180230962470954 123.51000559442816 -15.670881564653365 145.72176565515164 -2.7754738426326817 -154.04390725361634
2.449367346 -5.258802851268732 157.25118872098705 -4.57547845956103 61.62930808181446 -5.359869842729548 59.48539454202127 -7.784284002757663 167.0659092499539
2.530979591 -7.154981099889409 -132.33088052046617 -5.607705142674931 -0.8777565178694665 -2.9281121047911185 -1.6129077238608203 -10.554927498221893 -151.2786382639359
2.612591836 -7.9379257147596345 -137.38875619600037 -3.6911521433198917 -46.16776136908528 -5.807293596803098 -16.008409717842664 -6.08544001209682 -146.84748727922175
2.694204081 -5.055953315699298 -155.14926088092673 -1.2783753395395205 -75.94042885629183 -2.1277131251829635 -63.469073767216216 -8.199919969507995 -159.70365784266042
2.775816326 -6.1513874163813345 175.90958270818683 -4.510991372853131 -80.55540876973194 -3.4696871814526093 -88.03977546399508 -5.480761549081555 171.07349957578617
2.857428571 -8.671595099211373 169.02859813125136 -1.922892357056205 -104.91198284096347 2.8336954074619927 -110.70280200917026 -8.640220984952794 124.18808408616741
2.939040816 -12.767788913651776 140.3085744237918 -0.7820214002902998 -148.42340458223836 0.3160926648591705 -151.69722678081806 -15.32839499400215 115.11728982447075
3.020653061 -13.255351869505914 -133.83659824017386 -2.038721774303345 178.39655600326103 -2.822642806990387 -172.5877658962953 -13.902765974254157 -151.6629540258563
3.102265306 -8.625662386064858 -142.2143337720353 -2.9034432730882593 151.15032277657218 -2.6355973582676064 157.53757743619485 -9.574527409081906 -149.17332205789063
3.183877551 -8.953673794427727 174.7187634654595 -2.4227989258543428 112.54290426070185 -3.6542867319787713 122.07056288662697 -6.59879146332875 179.7043410756489
3.265489795 -11.046906157059041 141.7384866747102 -3.9751227556686803 81.06132091400028 -3.899248443942351 78.00169821602472 -9.258760696763908 150.4300976794986
3.34710204 -8.646588119959722 -160.06010819432527 -8.172974897621623 2.4959020619587537 -8.332302199244353 3.970756458843505 -7.426905089915337 -172.78914634935958
3.428714285 -2.275069678518004 176.8663804302727 -17.769661660808506 -27.522139421526244 -14.108215179434772 -31.31992530822122 -3.74574070927025 -178.84508742296012
3.51032653 -0.8658320590411289 170.6118089608418 -33.52091312079436 74.07285646618303 -20.585149066385185 90.68569853735059 -2.5272662068344247 -178.07984098476877
3.591938775 0.5665332935700457 145.2690112426695 -28.879790505710233 60.85480352477397 -15.783522868629644 175.18943865837286 2.9409807022245733 153.5472107972
3.67355102 -0.07958478170768347 84.92591676080397 -11.760448083386787 -66.16266731583754 -8.551948783242587 -57.921694622284086 1.3482596497700052 93.49189687922804
3.755163265 1.0963517523174007 85.41269994380818 -4.585097883047984 -164.1431001907269 -6.29382855578048 176.10549557058445 -3.4233556078030642 99.76116253785464
3.83677551 3.8262762766288807 40.14603333172399 1.8309144442800753 124.7007110723012 -4.3337606282668695 175.17866895696002 -2.5077298849207756 67.56363161718807
3.918387755 -4.441923121543231 122.38597572230763 2.305646418671749 128.78086667997712 -4.2704314666073016 108.3347907778479 -13.249340107947479 55.58434793118985
4.0 -8.317619228122801 101.78197536279382 -5.097380669397077 87.17640227834777 -1.4958785473268414 64.85022188105391 -11.143430702772385 48.88190203245998
