!Created with skrf (http://scikit-rf.org).
# GHz S DB R 50.0 
!freq dBS11 angS11 dBS21 angS21 dBS12 angS12 dBS22 angS22
0.001 18.8013955723071 169.8632298977428 6.597067843309738 121.5042672165512 -14.20394580443672 -5.937873202124478 -19.221164976090243 141.77479430012028
0.082612244 -22.236076621034073 -106.81119468474581 -0.3747174330433827 -23.795902755179764 -0.24224879277539013 -25.167391562091915 -21.728040365240098 -112.80507693539478
0.164224489 -16.70192523134603 -94.8918401194184 0.36582902325636996 -50.379523901219834 0.8383367197883668 -47.24507340416925 -19.12581963296145 -97.85158696851366
0.245836734 -10.804377823673697 -157.8518516008855 0.8105442381678131 -73.65526538428891 -0.3220190742465453 -68.83194556176066 -12.38066609076016 -150.74912353969418
0.327448979 -8.265582776485793 165.38898820941608 -0.5060332400568124 -91.17639657803984 -0.8690397422104104 -92.95687154142864 -9.468050863797234 172.13682397145692
0.409061224 -7.1099088380551905 145.73196154513167 -0.42235720302374297 -119.01558357210689 -1.345293168131704 -118.30859230025587 -8.511491550436265 145.0736658908239
0.490673469 -6.966963621372793 117.45869811829415 -1.0885106250316017 -154.23097338847816 -1.2289165750336903 -157.47619036501524 -7.406260116364994 109.07466479514096
0.572285714 -11.610276473070192 69.96208457401167 -0.7233937560439216 152.4084466560599 -1.4571559522221906 154.70809326707177 -12.206813135383804 59.691463325230515
0.653897959 -1.6397527236163578 120.30094212460081 -6.5664686220370285 38.719542639986535 -7.570828514484484 25.908061458472147 -1.1566102075131843 110.20843237041099
0.735510204 1.3189696845530063 53.7106743237149 -41.84017868420053 -8.370048643182244 -48.69076695357521 -158.2035906857279 0.6755362131542518 65.41947601896302
0.817122448 0.7361336530323014 19.220098853935795 -23.846838965303903 -74.80905047288726 -23.68485333333404 -71.5410504494208 -0.35991432574890403 22.49597486313933
0.898734693 -0.34105050789183183 -3.6274433140667064 -17.216912662497407 -85.18119224871387 -15.082759891211206 -91.4212171726839 -0.4625065319374052 -4.459558971588744
0.980346938 -1.5520963695011372 -23.422705718536886 -13.189321748687082 -106.97864975399074 -11.05107138601719 -113.28508627354917 -1.370079484692316 -20.540251287454105
1.061959183 -2.019851490551473 -42.71413664076497 -9.930285418204178 -127.44040288549286 -8.417117395702416 -130.09071226382326 -2.1863964612741063 -39.61043227734113
1.143571428 -2.808959049672613 -55.35910412518585 -6.701417298749483 -150.58639379443423 -7.698010852998434 -160.40465943273693 -2.6567246637084825 -63.30975388247364
1.225183673 -4.392228065280398 -78.58772212515285 -5.111203446728756 -177.1543918809295 -5.399580918117998 -179.9933335040089 -3.540723812170925 -86.4778646598333
1.306795918 -7.016418299613685 -109.8460436912602 -2.926351857606377 156.4707450807431 -4.302981907429794 158.0428010064757 -5.940581170470505 -109.91750265194509
1.388408163 -10.511935623105263 -131.91775059807733 -1.455889096304862 133.35749984085075 -1.5224479049373554 133.2562627956934 -12.101242123305294 -124.61164793707475
1.470020408 -18.374700572783485 -101.68327446905703 0.6782791339296503 108.69461293013592 0.2614753720357558 103.33380703238971 -26.761801710666234 -108.68838005425553
1.551632653 -11.86696860053426 -29.28939213935394 -0.5417413598253142 76.026131401614 0.033333362190547645 78.0588697391219 -10.2343517971112 -24.49552736672157
1.633244897 -10.17078788597116 -61.35080934271782 -0.880200141588371 46.15667956966152 -0.5886370495503692 41.42496993853314 -11.60605292925952 -54.11434549547259
1.714857142 -11.70314144548161 -77.82258835308131 -1.7817269446997932 21.817523926797186 -2.133823982299664 18.062761403103146 -14.251904115420604 -62.070813650897186
1.796469387 -17.257091589262775 -130.15046463225363 -1.580260314488767 -14.202945280061888 -1.4217475655402192 -13.572416967391092 -18.56389484648998 -94.74731368022377
1.878081632 -28.324062391726386 -121.85160343455631 -2.4631890109320063 -55.91991424729755 -2.40746173277923 -59.80489807105276 -23.88652290582705 -63.26274420591166
1.959693877 -9.212673846203096 -50.292288421934714 -3.8489371007585844 -129.1241533779039 -3.713434468735824 -128.35736284956215 -9.357188025920227 -50.14981110434004
2.041306122 -5.151051681840278 -40.92989212674627 -13.686656237016201 120.85255032899975 -13.686885051783221 115.18114784381314 -5.841290947056991 -59.14462935772651
2.122918367 -3.38404275022611 -81.55843060876482 -35.52915224346367 27.784231576482266 -37.80183641967212 -176.1003294682202 -4.293006791178015 -80.21738549845767
2.204530612 -3.873918906922345 -102.81066644069351 -30.989510599776835 147.26830623152483 -32.34262400798099 -144.53148450226493 -5.060771509346077 -94.64837752558188
2.286142857 -4.556533768833206 -126.20939897803285 -24.31358136946761 120.06452460636406 -23.917875107413153 134.678916637079 -4.698395979344127 -131.53298404885828
2.367755102 -2.6466003144785666 -175.7502954361925 -13.561307676515648 120.00579718299691 -16.21731367075707 134.5594372028003 -2.712007784969273 -147.9850661169456
2.449367346 -3.782838075255373 143.14632834900172 -4.5149134872312 61.102818569172854 -5.2681888306260225 60.54471567823621 -6.507863200486836 166.52944537158706
2.530979591 -6.911075990301753 -135.15351730089725 -5.492735937937713 -1.0703692341555953 -2.9727048264476394 -1.136088522307391 -10.361075492676836 -150.0795132952295
2.612591836 -8.657212058975695 -129.90396503846657 -3.6536518206143964 -46.420244622379556 -5.1217472519679355 -13.664391343050562 -4.048792755094766 -154.63240719419426
2.694204081 -4.0112809248521115 -143.55333827113552 -1.1922340215541605 -76.67814031271975 -1.6462885937482339 -64.06571877478206 -8.946115569850816 -149.4950777334181
2.775816326 -5.9896798651529775 172.1240634156802 -4.356401968150516 -80.6923263350072 -3.9051490583657222 -88.18730577510037 -5.954698611820857 175.94982875076897
2.857428571 -6.680496919662301 161.54738286958042 -1.291588471640022 -104.13989064259381 3.269930225496581 -108.26735618109036 -8.01338155129445 129.0984655584119
2.939040816 -12.051362161220492 119.36620389427708 -0.4058717635395862 -149.18230784342694 -0.1907151729537165 -152.17526265189892 -20.111858354885864 121.96645763907019
3.020653061 -11.70111170171279 -122.99513697329577 -2.3819914877278676 178.62849702492554 -3.0141744741481262 -171.8866907505562 -13.176244896074019 -145.34378616331068
3.102265306 -7.582348803817933 -141.20377802493417 -2.970579213974112 152.0095596796676 -2.4971606197423983 158.07740248483663 -9.5630557779551 -150.0510139458913
3.183877551 -9.269587801122857 175.31277397896696 -2.4542430230900987 113.05877694966168 -3.4268664609758073 122.42748401834673 -6.674851269154836 171.62730401729087
3.265489795 -12.68990729539954 148.8580993914605 -4.097194574912444 78.23523830176813 -3.7322502859576567 75.60234443812725 -9.547880552967804 140.55794155968698
3.34710204 -8.392641416432472 -158.93824800000314 -8.193511212319684 1.1874914218504422 -8.255288741588279 5.168601744087243 -8.200261520605888 -168.524428400878
3.428714285 -2.3913164487456124 169.08817318916527 -18.218109749411486 -21.706793891364132 -13.99229888502391 -28.453736529921077 -2.6651229191832897 -170.89587146190038
3.51032653 -0.68225128235997 170.96504456122312 -32.821230520902944 17.76926240518557 -20.357864951454985 98.01040306271881 -2.4615935563493387 -178.931786915653
3.591938775 0.20054293598963957 142.7954368752712 -28.371458543554247 81.37628615324475 -16.324483584204977 175.2876658046076 2.313696814490716 153.0193690485784
3.67355102 -0.29907780511141924 86.81486840332401 -11.999586596353664 -66.75306155629237 -8.512316142534562 -57.08104698879984 1.6477745630109202 94.84543487667075
3.755163265 0.9583668099917165 85.66744348212666 -3.9679062105786174 -164.49588946021245 -5.680239014288585 176.94062888518332 -1.7528948695975097 102.03059931676015
3.83677551 4.101751140225314 35.99988122223592 2.4980972603742115 117.99472688879118 -4.675457196328253 -176.39373847458518 -3.039598491834406 75.75687649428265
3.918387755 -3.126831503325484 120.07069062122606 2.50956789203659 128.46917797812478 -4.708769526868906 110.78259221371724 -17.56942145972741 45.84820730496672
4.0 -7.326072803927887 112.40062938280734 -5.407255875381631 93.93470675757729 -1.751916596636488 69.69914645253202 -14.186404810151295 49.39453008807906
