!Created with skrf (http://scikit-rf.org).
# GHz S DB R 50.0 
!freq dBS11 angS11 dBS21 angS21 dBS12 angS12 dBS22 angS22
0.001 -5.103981533397345 -178.92660978052214 -11.01338028869073 61.43246049343401 -9.3249684128541 -52.42456739908503 -38.13343618464569 -141.92465573999033
0.082612244 -21.58536559979307 -107.31724216721791 -0.3791567681492814 -23.856285742379523 -0.24902355525846245 -24.93970552114294 -22.59213694483606 -118.81907694976817
0.164224489 -17.10740074397862 -93.40044660689233 0.3514121669221993 -50.28444253180077 0.7720087105472235 -47.16994759837873 -19.397559011847743 -99.14011448822036
0.245836734 -10.903051497322895 -160.28842100625346 0.8239230521402257 -73.20542321138932 -0.37416826557330835 -68.44957217557464 -12.459887600719654 -150.58424309930533
0.327448979 -8.110476248898154 165.93803658524683 -0.5193767111568253 -90.7553187309938 -0.8577270335876165 -91.64521566221795 -8.660841734740451 173.48716013025998
0.409061224 -6.888712056677624 144.30349876834993 -0.40707757836737457 -118.52331120236965 -1.3116966779143249 -118.41809396689852 -8.815661564223236 147.53078256173026
0.490673469 -6.75368536995598 117.20417447882951 -1.1401919945057428 -154.54305012290502 -1.2124466364589002 -157.29701044110786 -8.016653784374007 112.99516883084533
0.572285714 -11.858267297150107 71.1964176047444 -0.6496865939533508 152.38979328665843 -1.3537103495930998 154.36396108574425 -11.713303598015777 64.69823476868201
0.653897959 -1.7818822103273932 120.19242614329208 -6.60191286565248 38.52816141210698 -7.442468653729626 26.05227026405542 -1.0867546015455667 111.61759591287047
0.735510204 1.316426457000994 54.592625957929165 -40.421095865501925 -29.964873235214068 -46.24430360389692 38.549301018218365 0.8060436660590704 65.1463666621092
0.817122448 0.49369370221494957 18.838665992765353 -23.303721102030188 -70.46510179686044 -23.539672082392737 -72.97992155081677 0.05392332346139886 21.467884782222896
0.898734693 -0.429315272187075 -4.001666499597389 -17.260184870360252 -85.3005823206377 -14.666642961124719 -87.7107333195952 -0.3339957809506502 -3.111335796155369
0.980346938 -1.4868732872754515 -22.570484760799165 -13.185852677037612 -107.70256591167151 -10.958982582005007 -114.85498691024243 -1.3450186058244462 -20.766159585343576
1.061959183 -1.872706750964673 -43.080604445517174 -9.794267738749792 -126.28662536630603 -8.6283019931137 -129.15163134010635 -2.1673712953553808 -39.63039440501109
1.143571428 -2.9169867835575074 -55.700062082456974 -6.748242116699215 -151.36979245639031 -7.740287019926299 -159.435470786154 -2.8450863087108287 -65.21163860136463
1.225183673 -4.33247821652881 -80.11756869774668 -5.21874352837549 -176.97391050396712 -5.470133597105527 -179.7431290880401 -3.9621941392199207 -89.40145217611887
1.306795918 -6.893428447851354 -109.64625078054561 -2.9554033319576196 156.29805195935938 -4.171505717423396 158.6092113229807 -6.440454125689305 -110.72113518902188
1.388408163 -10.12706010255017 -128.09529100120253 -1.4641664205536553 133.83840724903033 -1.4972011090951318 133.42370581076977 -11.033670985849273 -125.82427962970172
1.470020408 -17.969861518152467 -103.28378405515852 0.7318619166467175 108.95263039232847 0.30387818316728954 102.69699645418699 -25.40717347985561 -59.34705807309087
1.551632653 -12.68283667443631 -33.03192831137865 -0.4455895279706703 76.55571275013898 0.018335556276535138 78.44070079713522 -10.27260464342315 -26.60699338615344
1.633244897 -10.525262150456975 -57.443259142468726 -0.9074016159938527 46.14767961641688 -0.5889540981852441 41.483329466244115 -13.030482023812656 -50.76540592455425
1.714857142 -12.09131869630564 -79.29432926680437 -1.675127914146449 22.033958919953086 -2.236757996444223 18.65771409334071 -14.32438312539163 -68.09019473569936
1.796469387 -17.32150937250947 -133.66533561745533 -1.7503180229756807 -13.410709702118975 -1.572434329136847 -11.89957333841973 -15.635074005155506 -105.83082163118641
1.878081632 -41.23736718084379 -49.383312394678526 -2.4056693017623365 -56.27772435975939 -2.1946561493294454 -59.059904001225 -22.019020741048408 -59.48016421719392
1.959693877 -9.544501483255113 -40.869470136244125 -3.7688249173549178 -129.0217931070406 -3.5659425586496356 -128.43306098903014 -10.428270959793146 -47.1672555153996
2.041306122 -5.649573308462416 -42.77588826506281 -13.498285507551344 119.12522304104296 -13.88337173223194 113.60970252736318 -5.75702010453003 -59.20446995510098
2.122918367 -3.2565773343761513 -80.36549847315273 -42.40479132257959 -73.92754059318433 -41.50440014592932 152.40955674491406 -4.036791690448448 -79.48636413491164
2.204530612 -3.4307343225069706 -99.5784263537432 -30.740089989119493 141.85489022988065 -34.21231833602721 -177.67229144416513 -4.773447130482533 -97.04037768650183
2.286142857 -4.4257399954132435 -126.35064312260313 -23.752142783160476 126.88881199899976 -23.54854477053635 134.50871586231165 -4.763963732945388 -131.9388680745832
2.367755102 -4.382772146915955 -169.42444675034426 -13.09613675138403 123.5772063245119 -15.741073855037687 144.19347241255903 -1.8330993253782677 -155.3651410282126
2.449367346 -4.758012837528108 149.96990288361815 -4.665355396026862 60.79358953573018 -5.261744995884763 60.57603909613476 -6.793516106558387 164.2127317124309
2.530979591 -7.108146408511491 -126.26571455580695 -5.635930156757584 -1.1845571663634924 -2.867179637662663 -1.6478239478035923 -10.112699168879411 -152.26613579665977
2.612591836 -8.022336301098225 -137.22617574829744 -3.7343040619313914 -46.71578490878586 -4.623391667796339 -17.324474644073135 -5.306838145757316 -161.06843152190768
2.694204081 -4.102699263997293 -143.85902600918098 -1.9187931623760923 -76.56508451439774 -2.02779602734598 -64.9341757036663 -6.891407078635656 -157.59130517922736
2.775816326 -6.627662922816632 170.49534167877306 -4.21038930660359 -83.5438401492813 -3.6948652110191005 -92.37960522863786 -7.358317865576956 168.78880008019095
2.857428571 -8.073638647607051 156.057503156907 -1.100711730169817 -105.47107284224222 2.8424063300844296 -102.46772817024518 -7.384312826946781 149.70252972482064
2.939040816 -14.67880011480986 125.96710859243233 -0.7316989893296462 -150.35761718663585 0.03315545612394667 -151.07482175508466 -16.490613480219803 132.94006076788526
3.020653061 -13.220427892116044 -134.7433470044423 -2.2207985606381615 179.04882742275586 -3.066707665194282 -174.21551333358585 -14.761488124981721 -142.14643283246926
3.102265306 -7.982505286105585 -140.05163549967398 -2.897468318082574 152.85168779987845 -2.4666734549421556 156.59330712968182 -9.681165625249351 -146.79850298911504
3.183877551 -9.68686316989999 178.90211165707697 -2.306094225452617 112.34662511681461 -3.3652877077684353 121.36667781267994 -7.325452221949841 178.54798551050737
3.265489795 -11.410548902276824 140.8494314618089 -3.869628608588828 80.5649940249011 -3.638707318592877 78.7613520423924 -8.603514721418827 146.8528580462214
3.34710204 -9.187857057185996 -163.50629050142513 -8.258835395068566 -1.5566702283102354 -8.613559326229785 2.6885449447746583 -8.36351639957575 -172.25807183061482
3.428714285 -2.276216338639457 175.72530307505582 -17.723475304284616 -13.24493289952999 -14.499029125886098 -33.503909651834924 -3.5995503470926833 -170.85789324652734
3.51032653 -0.7004387842838565 171.8403673073701 -32.117999516191325 37.075786686186156 -19.207307376544577 87.84421598478754 -2.5147363428019185 178.13709817388562
3.591938775 0.7942289264885866 146.63907046631883 -26.40980882871959 50.99537774371637 -14.994833386559849 173.67285936784373 2.2126376322321026 151.79586090827607
3.67355102 0.13248090432342427 85.4883427081803 -11.91169480161169 -64.68023513776107 -8.455749917024892 -58.0161248267437 1.5615904506266611 94.74367268118763
3.755163265 1.7566125451923797 84.48741589537654 -3.6268885007005087 -165.728419835993 -4.814402410324267 175.99831097566667 -1.3699021204133324 101.92877173937752
3.83677551 3.773046978336758 41.844097385623165 2.305614850750803 126.21684260723283 -4.088944000505833 177.45599886070758 -3.5555821017474054 71.50988375774773
3.918387755 -5.537675606352481 122.14151652501833 1.8620094129292446 125.9620706727659 -4.182151200073501 112.13736711295893 -18.685614112770956 49.685338569851034
4.0 -7.243863634365156 110.24613738677857 -4.895929866502597 92.37472787315741 -1.0817967020117567 67.60068795267921 -10.737982832394263 59.36283830956761
