!Created with skrf (http://scikit-rf.org).
# GHz S DB R 50.0 
!freq dBS11 angS11 dBS21 angS21 dBS12 angS12 dBS22 angS22
0.001 -3.626625137450876 -164.69557398317136 -12.037959291608624 23.845758626388427 -3.6237862665853693 -14.685384700627521 -26.610784739592795 143.90693694283186
0.082612244 -21.70605884246602 -113.05597919348568 -0.3661312167200096 -23.849168510463908 -0.2666232449333846 -25.29063856220493 -21.401805930072264 -114.40296829197884
0.164224489 -16.737194105106134 -97.18574299344523 0.35286987043668205 -50.44698472916983 0.7974874711301282 -46.84151924646393 -19.428107671362174 -97.55727919845219
0.245836734 -10.860694390155327 -160.50521333360112 0.781609052324238 -73.95365864396148 -0.345033257275177 -68.994733217923 -12.040507251540745 -148.73237745712467
0.327448979 -8.32438099189448 166.12484645497636 -0.5172661583450948 -91.10458070946716 -0.9323869511578596 -92.78529763371633 -9.24094713465026 173.7489246403088
0.409061224 -7.184040905161986 146.18293361011138 -0.4191041772699316 -119.02757840356554 -1.4157735291847282 -118.40652536627636 -8.368771432045985 143.8389823909406
0.490673469 -6.882036864082924 117.66484490676828 -1.102249374209466 -153.7959890212735 -1.1391647598213575 -157.5713536786477 -7.63356695383175 107.70361830642001
0.572285714 -11.822895756937422 72.3732802933428 -0.6793475515012203 151.99487872115526 -1.3012986379817217 154.55724148003884 -12.048551182314686 66.04741812517821
0.653897959 -1.6473652697501826 120.55019606434175 -6.58347401696039 38.41037063822251 -7.51979244244208 25.873259889838135 -1.046729367165797 110.68454441194646
0.735510204 1.4017618152351616 52.49012207139809 -41.48524803184013 -27.741960320699977 -43.31243611580184 -48.80543046547558 0.6659129325579192 64.35177008140703
0.817122448 0.619902320893465 19.55397968061857 -24.447508229648513 -70.17152702859923 -23.990998716612 -67.9320554352253 -0.1864800252635202 22.03157763058632
0.898734693 -0.483095924269736 -3.652526562949243 -17.124908499009166 -84.99380356233642 -14.573177284149805 -89.10688747376012 -0.4280478095368432 -3.9228246065482484
0.980346938 -1.4447302620538145 -23.945909528218706 -13.42487805751308 -107.24714789759665 -10.925579305025739 -114.54668495607602 -1.1447957701066935 -21.197662709484828
1.061959183 -1.9456723561517422 -42.71049644859946 -9.950352244983144 -126.1431242405613 -8.64870636402893 -130.05365284592096 -1.9702903080912695 -39.728612621696676
1.143571428 -2.84772093795341 -54.669215710292804 -6.772994811409401 -150.24911998552915 -7.900727090746631 -160.0272922050647 -2.4169408289896794 -63.66743352168764
1.225183673 -4.510505554360029 -78.67506963228713 -5.2453883932232825 -177.21236194495486 -5.459678458848956 -179.90197336692128 -3.4123377920874227 -90.4218033452815
1.306795918 -7.020730927581008 -110.86592230468942 -2.902443345784973 156.504999133941 -4.202587568186397 158.24625534514036 -6.5381760025651765 -109.87365518827843
1.388408163 -10.58223243774675 -133.79967939172104 -1.3397959091090477 133.69506233362455 -1.5058114244859255 133.4783595133171 -11.29352511590302 -127.69655432498786
1.470020408 -19.538129997945628 -105.3066432575617 0.735930589737397 108.66655545563454 0.2871368580081431 102.88342882127169 -30.72666153490269 -76.43740318209133
1.551632653 -13.333902654790341 -25.43492288433984 -0.3710758990524522 76.25101190776203 0.0013885855192778652 77.73436826034587 -10.108314121529652 -24.727864791837714
1.633244897 -10.397336493628096 -60.439458409439894 -0.9388007322795897 46.11328912474882 -0.5185162052086074 41.747154633766826 -11.760479357200396 -47.89662882489532
1.714857142 -11.697764140344127 -80.23622890492298 -1.771711313300255 21.408760130940784 -2.2898445500247107 18.536409814162383 -12.919641553198078 -72.6878814380307
1.796469387 -18.146058205849087 -124.47620753284396 -1.7282962768624823 -13.33533712932645 -1.6605180372021264 -11.681929838707342 -15.46161953107859 -110.55374757257424
1.878081632 -30.657678483739865 157.59861169138097 -2.367579261467381 -55.70525442708263 -2.1443049882974834 -60.387066289270976 -23.91375935102351 -43.97688290877461
1.959693877 -9.358899260728737 -49.901831705815255 -3.67912032761415 -128.6394759098311 -3.7428924365701075 -128.3209520407085 -10.24236901413783 -51.66876366528632
2.041306122 -5.2861151237848105 -37.10750646740434 -13.413965184771774 117.90155267806848 -13.789136500498227 116.51491414587088 -6.0056836886057265 -57.29814331400429
2.122918367 -3.524106654383749 -80.82609057897724 -46.063424495033715 -16.672265685781504 -37.56717575990162 95.46788179743635 -4.084107264812057 -80.14950696618537
2.204530612 -3.307699820958285 -102.90716830865925 -30.110451667009556 143.90756920054244 -32.95832292519343 -163.04219416501095 -5.185307932494014 -96.80214618311378
2.286142857 -4.268343422873623 -125.42439114522297 -23.868861193873585 126.76205655888062 -23.665773824841946 129.63347686660165 -4.717297689402212 -131.02970622060644
2.367755102 -4.220057970767325 -169.21281530122457 -13.550440877790063 129.27955482728692 -14.326360137081203 136.5139897187047 -2.5750911776067036 -150.01521802768175
2.449367346 -3.4610144287113975 144.84215822927345 -4.551661083164023 60.96496648596091 -5.554665966601795 59.31805215477836 -7.624701101849975 167.97533428345076
2.530979591 -9.237811342092623 -136.67123867491702 -5.322790421306836 -0.3445911711621163 -3.0213725907300253 -3.1686691609048996 -10.63966403762986 -143.4067317820894
2.612591836 -7.301669568288388 -137.61109195650874 -3.458373785908486 -45.364108681510956 -5.3149070989474945 -18.175414351029403 -5.000755144611713 -148.1978767736122
2.694204081 -5.323453416718556 -148.19947511825936 -1.177540485658851 -73.64545063995506 -1.9071239275730292 -64.51106663966861 -10.42669343094551 -162.74054997557246
2.775816326 -5.869199840574314 171.69258893442358 -4.319244925695365 -79.76064952027534 -3.527227852058228 -85.24259052516022 -5.160317016039736 174.00533920473612
2.857428571 -6.359718851568608 146.92390723435363 -0.9136860298431662 -104.74477958383055 2.1219508516332297 -109.0298789731335 -11.670850957602674 136.97068166348447
2.939040816 -11.96477507247041 128.68078725506973 -0.510944242567489 -148.3894692696246 0.04340794299183183 -153.12200389588932 -15.881897103785963 98.87779048487167
3.020653061 -12.608376389807248 -130.0807202114812 -2.2880200370200128 178.65307514777308 -3.3442992961783977 -176.14577635791625 -15.35851460489316 -128.42694587885785
3.102265306 -8.43315925829029 -142.72822930644477 -2.9443946194735773 151.87650914061533 -2.448930172309735 158.55677314675538 -9.67488073813275 -146.4433942728803
3.183877551 -8.856810766111332 176.85331329527668 -2.320896820154458 112.99578271588659 -3.523745857098208 122.05385076324299 -7.032709643657215 177.79754831297208
3.265489795 -13.0651280230987 139.07632676858697 -4.05738642521832 77.47464900524967 -3.990791426358305 73.4205915689987 -10.871612974807727 141.81874098638545
3.34710204 -8.291635123635839 -165.36446894708635 -7.720145137851905 3.3779646616067587 -8.355909200939266 5.610439508644509 -7.318371260858909 -166.8637001266249
3.428714285 -1.7367972662132303 174.58986918045005 -18.149376030792123 -23.20393912644638 -14.602914156643013 -26.76911730641681 -2.668569151965851 -168.71225640398413
3.51032653 -0.3929612015757971 171.43999273303191 -40.31370463941602 17.794477893519556 -19.396875526359015 86.80412766561811 -2.0585643095713118 175.72758721046424
3.591938775 0.4840574746673864 145.2665763250722 -29.95360000645337 91.23796321984891 -16.953985270698098 164.73070484216097 1.8445920784399372 148.849300649059
3.67355102 0.003597594102606534 87.22029167019484 -12.011704105391882 -65.36161938709817 -8.792921991019792 -55.66234701728659 1.6096978927558838 94.56893201476514
3.755163265 2.366354376775717 86.8935301522064 -3.5048337447543965 -165.01815413769904 -5.147073145277883 178.009188937066 -2.173701064849553 100.46595918960621
3.83677551 2.9907853686745085 42.19325723682129 2.390114174613345 133.66789010445547 -5.640676811277706 -176.05841510100356 -8.765017530996888 78.16895409827296
3.918387755 -3.8658977785255577 127.2521464998098 2.115357885642231 130.5403303120089 -4.56313833768453 107.9347554714319 -12.132617944046151 29.408704703172013
4.0 -6.717148301116502 112.33582192757162 -5.2951160719132995 96.48316301654752 -1.9617174863748628 70.55736773341634 -18.250883223896107 63.30475598599089
