!Created with skrf (http://scikit-rf.org).
# GHz S DB R 50.0 
!freq dBS11 angS11 dBS21 angS21 dBS12 angS12 dBS22 angS22
0.001 -12.105621514061855 -179.13870731576304 -3.5546653463881315 111.54959209975819 1.393653286325036 -135.6523121558154 12.961744776549667 -148.95032607255735
0.082612244 -6.28586901845734 162.89131965726588 -6.066212586576682 -11.132152664027522 -5.993597936097489 -11.07553036300075 -6.458388839627817 169.0895286540914
0.164224489 -6.193122790001066 139.86975214106351 -6.198369027375903 -25.783041347996246 -5.760413914702469 -26.758875711768297 -6.024247337897171 150.535699769394
0.245836734 -6.279573165835945 128.1056766618307 -5.077521353746219 -37.77739649099139 -5.234984601610385 -35.11927668191987 -6.119450559232527 142.7061650529226
0.327448979 -6.883851612710579 109.10535651799132 -4.939828660885609 -48.67719818016284 -5.090533147563078 -44.36818648897031 -5.843762923153852 125.92337450617703
0.409061224 -7.6477482326282615 75.97172581123593 -5.057876665564756 -64.99578601252905 -4.650750585186717 -58.30733335052146 -5.560073616584118 105.22258289929746
0.490673469 -9.000775709595324 51.51695275302233 -4.309268871446036 -80.33139460901117 -4.681845960846193 -73.38820616907924 -5.7442287286141624 90.2148925228851
0.572285714 -10.665011228079733 26.146819425640647 -4.44463371955999 -94.62049757623656 -4.988825029160399 -87.70101768194652 -5.358849811845595 70.42381869066247
0.653897959 -16.71354650493267 -24.994973833360085 -3.792877731335901 -113.53614973318463 -4.094739304044747 -119.09979671184547 -4.7959751380712214 42.1933096385894
0.735510204 -18.520759715217515 -66.33749941677695 -7.282442534798774 -131.7026422338292 -6.459077408639146 -143.13669377792203 -5.182155860890698 10.063317166216764
0.817122448 -18.853447811611662 -168.80188200762606 -9.824725818861229 -134.76421826330764 -9.484298942707866 -147.71195941813173 -4.296994791725982 -23.402829912826405
0.898734693 -18.85198650359427 97.66600811560573 -10.703299779777568 -128.4838089643472 -10.489238167518199 -134.69611427574907 -4.405994200824889 -44.307749704984474
0.980346938 -13.508542836357599 32.99845225557844 -8.287205407294579 -124.78976824934004 -8.327103466392717 -134.33204637320148 -6.073523528779374 -59.50537308483666
1.061959183 -11.75869469369481 9.163356720482284 -5.684397953676513 -141.55876421738756 -6.045805726027652 -142.46706889639842 -10.608432634804876 -78.69608974895618
1.143571428 -13.783184708780299 -19.95233043479352 -4.135964303393545 -166.10205688521094 -4.366334297018706 -162.43373307934658 -11.684521224103651 -121.74833962651842
1.225183673 -18.027123746232267 -50.34911271629817 -4.867130578666987 173.05715211763206 -4.747061948295356 178.39647281507854 -10.98977914300264 -138.38774776391028
1.306795918 -15.829995847962762 -92.85025148100095 -4.791714917986333 158.65596422652928 -4.112346013687904 166.59913746126986 -13.021339552411721 -132.74479137815692
1.388408163 -15.168319254471758 -121.77353097655623 -4.175851267087106 139.0442447545789 -3.8736004402843975 148.85319359595104 -13.418633947186576 -143.25871122955144
1.470020408 -13.486354742214452 -131.96802174189807 -4.482946098714114 121.00568947117657 -5.082812922795425 120.70170275400557 -16.17220223054796 -130.81375012409453
1.551632653 -17.985920013038047 -160.54952343477683 -3.2989917574438232 107.99173946500775 -3.936878178201659 113.02992532180599 -15.882229547471397 -158.1329378323983
1.633244897 -17.349823038970655 140.50867797989787 -3.779139182674794 79.24030486329343 -3.5880910919338422 79.96893001174115 -13.088851973419631 176.33890389737383
1.714857142 -15.575003480767627 95.7749907813325 -4.599195487899441 63.95985906586481 -5.297923103402309 63.625521951119076 -11.114752347148475 136.3546047423353
1.796469387 -12.433373175525386 68.57701586776682 -6.785760644184795 41.84770273942996 -6.768817297826798 52.40606634542201 -6.865594183766872 141.69961798971752
1.878081632 -17.66998307007546 60.21246295183261 -9.87966497659171 28.47531000003815 -8.077706025790452 38.021094699975556 -6.346487969228331 120.11425157950192
1.959693877 -25.9665236511819 107.96064480839136 -14.885964466847032 33.609697622226555 -12.880591435461444 41.46813174309387 -4.772786381287522 85.12954492842184
2.041306122 -17.341652229358402 -166.77364565304325 -13.166927612343828 71.80585654624825 -10.809108490764036 53.16494437957322 -4.904666292625748 57.260152783176814
2.122918367 -16.520428565330608 127.6965119331943 -10.836271823157833 49.23122912367075 -8.746597694534088 40.86124593699173 -4.685900800136473 29.080097328658198
2.204530612 -11.651708010528203 106.07584186050984 -8.746858184742887 41.40924403113312 -9.549755479826157 28.28117775383264 -5.385729271983557 1.8177374187642545
2.286142857 -9.501335328334974 37.0682575234195 -8.115989762961984 22.84195424508062 -9.936213224849883 24.64053053537095 -7.316676554162949 -24.21308275118263
2.367755102 -7.623157271499361 32.946242218942366 -8.010692588018166 8.886633533242764 -9.644560383591687 9.940103160179676 -8.159813722835409 -39.369496917492995
2.449367346 -6.408843338738846 16.47417787392727 -6.532802729293634 0.225768716305042 -10.55063094452972 -1.6810459915496343 -9.164179175410126 -52.42969527018486
2.530979591 -7.636713811889285 -0.22860929568094507 -7.478896128396155 -24.615351364250717 -6.888963347239735 -11.900381419148085 -9.471137156680065 -48.3918065642836
2.612591836 -11.875615297591253 2.444146186255139 -8.364545769995201 -48.20086824586058 -7.6289682207663025 -36.431463308098685 -13.476155203520957 -68.58374541668573
2.694204081 -17.14935170477619 -34.402473555713165 -8.026645740356312 -49.092302943896144 -7.806326473287822 -34.514727468511786 -17.15280771927037 -163.00321252404754
2.775816326 -11.631078649870897 -83.66966216561879 -7.334418195117588 -67.7954028746896 -7.193928263601126 -45.18694957195408 -12.262415610471821 -154.379188275459
2.857428571 -11.492462437376982 -88.43013529468577 -10.94522340635958 -75.12778434500422 -9.895884791113511 -67.9297066510687 -20.72263031459048 -169.0836828641708
2.939040816 -9.363590331978779 -77.01619378013686 -8.235278539125604 -61.88635952214155 -10.116744015147292 -51.633977427280065 -13.723000295366536 -78.94263628355482
3.020653061 -9.570724257769623 -90.86617137598284 -6.635741365328776 -75.12293555044572 -8.398069517942554 -79.19744631774564 -14.122573015501843 -94.4671826630282
3.102265306 -28.34116419719292 -52.80837579173231 -5.7038542303504505 -86.85238869799348 -5.370943937282703 -104.12163957532896 -15.965248452141854 -97.13249762106545
3.183877551 -18.34188591606801 153.49800772960575 -4.543228890500831 -100.19598938730304 -4.120799319989274 -99.84063293699565 -18.261595435988845 166.9526500102479
3.265489795 -14.52698619583894 165.67101473147218 -4.641426886043558 -126.80445196577138 -5.046608152322776 -128.80634490210568 -15.683678721139945 179.5889407241707
3.34710204 -12.803210981543643 160.2590512581457 -4.101588330656311 -135.7042661005548 -2.40405149406583 -148.64414975536013 -10.429233142267915 152.8081288450855
3.428714285 -14.889820392711105 173.39318574702355 -4.243915856030156 -155.14390590949267 -2.574383274548916 -145.52000921263087 -16.1533568162096 157.34886601071597
3.51032653 -15.371715378568735 -156.37261754113806 -4.581833402394903 -176.9679658005748 -3.826622430096543 -173.4493414107189 -12.205256966952723 157.86081490724928
3.591938775 -20.7384263816618 167.11617319753688 -4.042473422140109 156.3217335927746 -1.7959506533628387 164.49792830589485 -7.2031173923116265 136.58373980305134
3.67355102 -20.287404337486485 163.71977377944356 -5.911052946466554 149.84875018267394 -6.067312214301141 149.10912013774472 -5.8145885199393526 73.49021775900084
3.755163265 -12.52587305269153 108.3727149189032 -6.921129823306467 154.0866593535388 -8.490432101301227 120.38558135733427 -7.289664093303458 12.37899128296858
3.83677551 -8.57069643492144 90.89479344458141 -2.5471080110922295 139.60321648290392 -4.631993561684856 127.45745276541858 -11.560379188742198 -46.04688226669989
3.918387755 -10.959043629947516 93.38829461377077 -1.1911848526926252 122.46594961425794 -6.736976182123927 128.1193887413123 -13.743778375605514 -60.24124724719815
4.0 -7.01950541950934 59.8586305614655 -3.990723302162569 89.57735568758555 -2.004993337027425 93.11584511931487 -15.475441703311251 -87.06956557655666
