!Created with skrf (http://scikit-rf.org).
# GHz S DB R 50.0 
!freq dBS11 angS11 dBS21 angS21 dBS12 angS12 dBS22 angS22
0.001 -13.541449938139088 56.311618237497576 -3.0837070823485706 28.784538542066517 -7.20407407915279 -18.826566345095298 -28.26054839089032 146.8679723350358
0.082612244 -21.97522674368323 -111.63757615642218 -0.38554322402681523 -23.664125446573397 -0.25638647213050253 -24.946625483625024 -22.94030832923356 -117.13517391572023
0.164224489 -17.10860119349747 -95.39656183402954 0.2994466374996222 -50.35837015009474 0.7560768071845867 -46.855607119666395 -19.617922315373814 -100.02142654427617
0.245836734 -10.69505218844532 -157.12604379133387 0.7728521067523053 -73.99831617050238 -0.3095613136788768 -69.06998037891552 -12.295502325868021 -150.33434119369699
0.327448979 -8.249885573811515 166.6608255135521 -0.5325673937683341 -90.80580748473466 -0.9078177741936408 -92.13684371972525 -8.920472255717769 171.63123942512652
0.409061224 -7.547638255359395 148.8596354640405 -0.44957795958935776 -118.44136093604223 -1.34245215668234 -117.47330378080807 -8.68323826805949 143.36061609663793
0.490673469 -6.815866842423329 117.81557781906145 -1.1211113614655253 -154.43622160527073 -1.207263756175737 -157.5496160286554 -7.679500597999348 107.39155184197784
0.572285714 -11.969704760032393 71.54529068778318 -0.726369404401112 152.2559245753236 -1.3858511902101476 154.5879998107388 -12.14792345291259 61.707276069784925
0.653897959 -1.6823418580814802 120.10729068339495 -6.494749215766413 38.183122605311965 -7.497272251661391 25.70550924531704 -1.0257065191606536 111.33584468956626
0.735510204 1.2715637094099117 52.300232707002785 -39.81206237829256 -13.68333308716733 -43.396613272036994 -85.79259216511622 0.4881156458245428 65.821219933963
0.817122448 0.6286095999602812 18.899071760646756 -23.660555111660592 -67.02582165704248 -24.205990689170413 -75.16901461030889 -0.2671649177413625 21.144774829914827
0.898734693 -0.3325585337482386 -3.6631720098796117 -17.260318791599534 -84.8383910786029 -14.420922418777453 -89.34235406690483 -0.35669764276388605 -3.50782788985869
0.980346938 -1.5180562568029647 -23.960730829686412 -13.260993085704865 -107.56715721619294 -10.807481497815719 -115.47033262164781 -1.4051762599543336 -20.199194461784252
1.061959183 -1.9261900964893883 -42.52762849794282 -10.004227638683478 -127.15442793463866 -8.530818685327246 -129.97061387454275 -1.974749117863236 -39.45605964110861
1.143571428 -2.9505425311552957 -54.13189628078492 -7.004785214443384 -149.48940347437582 -7.778615656331 -159.00783968664174 -2.7543815760054007 -64.18665523387406
1.225183673 -4.434810955521794 -78.57499923052757 -5.207693479916909 -177.42419500831534 -5.468639474544644 -178.94595971849995 -3.648243379232488 -88.83335322570859
1.306795918 -7.080354234889642 -110.93729150605206 -2.8739910548591094 156.09862973508888 -4.115975678080131 157.80986440458537 -6.444506942861262 -109.27061320380061
1.388408163 -10.181551696628425 -134.24227978604281 -1.36180725569493 133.35492471748893 -1.48585201619469 134.2620701917397 -10.81887053056763 -128.7908242620216
1.470020408 -19.430010620049373 -101.19117695172237 0.7367104204220611 108.6505556333758 0.3141131018730981 103.96215461835052 -30.181672807976852 -121.88877969088709
1.551632653 -13.218671016715163 -29.866682838235445 -0.3736778427913824 76.24272574610933 0.022117222756645794 78.34576051427706 -10.60424237517003 -29.58767093907449
1.633244897 -9.62960428869805 -58.4822577496904 -0.9072110362007084 46.62298157489801 -0.6029801876488462 41.025369129818046 -11.461707015338124 -47.52443457095141
1.714857142 -12.1632796301684 -80.24049340536516 -1.7963926300247821 22.12960615510459 -2.269129702328919 18.120609694069753 -14.160159175233069 -73.01889390227605
1.796469387 -16.518432876379883 -125.1836967554149 -1.8533163496052572 -13.14042082138104 -1.6622818034360773 -11.831728300530422 -15.385805800550331 -104.93876348335037
1.878081632 -29.431002994415365 -153.6868637068329 -2.370132892928381 -55.061439249291816 -2.206836963069712 -59.92298450695863 -23.7786029972156 -63.42963434054423
1.959693877 -9.389841403910248 -41.197448969991804 -3.736811158614375 -129.66706454236044 -3.671405444918508 -127.57454104789996 -10.03801109579558 -53.87114908188232
2.041306122 -5.495825522184196 -38.70081763147632 -13.410188419341756 120.05964850602564 -13.707290899123974 113.22941519790886 -5.910507416254704 -55.65788693671491
2.122918367 -3.365841241573939 -81.2636279365475 -44.50893237074678 42.439873453483976 -43.80554726564363 105.80564912970321 -4.424756528962965 -80.45197775453634
2.204530612 -4.251417180049854 -103.54652804751268 -36.07845101168819 160.20594007464356 -36.31639667019981 175.4544680402327 -4.85668662094079 -97.26369470837182
2.286142857 -4.500059931577786 -125.86921733324169 -23.589727049758594 126.16470073684475 -23.771399697049226 127.93583118602145 -4.730882739591758 -130.84492428764366
2.367755102 -3.0539522652368327 -166.28022029759833 -13.697661933725556 128.0990703022258 -15.47880774761147 135.37726151553028 -2.862607890561713 -146.46723357771273
2.449367346 -3.7892247818445957 151.80169556956457 -4.827483128659181 60.93100874496272 -5.355965993440174 60.26062238354665 -6.4467080265503 159.52805934050446
2.530979591 -7.097443525924757 -132.7442711793845 -5.480963141265293 0.5346670763811516 -3.222412443072646 -2.307047459187225 -10.566711027239958 -151.23930297518152
2.612591836 -8.370724213533595 -147.63724113053254 -3.6060116672934512 -45.19004042355796 -4.213609643556506 -14.958831034490247 -4.668438528695159 -167.6129835023215
2.694204081 -4.333249693373825 -134.31656562756964 -1.7278395598078338 -78.1147445587877 -1.4933941355186424 -62.36570635301603 -7.281453578341679 -150.19746651136592
2.775816326 -6.280105126836313 173.4811769788972 -4.397668309783436 -81.69116170819798 -3.7889152513184294 -89.99632155233677 -6.526928539348221 173.64076242272196
2.857428571 -8.010508442223635 149.20123692975227 -1.1570363168420421 -105.27849260328058 2.4704806317468595 -106.85954675897698 -10.129136138112491 136.53297571969063
2.939040816 -13.81697950464461 100.898808781538 -0.5252294589857897 -152.00732694565394 -0.12360181406032472 -150.24885314485468 -16.38659988606317 125.39256918701511
3.020653061 -11.935333283550701 -120.58068600562332 -2.2753356374189835 179.1843291872513 -3.021333126282952 -172.28057912599826 -13.83255597298717 -152.74249322230244
3.102265306 -8.785002625158981 -144.4412856319824 -3.077488531145296 151.5888503762811 -2.669031418162153 155.78943796186695 -10.804154856388495 -149.54703301750484
3.183877551 -9.679207663206231 177.60221828594302 -2.2739727863135535 112.80722238704986 -3.438587458051739 121.41642119046575 -7.621545771845485 177.85373453393723
3.265489795 -13.100890173999849 140.82696111720438 -3.9949788158720274 77.68824750768188 -3.7053598996744834 74.87681255148527 -9.527147968227736 140.28122683813936
3.34710204 -8.673206739333343 -165.35344954718676 -7.911474614612754 2.8524865910713384 -8.637913186741347 3.4937833156390687 -8.282014635624535 -165.74438452570772
3.428714285 -2.360697171699524 173.65294529574138 -17.728294621389548 -22.99414199431195 -14.46567431797899 -32.27001335537979 -3.1985293068436667 -176.69357929587605
3.51032653 -1.2869531376511676 170.31152411727894 -32.872801861657834 31.480646167505576 -19.010427214145686 89.40825551439407 -1.8026727313528303 -178.70723541289138
3.591938775 0.7265067423051239 148.63941106087262 -27.526615045059465 82.04498902824648 -15.715249208275402 176.1309490641562 2.9203967374525397 154.01069014810994
3.67355102 0.16899109508096927 84.38374607153722 -11.838750570281897 -67.15572751218731 -8.363034160866047 -57.58171680866235 1.206463710924909 92.17899436241386
3.755163265 2.5951490424737518 83.99994310552425 -3.185959271662453 -163.7497477633326 -5.196693158824498 178.91390360975964 -1.580116123621785 103.72984731652615
3.83677551 4.59137843657374 52.80706346220298 3.297830859029866 132.58415108799593 -4.11007924880026 170.09239383912316 -3.7297975159999632 73.28121920330521
3.918387755 -7.081574124064386 124.53398099002362 1.4940105487675492 128.3891197962869 -4.194882303008558 111.01013696043921 -13.534575088538547 55.78107427144906
4.0 -9.10467963724055 110.2040263251195 -5.3694257390685465 89.13265687270251 -1.371986605158735 65.34335714213641 -10.752824503802767 53.12822034708748
