!Created with skrf (http://scikit-rf.org).
# GHz S DB R 50.0 
!freq dBS11 angS11 dBS21 angS21 dBS12 angS12 dBS22 angS22
0.001 -1.7163757329545564 -137.33142597336686 -8.930252061707515 22.460253119517905 -8.404504591619204 6.227497409397364 -25.29021266381889 107.0394168266667
0.082612244 -22.496204337034808 -105.90469451441055 -0.3673205110823096 -23.60527515742166 -0.23600943360146698 -24.822567141225953 -22.485590297359423 -115.28286972923117
0.164224489 -16.539377355371393 -90.83930017495874 0.3903211492993661 -50.165618399856 0.8352840857155726 -47.12387598315496 -18.855780589703688 -97.77956908478099
0.245836734 -10.77904459499339 -157.49054221034635 0.7814818127785463 -73.83551218634767 -0.2989825584463744 -68.84823131761338 -12.366352247220112 -150.13241464247952
0.327448979 -8.29933246330394 165.94504468709923 -0.4955993244900967 -90.71615613065555 -0.8630779063417642 -92.16346846698116 -8.684927413019516 172.10817915172566
0.409061224 -6.802527300695602 148.12155227372818 -0.3726381498690689 -118.99187433445164 -1.3595501735064028 -118.78455898065027 -8.443399850286005 142.21038538314176
0.490673469 -6.859570565489765 116.06146637083899 -1.0651263472906312 -154.39457745223012 -1.1297320534802202 -157.48536501715594 -7.754745673864143 109.2215620629262
0.572285714 -12.10294896535385 74.7873873518792 -0.6521674619272965 152.27118598431264 -1.3069072450485952 155.15064690484897 -12.062490756278335 64.42799481821348
0.653897959 -1.6807415834206045 118.88183493598002 -6.57269757553556 38.3051766436015 -7.562130323637265 26.445794296521917 -1.227433805475398 111.33527106485981
0.735510204 1.1809593813229924 52.85771715792123 -38.863363202779475 -51.994462990186655 -40.73528540945744 -36.26802534075554 0.4953166573343273 64.91028506583272
0.817122448 0.6527395087093621 18.54875536260325 -23.945038548502833 -65.9772694014686 -23.299904556953017 -73.95333064437096 -0.387000647393666 22.57920338264087
0.898734693 -0.5082167617396012 -4.02330342922601 -17.22074875296895 -83.44617796295297 -14.561466986771187 -89.72867909860081 -0.30356946462331735 -3.224726193273568
0.980346938 -1.560724999139362 -23.458041695850053 -13.154918234920812 -107.19435749328302 -11.19031624159868 -114.87200599818891 -1.3697589490492819 -22.254599221546297
1.061959183 -2.0922633587330663 -42.97737760383904 -9.88696385975105 -127.19659244211424 -8.368041708403535 -130.3430947603778 -2.0065044320132035 -39.860066441923784
1.143571428 -2.804320995065772 -53.36752116317607 -6.8259885719709645 -150.42585486870047 -7.890400148858587 -159.19337059860536 -2.5236569576571393 -63.760800459152684
1.225183673 -4.450546197792305 -76.74979230681907 -5.122474500063889 -177.450564610807 -5.327508936829684 -179.25600784123938 -3.5123853575030504 -86.88963656667362
1.306795918 -7.040447019896369 -109.19895218095327 -2.8990488425644347 156.5872588622806 -4.225734830917167 158.4437258581324 -6.272296974612351 -111.4470957931309
1.388408163 -10.188841995762761 -132.85115149402267 -1.4159123463347032 133.86576110428672 -1.38453265549223 133.4173265722842 -11.646916462837027 -129.0292196798615
1.470020408 -20.094039724550115 -103.6400961065983 0.7827447127314671 108.76791649766253 0.37647526520487223 102.75800435115657 -33.08438309726491 -108.23737060708638
1.551632653 -11.994348740040673 -31.768759154567743 -0.46645866515880313 76.33263792908373 -0.08791641534104457 78.32014710446948 -9.99254654566189 -28.273251632211366
1.633244897 -10.129707840038868 -56.851695371916456 -0.8493383238995483 46.136113505069474 -0.5576452375712112 41.93268897330166 -12.075027335259472 -49.827270385074776
1.714857142 -11.756245280768209 -82.06655337584411 -1.7445989956834396 21.998315966564224 -2.1977032877275504 17.934493587155345 -13.026025067080251 -67.2351972646048
1.796469387 -17.012885271101062 -137.0997289727575 -1.7629591366642796 -13.801930776823081 -1.6246344709870835 -13.163910554018777 -15.16074169685477 -93.57437586843656
1.878081632 -34.995845451248485 101.21317517745432 -2.312374338450765 -56.67554633119007 -2.2593770154606583 -60.249865042526885 -22.211598074904593 -50.02767987423589
1.959693877 -8.78011419933796 -44.145293506866174 -3.8253804009277386 -129.41787887961752 -3.638111800806756 -127.07477807705904 -10.496343791702875 -50.98951600475448
2.041306122 -5.545679294473892 -42.21614038706665 -13.811033640474516 121.12701899304791 -13.571795429861924 113.00249830880836 -6.101770897408439 -57.43967338804867
2.122918367 -3.225926330182023 -83.31909366783336 -43.870679728826744 46.760266102679225 -39.98669988294341 94.49368766311791 -4.4967027875340095 -79.83800914808326
2.204530612 -3.4122770646298006 -104.57715660718272 -31.040769256197912 150.13610502724956 -30.595803216273822 -176.171457428083 -4.7088056417884 -95.08733642892587
2.286142857 -4.444947587850913 -126.10768751116935 -24.138967406175883 123.40112185374801 -23.49045506957551 134.61169797393794 -4.946593281708732 -132.34380024830173
2.367755102 -2.7583797317834136 -162.98725208407623 -14.265340166414495 129.00319170176036 -14.821833831866769 136.86451674382272 -3.2083625844215238 -154.96646582936066
2.449367346 -3.776661726064287 144.62518155655226 -4.54260970357187 63.482217612933916 -5.377926652401338 57.322779960751774 -8.449200303404023 159.63929856797168
2.530979591 -7.935194428338077 -134.53733941452677 -5.9742869164628996 -2.682499591074753 -3.4779034391101864 -4.668678680093648 -9.787998056909313 -132.54448741870038
2.612591836 -8.073226277094095 -145.87665534966337 -3.2490046443602445 -48.11873651887794 -4.312602723425823 -14.05656435607866 -4.656770282085833 -167.6768446174043
2.694204081 -3.623117987799715 -154.6421042947345 -1.8396125134581707 -71.56394748983575 -2.1683024511639912 -65.36326257907909 -7.710122686439725 -170.15775087385427
2.775816326 -7.867759800333838 173.3976353872545 -4.51896333322444 -85.57168303190063 -3.6644828629087645 -89.9991356479428 -6.341849421358388 174.00333580787031
2.857428571 -6.539376141715946 144.59789840968625 -1.253167639694221 -106.316731755693 2.0799178141421257 -113.56918047758413 -11.763112944510459 109.4466856665133
2.939040816 -17.980994670161834 140.62972660189806 -0.8941542169275174 -149.10113025395336 -0.00930937688345188 -153.63312251211667 -17.283737781098466 81.02592967683556
3.020653061 -12.316321562195052 -119.47323840988508 -2.371639475748541 178.64624218719658 -3.2423002977557784 -173.38586968603752 -14.041645554350424 -136.0449535510322
3.102265306 -8.847403295693233 -146.7068694244675 -2.897509718455032 152.70585929095125 -2.727316184838291 157.01524398815124 -9.80266881614114 -137.92953204051315
3.183877551 -8.916796498328877 176.6688103394018 -2.32597339915553 112.2056054956143 -3.666322335333108 121.16871386510155 -6.395522931927168 -177.327922378297
3.265489795 -11.678650518828464 147.814723155512 -4.086317645029654 78.51820559266109 -4.016909094156804 74.59092691766926 -10.964724855192465 139.88759437813096
3.34710204 -9.007321031676438 -168.0038875879113 -7.801253307766429 1.7692557383286824 -9.067033820119635 3.992984932958766 -8.544872511162126 -158.24073217378637
3.428714285 -2.7071376397620606 175.70892463458057 -17.88370470686776 -21.576179226032025 -14.295815739900913 -35.101512013390874 -3.9530762024009265 -174.32241391028865
3.51032653 -0.622412504864227 169.55521637847744 -31.913363643364413 37.78509908501516 -20.102809603060727 93.57143155720564 -2.6662859562317727 -178.8411305364676
3.591938775 1.084166760747055 146.8591349787772 -30.549602840038045 61.34258468178743 -15.439456081674676 177.03005557323684 3.127786167098457 152.92382412345782
3.67355102 0.04326145247455747 85.39057669712555 -11.679747107015634 -66.68734972949369 -8.786867854796638 -58.062695392433305 1.0549338844962244 94.2002068685119
3.755163265 2.1621706508057676 85.10887094073827 -3.756185204706915 -166.15468663339232 -5.7169363090174805 176.31110374300013 -2.5558418649334307 99.15786503513131
3.83677551 3.336707335842627 49.764171711068784 2.126706661917403 137.43840686529046 -4.4165698862263145 171.73043771744986 -4.588538465007022 61.06819954628586
3.918387755 -5.249421478250712 117.37447529315514 2.2333275352540243 127.63474067404749 -4.326208507217808 110.20944471590573 -13.185862390646507 24.073343938440225
4.0 -9.484703116891376 115.53598841190295 -6.05729162282736 92.37326841275568 -1.7774868568080462 70.88280199415343 -14.949685986621457 67.55884705569004
