!Created with skrf (http://scikit-rf.org).
# GHz S DB R 50.0 
!freq dBS11 angS11 dBS21 angS21 dBS12 angS12 dBS22 angS22
0.001 -4.811319305881975 -118.64724511939124 -0.7689892652499695 69.41869060793746 4.404693285967235 -35.50713813532988 -1.9533168599974813 -118.45401742894512
0.082612244 -27.509584401738234 -118.88772465486078 -0.31993113201462087 -20.70706874932588 -0.20742061731516853 -21.380678005917922 -24.930194862443457 -83.33043751984611
0.164224489 -20.295342378524563 -99.13408592532731 -0.06206745288299464 -44.90448922319139 0.4370968844295443 -44.889700641815814 -24.60465457783162 -69.64487406250988
0.245836734 -13.099623790280832 -154.03045002653099 0.4210747486608736 -68.84221189657805 0.07281757760351067 -65.57366808662435 -13.753914878273903 -151.1100244408732
0.327448979 -12.779918975862195 168.40379751220325 0.04418964164234574 -85.8403424292522 -0.19430417263838667 -82.13734140141773 -14.297646768705466 167.0207295906714
0.409061224 -14.67112844610891 146.93880467923503 -0.012708362333718505 -109.85743254084582 -0.2809880838317748 -105.00482154439142 -15.205504360090325 151.9601699525994
0.490673469 -10.44717161593439 116.10513854604446 -0.10948325321823715 -134.94633363221664 -0.8709976425199307 -135.40526170527335 -11.73351544509921 140.55735927857262
0.572285714 -7.364015181800548 100.7161757924479 -0.45545449869772836 -167.34741378023818 -0.9888195499884095 -167.11014798687765 -8.97972519358776 95.30306205495012
0.653897959 -7.856996913921695 69.57170127327856 0.09221454195278259 154.25525272589715 -0.4162944608575495 159.07418724174065 -8.393024221353146 46.8661778653214
0.735510204 -6.5544922269300345 150.7239500301205 -2.9014251675474556 75.18862800388989 -3.1043448812291166 67.60453527210721 -6.5180651538900305 154.4446702303632
0.817122448 -1.2815024853948414 88.16284947226255 -15.169155454046292 -92.96057987884372 -15.184260862031266 -103.458325671939 -1.6677526745002735 100.62040828687437
0.898734693 0.3089049444380252 24.416954868628643 -37.707700453937214 -31.204226464415484 -42.02532763297377 -62.905900711748686 0.3542148067117742 31.857151770692976
0.980346938 -0.017460590591527582 -2.3005785851018508 -25.471794544661574 -88.16619481663801 -26.209716298098375 -95.15184201696435 -0.09580991396370796 -2.5563986801892717
1.061959183 -0.5393654446168158 -15.19334249559067 -19.09673632796181 -93.36855334460127 -20.229245799496972 -106.01803237730664 -0.5223986831450081 -20.061855341890297
1.143571428 -1.0043827993874035 -25.867238979925098 -14.313145277487415 -126.7960596443866 -14.877320731782016 -123.60963652611042 -1.6172195355432222 -36.739599490207254
1.225183673 -2.850949236283255 -51.59116051382348 -13.010219816965892 -151.9809067760065 -13.25254894940426 -141.30351850006687 -2.7830940320332114 -59.20332307101614
1.306795918 -4.755748728495081 -80.88040142085946 -7.936144551324878 -161.81369508445974 -7.454956224833712 -160.6931719755993 -3.8729494977287793 -80.38057251741405
1.388408163 -4.602244294296467 -105.97743085976438 -7.240304373798474 169.17963649974973 -7.290427445189907 176.9258366106585 -4.381448176307539 -101.70545229386141
1.470020408 -3.618186052963115 -116.60970673017086 -6.015545286958926 157.64660042323254 -6.351686742400321 158.85943605458195 -4.883526755232819 -115.81004550408863
1.551632653 -5.53046786201514 -122.32697348853306 -2.5978530548100776 140.38911210222398 -3.329068819608469 144.13955444305043 -7.5008674249723795 -130.16750328087304
1.633244897 -21.636791557114133 -33.373436555918275 -0.15791362453375504 93.16606601969526 0.09906496527543483 95.04980157096612 -19.99345766931442 -69.6989577843291
1.714857142 -8.638428451818864 -26.795254079030993 -2.077618209259236 71.79083500338557 -2.5020524922784197 61.69416683793436 -10.591858226104772 -23.374979022621947
1.796469387 -12.745896093215695 -25.354537333346144 -0.5541472296230431 43.679860205385395 -0.39906674039199125 47.99392512741105 -20.464794637047703 -39.99930050690385
1.878081632 -31.93555201390521 -87.70950450021276 -1.042347239566722 20.282467693539306 -0.6268680765023128 19.11965339274982 -25.743699099477414 -79.34121612195716
1.959693877 -10.743370495962985 -120.82829798027939 -2.7669194522220435 -3.250680593404913 -2.8430634645340747 2.0254965938074685 -11.244806867720797 -116.57346374554146
2.041306122 -5.788035244596619 -130.39430333844462 -4.410537103686675 -19.64696453410747 -4.263227988273627 -18.34298484303934 -6.241241845685417 -131.32100155578908
2.122918367 -9.008784195406749 -119.62811310122513 -2.651545860956377 -42.49653186526367 -2.5879191002059985 -42.447003224638415 -8.362138230057623 -139.22087844223304
2.204530612 -9.050214028132794 -52.14833823062052 -3.602809408253638 -90.87214363424836 -4.832206494081724 -94.43804044529733 -9.517153176021901 -42.56349603231143
2.286142857 -4.967486066587937 -45.69999994127623 -5.741378754671499 -127.6854114565662 -4.597764516310084 -114.99613587334598 -6.368155987349693 -62.10227538590003
2.367755102 -12.676679473424567 -47.79435028989607 -4.6818501896065445 178.99760585195958 -4.686256388260531 176.82182260529305 -13.624530835004576 -68.60686710580337
2.449367346 -8.84366260032623 -82.26796578586925 -15.071450592843835 71.24156897059692 -15.874173081160503 92.56129688277629 -7.634699081731512 -61.591764637742756
2.530979591 -3.814713578736127 -129.84234287085582 -24.158412543247692 87.39393244905756 -32.55395979069847 -16.803950057653978 -6.376509690658404 -126.3083108705598
2.612591836 -3.7566703152442664 -139.5138970768913 -32.393076715836045 154.91891255683691 -39.211024455207244 109.66367082369388 -3.1960404757914644 -135.74815172516867
2.694204081 -6.526204867605977 -132.63565171273316 -29.58987288584995 171.4478106273062 -22.796575236508453 77.94267747312755 -3.754424867561981 -136.0425864879688
2.775816326 -4.762831948718413 -152.66126859153977 -24.89028904322094 93.15434998518286 -21.804862407074694 100.30090843917347 -4.54720905923395 -130.38413319014418
2.857428571 -7.252269743217773 150.18179676793875 -4.913120346099541 52.69063246369835 -5.52217148388348 54.86275532902798 -7.624236379484001 -171.60965758753724
2.939040816 -19.48133934249508 170.78936227639264 -3.1751918908277195 -28.222525348068825 -3.4657101745251797 -19.041622140863755 -14.869632380448362 169.15732791071036
3.020653061 -6.62465749380587 132.93855248372228 -0.6658113033891302 -74.69001669302823 -2.1046805366582912 -58.711504606079714 -7.474670908941821 149.33609655011097
3.102265306 -3.020702866220828 135.60954946911602 -1.2626936698427957 -100.0890277574575 -0.5998673724200702 -104.43424413621436 -1.293716452086104 133.44055086096398
3.183877551 -1.2881525252375248 139.37169236995064 -1.5780082486181823 -102.93912953655064 -1.6446320274471935 -96.87518207347127 -0.06115606656929608 129.87648882367318
3.265489795 -7.380766592464292 116.04038713888374 -0.15687746623136548 -143.5684535846249 -1.6124862913903604 -145.9810102649674 -5.924563971927858 121.86806540984357
3.34710204 -19.375101170162846 -117.24412591336814 -3.418506751027719 -173.63392666899594 -2.0480955635513567 179.32035687966615 -23.8339102343597 -155.12725642235438
3.428714285 -9.752033009219574 -129.05786039278829 -5.563525079174267 161.61044344527792 -4.1280063653702035 171.8756281039354 -14.811203935225024 -124.39900655267463
3.51032653 -11.622513013189305 -173.30045716736936 -1.4173576294101422 140.2006457151033 -2.2873962998166815 141.42680539171536 -19.053517419236474 -173.5913199177085
3.591938775 -14.695949566315079 50.4029583611658 -0.22485032391949236 98.42073217840084 -0.07867899473139643 98.59861689713203 -11.565176330023654 93.52519430263762
3.67355102 -13.239284089814214 124.17227057840077 0.3455501215001449 74.58057673897868 -1.4073550335832163 79.76406343105812 -3.3760727483081956 108.68416437115201
3.755163265 -1.3435135388387431 129.41759315916931 0.37640777161458 46.85838284952291 0.014624119752540844 50.654805006471896 2.120982329910278 95.88119580926713
3.83677551 -5.060116664860807 111.05454530267824 0.47985253948356066 23.325471335002838 -1.0188604952331346 22.424051964714376 -4.132397945023351 103.38294751650164
3.918387755 -5.926137444633891 -156.0655203575572 -8.543815689003395 -2.503704351888404 -5.358439069637443 -11.10389201295167 -6.542991234354462 -163.03084534994554
4.0 -3.822984613599481 -165.92395247844834 -10.674686691333 4.574053513233111 -10.877247378050289 1.0683875562743586 -6.407179785182109 -161.8665740555409
