!Created with skrf (http://scikit-rf.org).
# GHz S DB R 50.0 
!freq dBS11 angS11 dBS21 angS21 dBS12 angS12 dBS22 angS22
0.001 -5.129732684452489 149.8924353750145 -19.163785590090644 20.739575477983667 -4.9178043322811895 -63.0097207790173 -15.365344288544096 -167.03680043293645
0.082612244 -0.09187614186761209 156.40039988232758 -17.6202991740854 61.36210740527472 -17.433992104194477 58.19746900387333 -0.15613961463945888 153.85758642861745
0.164224489 -0.08289910709242941 124.73312980352196 -11.791967202916018 32.10923190918185 -11.134758039706835 35.531766234787916 0.4128785829389603 123.58663131880006
0.245836734 -0.8784611837465457 103.05295084128686 -6.270745267879954 1.3585799310294309 -6.825393335856765 3.3051870718254452 -1.8282331984762348 92.72082007777286
0.327448979 -1.8121057718134033 68.46781879125572 -3.872652675639616 -27.017210874568022 -4.470871007042204 -27.079573937015954 -2.939003731937724 59.70348265990543
0.409061224 -4.835123741584551 27.025351578559 -1.4319913778455038 -63.96291864908853 -2.015484791998081 -58.98527588734898 -4.384863572755086 27.288058401969398
0.490673469 -8.312337397976787 -6.073510763706828 -0.28719418202533054 -98.93255316532387 -2.194061202641198 -98.21392844670414 -8.444298272380754 -4.398015589689274
0.572285714 -14.207963271781201 -39.62408136447679 -0.42944385553783193 -127.95144662963537 -1.2079233251154649 -136.4282168931129 -12.819975778543121 -41.165784821190684
0.653897959 -24.882160959531458 -83.82536650512287 -0.46684240278225103 -167.17784147320495 -0.19304132858893017 -168.86906571388516 -27.18497473751215 -88.23036055454504
0.735510204 -28.921035832900568 -16.357952460321613 0.0928479421518654 163.28815619433772 -0.28371848170176933 161.42869027707812 -30.106161206583195 10.818823976459878
0.817122448 -19.550747618447645 26.434796610756045 -1.2490889325304864 132.99259991369703 -0.5255213025321006 125.08430308585447 -16.40958433105268 -3.1551826835570025
0.898734693 -15.442659321990869 4.8152883662319805 -1.605723238176138 105.53176753427572 0.5521440850082584 101.29345321214055 -13.087769390535069 21.081360790197703
0.980346938 -9.292722572578596 -40.52200923652377 -2.9090507956129 63.01462902569348 -1.0306457127364617 62.373112439785906 -10.672063088790356 -23.97986070900912
1.061959183 -2.9340641292080845 -134.64427110840367 -11.08129007628155 101.30325205823482 -10.350108549996675 91.45711849580267 -4.575199455203125 -140.05660273127242
1.143571428 -10.571659874221528 144.86129096568516 -0.08819259803463181 48.78190292532775 -0.711178121491004 48.64992498858925 -7.422337888069192 132.63941782902327
1.225183673 -12.505622230500215 102.21109582858733 -0.4245016363817381 15.363339655107158 -0.6834617737699645 15.66885585551631 -10.871297594847466 110.12379219706239
1.306795918 -15.408805209831804 62.593940342217955 -0.9331528872355755 -16.180947435409482 -0.7928530070453709 -15.128321411815536 -15.649950546666766 60.62377067955663
1.388408163 -16.31785238718961 29.21417978026237 -0.5639383065277657 -44.215366635650966 -0.9015071774368912 -43.47181030077074 -16.351018900394827 19.93979950351516
1.470020408 -18.500443779240054 -29.036168697994157 0.6779065519178086 -66.00357180879868 0.5711718637389791 -73.19957536069307 -17.34260160229621 34.92674913265401
1.551632653 -18.367392665150234 -24.292282970271472 -0.19161854438637868 -95.86146319180459 0.348072684814416 -93.16162215102031 -12.602120947354667 -5.843554324580548
1.633244897 -11.342152748038616 -108.83562737155214 -2.484018767562022 -121.98488180066366 -2.246927324519859 -126.150898470752 -14.890049961471343 -127.70965435826012
1.714857142 -19.27410630235864 83.34855562311479 -0.24597029376487523 -144.01927347777436 -0.3655581163642573 -143.64934024225832 -16.910996799626993 95.75667982950235
1.796469387 -21.32386791091196 66.98713191928358 -0.26450769773347627 -172.56061151193427 -0.5690486580661203 -171.8510754144995 -22.623889370338624 116.57835816292643
1.878081632 -28.523213232561414 142.0520092169076 -1.475174248572504 161.01567287368303 -1.267092537351004 158.0321051248437 -23.403693990393577 57.464952043476366
1.959693877 -15.897094809891863 -162.34684016985983 -1.4790742854778685 132.08611969270808 -1.7565000152976102 133.50098270887 -17.50844748922757 -155.77633092581777
2.041306122 -16.913951552199794 -157.15634906355677 -1.7545470141837105 100.90806546549807 -0.6326208237873842 101.87842576043676 -16.833264262615817 174.41920528070187
2.122918367 -12.664366910117133 178.11046134601722 -0.7693851011913497 74.33172042033095 1.5215580540409743 75.84527381494838 -14.12552279292379 105.17175250437997
2.204530612 -8.68086017111543 128.68279285857463 -0.018783992709967133 41.08826015298698 -0.031481584838278905 46.74268790919716 -8.288946640750957 106.05175160705791
2.286142857 -6.023147147017426 83.27673121488043 -0.9826810437499562 10.992681502053472 -1.035912519858284 12.137936310159455 -4.308206049084405 85.39095790018172
2.367755102 -1.9883333830334926 46.897276718415576 -1.96674171772838 -23.52344477230901 -3.107810452872821 -21.317874174989164 -1.8793603814750681 49.94556768100826
2.449367346 -3.2712782546914836 48.30459205828346 -2.632320023788806 -38.004618290849905 -1.4052818094035524 -45.9123492634422 -5.7798354890286525 22.443632446392698
2.530979591 -3.314700785833929 54.32058888450793 -2.3281248019024354 -78.6693946618125 -4.538608533604483 -63.933130419630146 -3.9434174785364084 17.500148634896565
2.612591836 -6.291503136108256 -7.68640910838925 -2.3623322834064293 -98.96831796021415 -3.170217404927666 -107.3110609462944 -10.101894685002703 -7.957087654301422
2.694204081 -9.240864806902824 -50.512179803420466 -2.5087522219866925 -141.98753852475954 -5.875105813318735 -144.83159135811152 -11.795486235388918 -32.29670239672689
2.775816326 -8.992087925686485 -25.064480783920065 -7.894130116869751 142.10154558431591 -8.313878925745762 132.9199648427767 -10.21404345487941 -4.158190800125533
2.857428571 -4.377693519350255 -58.95754406115735 -17.12425296793515 109.24848801371581 -16.756406380266313 106.77842986524246 -6.507804800646328 -44.02687612147884
2.939040816 -5.283175883530476 -76.65815636874655 -30.88174306439257 18.310981107774392 -31.866166681179863 17.99889398982273 -7.469301811578411 -79.92298528142594
3.020653061 -4.034150882231569 -94.50679598970575 -25.606622078074178 -39.98767863600971 -27.51229357758369 16.601035968747137 -7.999576669880711 -110.53420517119457
3.102265306 -4.314721777221789 -157.0597545863177 -10.260527504008257 -74.86192010977621 -9.940483472006264 -83.66033617762533 -4.654072836948965 -170.3592527283213
3.183877551 -6.814391962722875 138.57807845024703 -2.8242760097132513 -129.74963552921457 -1.9966552086175016 -124.29913928859395 -3.5408067903565614 124.30442465631086
3.265489795 -14.213435863303932 130.82107503427255 -2.6213292136108373 168.12935701978904 -2.3400242722330327 159.770753261338 -12.463119003580745 121.53341406947837
3.34710204 -10.977055261971529 -170.8394277440852 -2.919092700517154 146.9443809415788 -1.0640747612709809 152.932173393297 -13.368776622376561 165.9055562823618
3.428714285 -11.067130163907592 156.37022146144832 -0.5808440215213153 110.74425109853206 -2.4577571285531614 118.13345679221142 -10.8739960822912 174.36561119857035
3.51032653 -8.085541925344385 146.01584471960962 -2.446106274244705 78.53289330483611 -0.9114428075053405 77.95077835051866 -6.868597088731615 118.61510725866191
3.591938775 -8.823433839776756 97.43738079646056 -1.6725787749571226 37.013767429246194 0.5684079700755416 37.85036648758154 -2.9253617146542448 75.56533393187094
3.67355102 -2.0262600226312037 47.71997797613568 -0.6114143403047821 -18.608351393467437 0.1472009402631782 -16.025576569709965 -2.109617174592871 46.924778079233796
3.755163265 -4.851006488938607 -4.261345847954181 -14.867322033977654 -25.013467805862543 -12.508471774427628 -9.970706877854749 -5.998302643076458 -14.70915424783347
3.83677551 -15.72176641680704 -38.92323236097189 -3.172052111776851 6.324720406088453 -6.667354224575072 -14.759458109404534 -18.880954200668313 -57.83184103039124
3.918387755 -13.558379565086794 175.5073528267472 -0.8028145738677948 -30.646555643773095 -2.174288229427112 -52.307894286390095 -29.41725014638152 -122.6176306375984
4.0 -22.723060178108014 60.3023682914412 -7.131829680371059 -77.80556299191241 -4.759295485650965 -92.29429398000208 -12.986961672894527 39.30457130147881
