!Created with skrf (http://scikit-rf.org).
# GHz S DB R 50.0 
!freq dBS11 angS11 dBS21 angS21 dBS12 angS12 dBS22 angS22
0.001 -15.060560251129475 -110.96541297513087 -20.13460540865459 6.164587276021956 -10.911395414497981 -37.19071840754251 -27.787010922383345 96.79559967779464
0.082612244 -0.10371693501616992 156.2515581156726 -17.62333525518415 62.650095885133666 -17.486529355369402 59.0742918731743 -0.202736047514954 153.28071805872614
0.164224489 -0.12846343549126593 125.14002405069391 -11.660312273345902 32.89305035218488 -11.089895404544077 35.21251488119484 0.3727558168300501 123.85028960004944
0.245836734 -0.8293272218232852 103.1935287279089 -6.269009468613303 1.601352899984539 -6.981767591161951 2.532707871355845 -1.7525257155880696 93.50582697181669
0.327448979 -2.042995196004429 68.65874932061341 -4.094815985845635 -27.046142787444595 -4.596129521163671 -26.390381844375767 -3.009772623141087 56.670643378347165
0.409061224 -4.655662102017674 27.323964592138505 -1.4373141843026636 -63.80142187222376 -2.079831566040948 -59.42457273277282 -4.266543327061852 26.51963935108441
0.490673469 -8.401083314875645 -4.604944896814733 -0.2856959398742256 -98.64987737142314 -2.083126113357722 -98.37762468576749 -8.649231847370498 -3.522304011744945
0.572285714 -13.919478284756545 -44.126340183331976 -0.4065581250262537 -127.96934934528913 -1.1551575376172933 -135.99744660106703 -13.271767967720002 -39.14378990737768
0.653897959 -25.26958488368145 -74.85430120596038 -0.4506273904415632 -166.54205309928972 -0.22767398054731244 -168.5189287061649 -23.99212257414597 -68.12455344798833
0.735510204 -30.621635924917555 -4.8613448608226895 0.1264121650909757 164.15416697906758 -0.26961273476484654 161.60320867970736 -26.445762756146607 24.261102797359378
0.817122448 -19.505424767341008 26.935800713043886 -1.273369384875172 133.18855661448717 -0.575478385116627 124.83848751254722 -17.026684152311475 -9.328704036423083
0.898734693 -16.09155488010891 5.159029934710394 -1.6374033173807767 105.46997079063642 0.5294245350891531 101.11044533133598 -12.958318621608269 16.044848532670276
0.980346938 -9.73112050889274 -42.6323818846377 -2.8218460377977554 63.75069331853155 -1.0879926855830755 62.400374153746185 -10.525102674312567 -23.214801464955507
1.061959183 -3.0444106608745054 -132.76135778035186 -11.127423508232814 99.89996978098856 -10.209899176348634 90.876987298437 -4.716573793731809 -140.3120595023113
1.143571428 -10.624259938044073 144.32728156719466 -0.1323697495697742 48.32725989643007 -0.6610466748780219 48.63224030403424 -6.595096737833749 129.56639866110936
1.225183673 -12.678293410509813 102.0672969469046 -0.44388188948597995 15.183276440947052 -0.7440149313511703 15.10357762270888 -11.155944282214001 112.8941052871899
1.306795918 -14.454723928274726 64.33983914357452 -0.8230382513086315 -16.34055709912886 -0.7516416859530595 -15.565832249567322 -15.944765013866022 53.4080391011629
1.388408163 -17.28249117167913 30.737531484677994 -0.5071401274122534 -43.24259235521893 -0.8794294825946852 -43.11433760321575 -16.504327187035486 12.06922959906822
1.470020408 -19.964787814467655 -22.251680364303276 0.7738933077363584 -65.87176374241741 0.5274137666328181 -72.51288041478928 -20.09364828694665 29.739360894957475
1.551632653 -17.330640488427946 -22.709283838298127 -0.28762649579877486 -95.82000188247054 0.4018565958786336 -92.37878318776502 -14.111156691412498 -1.455739988601258
1.633244897 -11.391039423626657 -109.0468008011896 -2.4736045708615313 -122.20097641668292 -2.3241210041823837 -127.62300128607225 -15.710005215313757 -126.01158152165172
1.714857142 -20.543874953405204 89.65623703731168 -0.3058898372102232 -144.62259494674004 -0.3967186160057288 -143.2895709665778 -17.81079341348398 119.67161478368395
1.796469387 -21.399180427518267 58.66744925494296 -0.1980543197850293 -173.08703216654325 -0.39658551360303995 -171.4917601496961 -19.086910912844914 111.29013934849183
1.878081632 -28.630366482194844 114.84751494442258 -1.41412236657834 160.66613203417702 -1.291055946081313 159.5199952532881 -29.352791403116683 84.31169548734262
1.959693877 -16.03081560427104 -174.49756720260555 -1.5178876476626098 132.0584073049486 -1.7520887317021043 132.83769454954646 -17.55319658964279 -153.79765581418852
2.041306122 -18.301621790405605 -156.17228796607722 -1.643193458191182 99.90240472698113 -0.5664855750727691 102.00870222298258 -17.016526756892553 176.6746708716638
2.122918367 -12.557287023332277 -176.03357510066536 -0.9644931821707993 74.40455167791399 1.7133798111498297 75.33548765039613 -12.796808705699497 98.63679821707838
2.204530612 -10.799290961470849 123.84896526572044 -0.20754453912757864 39.56699810114419 -0.0034090021895192522 45.87234927502105 -7.933807843156913 102.18237665795088
2.286142857 -4.288856519122914 74.94636176838351 -0.7835344463382192 10.42731005820331 -0.8898159629596354 12.36429403279058 -4.535883876787873 92.23389112642273
2.367755102 -2.8346354984194058 39.653876758680944 -2.006160475581203 -22.549687903953735 -2.9460900251866136 -16.15695428444345 -2.0881052417207666 56.55249570686571
2.449367346 -2.8441661853833415 48.01336232792829 -2.7633997757735496 -38.61538508530612 -1.346957211767247 -44.782666237261395 -6.0028172949481196 26.610450594435328
2.530979591 -2.147272133338835 39.90169762588888 -2.4385570588212926 -83.40252406738178 -5.240080156594318 -68.22833874897877 -4.153629199051438 6.60341509571501
2.612591836 -6.545833432866967 1.5630592720431928 -2.1642789109287537 -100.79958524499789 -2.739135715023859 -111.5625877204411 -10.123454858768458 -3.736573214671268
2.694204081 -9.203691689393574 -56.441049077813766 -2.4506070015814574 -142.34562446778605 -5.895706733662721 -141.19916122655715 -11.137707439327382 -32.077834199292454
2.775816326 -8.999116615345663 -19.09509321355083 -8.011479456880611 143.59288661995183 -8.237553294262764 135.85589059494066 -11.411001940593081 -6.801321000263289
2.857428571 -4.3383206906620355 -57.33248372892337 -16.686836673857055 106.54083885553958 -17.01995284111574 105.98469100143161 -6.293886030628007 -43.81206874351592
2.939040816 -5.3504516537500715 -75.91322819099749 -32.421838399655776 29.877477860475626 -31.34450028256719 24.010672284823134 -7.391002175151778 -78.34627632339193
3.020653061 -4.151241200028127 -91.24419131104531 -26.15433164742553 -42.6279975290059 -28.56496749214827 12.018800906863218 -8.610265025869259 -112.22840297529866
3.102265306 -3.6641956705165484 -160.22786450242657 -10.254116953239338 -76.13191685127462 -10.124912971471126 -86.07677024027674 -4.786222275934421 -170.09972624795375
3.183877551 -6.5399892437078755 138.77385542775224 -2.7222970508315147 -130.50273821191973 -2.220701823357536 -125.26816112075335 -4.426946529607864 127.60071324282076
3.265489795 -11.194228211409559 133.922200891252 -2.376817379106643 167.526683857689 -1.786298129568823 157.12842027528126 -13.061682352308921 104.91089651800165
3.34710204 -10.523227585418544 -178.67879780878482 -2.632357399299007 146.34650983537068 -1.0177390818369312 154.42767940951853 -11.384524624085316 164.28605945688784
3.428714285 -11.096421447612315 172.04630950836236 -0.8857784052910584 112.07437393615635 -2.0788898913426412 115.56814656406698 -11.635529151131053 158.91134542935336
3.51032653 -9.066292930824414 145.31170314785092 -2.5820845302430935 77.00391164711814 -0.7472843360270486 78.48006829571715 -7.22497233169666 117.83481535120896
3.591938775 -9.49597005996756 90.34523825225139 -1.6346286306571647 37.54577582463446 0.25079123376508616 41.63679178116496 -3.6661795137546087 80.18173840948035
3.67355102 -1.933815486831446 45.03514976517084 -0.6708993464262452 -20.010082270454827 -0.04781890370470411 -16.212753335308467 -2.952901437694882 46.45666975870426
3.755163265 -4.448819006392859 -6.998152973703328 -14.514841478376235 -26.955286974470294 -12.641856736339538 -5.117470512627033 -7.0829400015874295 -12.593608539537321
3.83677551 -16.705679853258093 -49.636810888798614 -2.8469411884927514 7.8663992020491404 -6.197535289192252 -12.625108697816353 -22.152851153199478 -102.17069099785269
3.918387755 -14.176084222467512 164.93806978205146 -0.8324689953577287 -33.438733714385755 -2.4540065663373 -53.68288112385431 -28.421111406042346 -165.64508834467398
4.0 -27.42698363445737 59.702074278745116 -7.810704605135813 -78.65669782007883 -5.072434237859554 -94.49455982128312 -11.879091072301158 22.4839797571167
