!Created with skrf (http://scikit-rf.org).
# GHz S DB R 50.0 
!freq dBS11 angS11 dBS21 angS21 dBS12 angS12 dBS22 angS22
0.001 4.316769683255453 57.559408735447924 -9.425012694748064 82.19783642619747 -11.69944131710691 -101.05103162245292 -23.081420615973855 138.04295169742016
0.082612244 -0.1779352988563407 156.53187704227474 -17.743175505625256 59.89834867748214 -17.476777501482935 60.49988124023816 -0.19450443451050667 153.12487029189185
0.164224489 -0.09526407673028607 124.83157429291782 -11.777081976933957 32.401143079516686 -11.159467292295492 34.541787046630034 0.4255702570584171 123.59343362803757
0.245836734 -0.8891054424008233 102.91281988005875 -6.237490595409111 1.6693387414256908 -6.932733519328028 2.4448992496990023 -1.6700020654130123 92.69972089081018
0.327448979 -1.9665851248401784 69.13963416433346 -4.140126729911553 -27.543226795596674 -4.738433952819819 -27.382425865522038 -2.9555076136619873 57.953528549050986
0.409061224 -4.632253462122938 26.081409659505503 -1.4400204699507215 -63.7341736784842 -2.1150007967016244 -59.00238990450133 -4.397105329769863 26.449488442216953
0.490673469 -8.532028376139705 -4.846918820793699 -0.34959390353988345 -98.33701149641402 -2.127684323297706 -98.3253669971453 -8.469695135601112 -5.024442332663639
0.572285714 -14.782766667683156 -43.272694408556596 -0.3496067494312951 -128.39752950469867 -1.1300664650299956 -136.06379071681812 -13.589832820275252 -37.533076466625744
0.653897959 -24.122286099258943 -67.71611598243709 -0.46391667819003257 -166.8050889604528 -0.2351930604499906 -168.47182921473734 -27.4242147857712 -93.64526884973624
0.735510204 -26.969658109803525 0.8654097527175509 0.2068128702651338 164.27203859466377 -0.16945589982342707 162.09784953878975 -22.883328608576733 33.15150649176149
0.817122448 -19.071366501787207 26.870347478986258 -1.2139655583393911 133.33662013704964 -0.6095437108093843 124.67076325682245 -16.12243193671553 -5.523692015956481
0.898734693 -16.145472959674233 3.159325454042385 -1.59182558152298 105.42447482652187 0.5066937901042554 100.80841318499243 -12.946257189842143 19.29102696567557
0.980346938 -9.360744729096984 -41.29074024976092 -2.8766336169852935 63.17083556096158 -1.0208413366230509 62.42335423801232 -10.385317162471182 -28.413194711719918
1.061959183 -2.967862216879738 -132.99667153344353 -10.957441814668925 100.3993815707128 -10.207600801873532 90.37367587355622 -4.368810615778878 -139.53319132749527
1.143571428 -10.412151376714526 144.4200354303678 -0.0975664569801841 48.288759761547034 -0.6325912130614431 48.03657277888794 -6.625599091818878 129.26259396026774
1.225183673 -13.020934786885556 102.49244216536732 -0.43736060662815734 14.806892280910004 -0.6902508067189717 14.499169269345703 -12.193354643320207 109.58335433432087
1.306795918 -15.144181977938956 71.9482082870387 -0.8098512730242396 -15.541983867489478 -0.7490226745306994 -15.023904703088325 -15.792345282784062 57.9001760077855
1.388408163 -16.79166511047191 32.59695903825675 -0.5577109154936865 -43.70630902372257 -0.9705352101563419 -44.415159818383366 -14.80056043015654 12.729145338820324
1.470020408 -19.938801425297658 -18.87969640969363 0.7324766905409531 -66.51548876593773 0.4329528141859088 -73.14539401335402 -19.222486056785332 23.701597359488343
1.551632653 -17.874569631359073 -25.586151307002797 -0.26995645466001034 -95.78078639157619 0.5068025209021267 -92.45873843625378 -14.120793953365013 -2.062777724735816
1.633244897 -11.41383229137215 -109.9675261858299 -2.4223534733055563 -121.4570586668229 -2.429495021760564 -126.85112584964116 -15.678623384015399 -124.07680560267606
1.714857142 -21.512438212755825 76.28354403423094 -0.3092145962705823 -144.61952814573038 -0.3592886810288373 -143.788794874411 -16.330210960108246 100.49212880535751
1.796469387 -19.81257930300059 60.160440498580286 -0.13835492815715272 -172.74899237124015 -0.4165022890316344 -171.29211296441107 -19.935678555192446 110.38455863780638
1.878081632 -25.111911757186547 107.76004646880996 -1.3740166079364542 160.26189668535415 -1.1859276921951163 159.76215679259323 -28.80990703481334 50.29689967084846
1.959693877 -14.151549842133948 179.16350599017937 -1.5201085870913165 132.72513929719267 -1.5203938443465537 132.40424006938665 -18.369371672662208 -158.89479771863736
2.041306122 -14.765893975197066 -140.04961301845137 -1.9252774157349537 101.8705541389644 -0.6512228492713147 101.51897374971877 -18.94957466206217 168.00349474145517
2.122918367 -12.623793164458148 -179.21051737131165 -0.7602556498749485 74.26264398681819 1.4749776880221108 74.92198356027903 -13.281994099466782 105.38477573711923
2.204530612 -9.346189413662225 127.13750977017595 -0.18252411195943882 39.84737870945576 0.0016451291991629383 46.054797239446266 -7.871080257489645 106.6108736577223
2.286142857 -3.3261385870978537 79.74842741422272 -0.12399545234019906 9.249631488267768 -0.741878168852512 11.362933236391042 -4.441051925670003 86.34363606560525
2.367755102 -1.4700366092282147 41.40185258442213 -1.8843817175008306 -24.62894248926104 -4.030541772822323 -18.554951265747835 -2.905310809048742 47.04095178716249
2.449367346 -2.925045073372189 53.69410852258815 -2.9353825169247836 -39.53956849252465 -1.1835916521157368 -45.365181576769 -5.599888221772275 26.820522949613526
2.530979591 -2.8720148253009636 45.76064484029109 -2.3648631623437675 -80.81435463455651 -4.409604208582466 -64.54284500592458 -3.6227217311405076 16.762547220018938
2.612591836 -5.85276480896254 -4.340736205828816 -2.3400254121960096 -99.03488369470107 -2.7427538748132085 -107.82537623490876 -10.554364282845071 0.5805573647757328
2.694204081 -11.005335324754675 -56.5335312218577 -2.2215838129285137 -137.85261448574937 -5.8345587380271615 -143.03067959310803 -10.511158706864626 -21.01604276296238
2.775816326 -8.617488077859365 -18.835063282229694 -7.645505568484041 142.53285866707085 -6.977615037767018 134.61585365312257 -9.039568675488303 5.742944704844348
2.857428571 -4.217174458394426 -59.152399226342574 -17.00937820810148 106.86799637253446 -16.675109170045065 107.99250533697825 -6.25480999048976 -43.550956823449965
2.939040816 -4.926171248173273 -76.03315223787325 -31.848377189111787 42.01609922597551 -34.140694757622725 -14.320554535121008 -7.396364186192567 -77.12009216478299
3.020653061 -3.959300665137662 -94.02213610178673 -25.271100200971595 -36.66999239366985 -26.5642293660113 24.163016106214606 -8.365869949535655 -114.62933917633342
3.102265306 -4.35021158514797 -156.70236230651767 -10.489113304203448 -76.42075738867784 -10.298448565639847 -83.44502332344219 -4.951653093634069 -160.69397296119809
3.183877551 -6.988744761065763 139.80481485220588 -2.8316407538731547 -130.46719251963114 -2.1574290856748117 -124.15693111151415 -3.6270288500881174 127.76636778380099
3.265489795 -12.923445520317433 135.37286684833995 -2.503353239264852 167.23247365151795 -1.9449258294097471 158.16793679423677 -12.94316010422695 112.73816303306496
3.34710204 -11.154416372314886 -173.18261246914784 -2.8736879651761074 146.68362306767256 -1.048445802468689 153.9505211635286 -12.4469387248985 164.85368900583865
3.428714285 -9.630859316600901 165.30590149043692 -0.5949608502771465 112.33357869860332 -1.9042799385267128 113.59178941006991 -11.22249896899759 144.86913531342927
3.51032653 -8.548947907473307 140.0738929348479 -2.429193452296184 77.57104028983153 -0.8393093973059484 79.36754919209875 -7.392383896240522 122.71829889786228
3.591938775 -8.629583081526196 96.96319664468567 -1.6433410842218028 37.30101425585108 0.5218882378923895 38.3358284171747 -3.1712426929507846 76.99808037542442
3.67355102 -2.0417083455728093 43.49952662217823 -0.746158016040039 -19.661916664115722 -0.042243287818162015 -16.739548238318296 -2.614455232934741 46.18958200328175
3.755163265 -4.454742354488977 -7.098321370085378 -14.629889032093358 -27.135902264318084 -12.446668747015156 -5.429532221614267 -6.537310733721372 -13.799150808410666
3.83677551 -16.950823415671785 -40.92484162587381 -2.7622942557083214 6.077889271287102 -6.256832712681037 -12.837631207961856 -18.98982812158974 -94.52691689898326
3.918387755 -13.073146221617595 -171.19311947226933 -1.0332963611000212 -31.4246640879368 -2.295082777636436 -51.466350899544686 -23.673853101257407 -117.34729229988379
4.0 -20.038934955119046 58.259180021921814 -7.033899525631608 -77.21880006718834 -5.110778921220457 -93.22797905469979 -14.685681211639377 30.444168438111213
