!Created with skrf (http://scikit-rf.org).
# GHz S DB R 50.0 
!freq dBS11 angS11 dBS21 angS21 dBS12 angS12 dBS22 angS22
0.001 1.5745144632912145 169.46872581885438 -22.850176838749427 103.85287276250088 -3.656533229907258 105.80198304248488 -11.714907948163777 -80.52359126340151
0.082612244 -0.1774129733360033 156.44165793175165 -17.509809655558023 61.95740438318262 -17.511669934650467 60.25167762797117 -0.17198017504264543 153.55243617766976
0.164224489 -0.045507276990112325 124.54726453138699 -11.774321360451614 32.19310039435146 -11.175310715588536 35.24587005236405 0.4256157164344931 123.75910060229502
0.245836734 -0.8828942969739599 103.26491357316038 -6.155181554869 1.5896390828066618 -6.903982047121381 2.478832133816937 -1.6885110965377417 92.89900872272554
0.327448979 -2.0964344299997033 70.25288715521131 -4.047376959404441 -27.474964309099015 -4.60696376261151 -26.883019574616373 -2.7891454032630403 57.918697283392675
0.409061224 -4.708707812200791 27.71142109903314 -1.4081173269063725 -64.2547078198159 -2.019769838300655 -59.46030388162009 -4.4747080592136 26.566680237026222
0.490673469 -7.936362378757807 -5.863143251212417 -0.3012710506144448 -98.9105830445584 -2.1363288967148475 -98.01292315397608 -8.513963738077377 -3.8444542138691884
0.572285714 -14.317006712360653 -42.55357980667609 -0.3872581631778037 -127.7719835315074 -1.1941266577751377 -135.7508573830246 -12.73989179638116 -38.88322573582805
0.653897959 -24.470588964580294 -74.11628964493102 -0.4543393486837065 -166.4055401464235 -0.20202439714873432 -168.36505588356792 -26.43662806201547 -70.55676079882812
0.735510204 -27.78905455080841 -12.392208782385557 0.09964983343251145 163.359309443545 -0.28094882656811127 161.63327641401526 -31.7599911332217 19.84393773895296
0.817122448 -19.789451677909785 29.512350940179566 -1.1848575563306927 133.4787642904463 -0.570458293625588 124.97987143834092 -16.46147434164303 -6.263167361968647
0.898734693 -15.385940028762949 10.729084536209191 -1.6253759251242192 105.33416298131873 0.5183396608572444 100.98471918698338 -13.41083451089078 20.12157455791091
0.980346938 -9.824622783284802 -41.6272556530977 -2.8180582556274225 63.6331212614945 -1.0783724106576087 63.09286764129442 -11.070048986858566 -25.658663646392817
1.061959183 -2.950190570480578 -133.07210904567083 -11.117028506452403 99.76351132687384 -10.350967852765285 91.12302210517046 -4.629880999649276 -142.61200483159658
1.143571428 -10.80332738186367 141.74291772968192 -0.051347338550632754 48.77439261499864 -0.6604905326741524 48.931007703531975 -7.045845824594622 133.92643649544615
1.225183673 -12.976945843422234 106.61658121616743 -0.46086690126157315 15.072922530783085 -0.7783037818616385 14.638118765744842 -11.642777719848265 107.5111133838451
1.306795918 -13.246019435681568 61.41408223024541 -0.6643803293836947 -16.558223718587328 -0.6961983494019262 -15.140488915021526 -15.129426634494791 61.843239835701716
1.388408163 -17.769319533635088 29.077375186717425 -0.5330911492948976 -43.16959993099236 -0.9638513018682381 -43.68889352948339 -16.1073088331901 9.877808316274157
1.470020408 -18.01368021702883 -27.938506713951913 0.6809105589432978 -65.72165932090742 0.47450564879053336 -73.37756216923472 -17.576517644382804 18.45405278323706
1.551632653 -19.22941215799433 -31.70654556729631 -0.2381353088110014 -95.38182931358048 0.571504352578573 -93.10607580947733 -14.088215374897448 8.551261030613412
1.633244897 -11.541293069619286 -109.99063366098076 -2.5076873904224053 -121.6182942416308 -2.316492082407658 -126.51473743954983 -14.669747757077044 -119.00418010682912
1.714857142 -21.484619694435388 96.75305103037002 -0.36580322136240595 -144.14863744623034 -0.30507111075321347 -143.4314624970673 -15.68481648252644 107.00798547262015
1.796469387 -19.84140050177587 55.30753864402779 -0.152392631423715 -173.98409887865228 -0.3543316608415886 -171.66645710356738 -19.6803243337442 97.56748127888245
1.878081632 -28.91993701046536 118.25384682067406 -1.2745019785850575 160.16991193165515 -1.1225222158193595 159.27115112415092 -22.488867493767366 97.8598808322776
1.959693877 -14.656244514065351 177.1367785314258 -1.4583817912466122 132.92320293732234 -1.6800114348520365 133.47728665276483 -16.783904576970556 -169.29638767190494
2.041306122 -16.38119293987238 -120.371620115629 -1.907034310739495 100.62224466220609 -0.5494211550191784 101.87376036601155 -18.12562543497468 159.5624870747632
2.122918367 -12.957041074425856 -169.46551919457264 -0.8591363757823329 74.72627678384498 1.5140240089188686 75.64976543655153 -14.035129675233907 95.04908556390397
2.204530612 -9.442659497197324 127.69047187850192 -0.10320927197756175 39.94841316469049 0.09091254484042356 46.488214390815735 -8.560748511128162 101.41764002470555
2.286142857 -4.55530802849708 70.96542659017292 -0.5541637113087625 8.19605856570931 -0.9232053752503804 12.599756262830345 -4.074756737570661 89.95304254000264
2.367755102 -1.1772872124521407 38.81952118982819 -1.9532736121207699 -26.121693414661227 -3.669093801624532 -18.38030447877956 -2.7675962808188825 50.61547004224743
2.449367346 -2.0876479050744634 52.00027408940788 -2.76923859165112 -38.53375378294814 -1.138026148275493 -46.403028998785366 -4.74955208241521 30.79091834439973
2.530979591 -1.9888297112883095 48.34326871179861 -2.301198257917277 -80.14066079571673 -5.027184624942026 -66.23084073879592 -4.730989076373431 7.133001981007121
2.612591836 -8.319009298100461 -4.704406569542919 -2.081191918901261 -97.57543510580211 -3.3385926462540643 -106.67916461281477 -9.234707511675332 -8.108642845304562
2.694204081 -13.27704969012829 -74.87691430619691 -2.0476550188932445 -137.70754981960937 -5.557457921798084 -143.38668872975674 -9.3182893678157 -27.944912000788463
2.775816326 -9.479509815343603 -19.589065980518658 -7.380807424608515 143.5505228964677 -6.511627463859329 134.3716348327842 -8.552494893958396 20.271053548140454
2.857428571 -4.427859089570753 -60.528663136945596 -16.780510784405255 106.73357272322731 -16.940802082245522 105.5176004945061 -6.2773556980951914 -44.34887222203019
2.939040816 -5.070858795473637 -73.94146612260211 -32.09545584932541 46.16257621820047 -30.446481079959522 9.027971902141505 -7.659432631778092 -80.03784327523168
3.020653061 -4.318605789361852 -93.18386647333242 -25.498033076875064 -33.173214396938555 -28.5096338348834 13.498690061648128 -8.03595494032301 -112.043715296416
3.102265306 -4.09104318000266 -158.4860641215254 -10.421817645496517 -74.86419855008214 -10.312589027394107 -83.22418563430543 -5.49947058033109 -162.5069453858992
3.183877551 -7.016023211623078 140.83061355293782 -2.672612608730602 -130.7629252805707 -2.214766953781859 -125.90171731747104 -4.4317882921836995 125.6756540897098
3.265489795 -13.485406256059838 138.33633704714936 -2.794835677770986 168.17766276763848 -2.430960835358966 158.35707563826637 -13.122036425336766 117.13993794281676
3.34710204 -11.26703256179711 -170.49782829035425 -3.04039266867481 145.4094689937807 -0.7943944838021212 152.5726177526693 -11.673175742323396 148.87036958789685
3.428714285 -9.60633279091257 167.46419481568034 -0.5401507306577474 113.22978295591197 -2.1440779986161886 117.07389264974378 -11.544298636703045 164.52628620047355
3.51032653 -7.803725280604504 139.86667420449388 -2.2033782569203124 77.93292934226032 -0.6345486458600581 77.0321448999702 -6.710250038274676 113.02371515106933
3.591938775 -8.851013601542244 90.5362976662484 -1.704710993304134 38.370683626106526 0.1571390244031953 39.45328748648955 -4.1002874708207635 77.18289503344074
3.67355102 -2.0382884673512516 46.533667362497816 -0.6741437818921712 -20.060715571370384 -0.11319466579307157 -16.600047093946696 -2.906119452905533 44.12382947914321
3.755163265 -4.643341261038518 -0.13025723495482797 -14.781966296053211 -24.000071435695578 -12.635944259796819 -7.862997133826726 -6.283443392595006 -16.724159516610328
3.83677551 -16.529454705913498 -38.43132927369321 -2.844865633509486 4.757336107463519 -6.281916561273571 -13.129435741147766 -24.633409310714423 -88.642960036245
3.918387755 -13.826158136343466 -167.32896661605744 -1.2561091769417496 -29.601587207598676 -1.9391283126997947 -52.20279726204211 -25.47065595451818 120.9366984704904
4.0 -31.165235759215896 81.65590799573582 -8.095889067012877 -77.49504641566695 -5.297042016503223 -94.89337352746342 -12.472730420432693 16.844238147950833
