!Created with skrf (http://scikit-rf.org).
# GHz S DB R 50.0 
!freq dBS11 angS11 dBS21 angS21 dBS12 angS12 dBS22 angS22
0.001 -9.497536422577998 -176.93633608321446 -9.870220527847348 -3.454706450253316 -8.842702531040146 -14.42855306258496 -19.336977892589363 19.71091866729164
0.082612244 -6.286873372636043 163.6555668109468 -6.06287192978361 -10.936556149943494 -5.9021547539926145 -11.255431312538473 -6.394850113572483 168.0792536494243
0.164224489 -6.293015971840613 140.33341062954275 -6.111828153489796 -25.746040185821574 -5.766837463752152 -27.287222485462387 -6.139690626508227 150.39398779937775
0.245836734 -6.257751528205161 128.6659468115443 -5.04598652702578 -37.92160356958519 -5.215684961056089 -34.93209196540324 -6.065987446370874 141.76857722427565
0.327448979 -6.552830852675911 109.07989240595961 -4.971508496225699 -48.23989394735461 -5.026366202646776 -44.31316921049239 -5.8250434715697095 124.6978465979704
0.409061224 -7.392983119153 75.28657734280819 -5.041666365503465 -65.09042207196678 -4.61006240560479 -58.281712592878165 -5.314617612596879 107.69115171084859
0.490673469 -8.658936331135955 54.684124723794085 -4.310827144261285 -80.31611493815035 -4.592227695430575 -73.38486721308831 -5.871716038917175 87.81897358429376
0.572285714 -11.150521363149926 25.948171991459976 -4.44440467871429 -94.41523219082029 -4.972279765328681 -88.51884420600284 -5.2603951562252105 70.26171012679308
0.653897959 -16.899944934347623 -28.328578279874414 -3.7455559124052336 -113.52497016813585 -4.081790289447488 -118.85044353152138 -4.755484696780911 41.891412220653706
0.735510204 -18.72017426507867 -68.15594349351632 -7.174054535000929 -131.53743664034099 -6.540851933686376 -143.18227722686004 -4.6988423285331775 10.086220968897775
0.817122448 -19.358456329631288 -162.7307879700732 -9.829654339139166 -135.70805197012916 -9.28481164643319 -146.60450753766915 -4.267123329076562 -22.93418988237298
0.898734693 -19.028144339376258 95.79723953741471 -10.622150776952475 -129.2850989648734 -10.625506150678206 -135.35478258356852 -4.327187576481492 -44.63609946486687
0.980346938 -13.7147933426779 34.92930639659832 -8.305601857317772 -123.51736812766744 -8.257696172600799 -132.75598075813508 -6.292725197067547 -58.82086399966861
1.061959183 -12.086033064948925 9.827707680826299 -5.645391932363281 -140.7232378917438 -5.932888029554818 -142.24639453719124 -9.871452546138409 -78.562934856384
1.143571428 -12.962556900892084 -18.122935691794833 -4.254479368560211 -166.18715053301844 -4.414005822117268 -162.64839182165426 -11.736610842769704 -122.53696135376256
1.225183673 -17.860009772262956 -49.7653014679711 -4.720121975264995 173.40988550031645 -4.714593096647054 178.25122111869007 -11.37748518714545 -138.247537577262
1.306795918 -15.649135201231772 -97.86326764173488 -4.725301457225265 159.22001560453293 -4.138995751643608 166.77153548876925 -12.490947678400087 -134.4355748762051
1.388408163 -14.19828801941976 -113.97554977369875 -4.192419896542299 138.92695205444878 -3.729851302145991 148.34990873041673 -13.550724912276932 -138.87267051261233
1.470020408 -13.528432372716697 -140.97394675232107 -4.411742825506389 121.72520436103031 -4.803410499878439 122.47181624398684 -15.76313892719962 -147.80097526560482
1.551632653 -18.536321173616553 -151.4028161216362 -3.5474974211751427 108.30788059181624 -3.940483841514445 113.29750708273008 -16.19208666224892 -161.5060392296798
1.633244897 -18.572510402945007 142.04527983648458 -3.7520507999647688 79.39059878692915 -3.5738105469879016 79.72195534723626 -13.413411333977601 170.96139237622128
1.714857142 -16.03578617741624 92.1237509746946 -4.665564150237963 63.803141906968946 -5.162556830098049 63.77481887758789 -11.28131222851798 142.64661262598062
1.796469387 -13.02528056737037 71.51359987355006 -6.970538830977819 40.518167327733075 -6.370213751143893 52.46291791635268 -7.1447926798112675 138.63823106208832
1.878081632 -16.464809125640905 53.9962270716715 -9.407610269852128 27.292892023294616 -8.266572701794095 36.364021332253145 -6.555310030614818 116.28943660709008
1.959693877 -23.51734986253387 125.35418740604949 -14.666037266598725 33.82039160295175 -12.371813278238617 43.7353360675741 -4.773789215108164 83.7767683003465
2.041306122 -16.924588468156866 -172.10064620386152 -12.907698032394677 70.60790998094723 -11.088816722124546 54.64810658317249 -5.015413105612762 56.423584603898824
2.122918367 -20.494406914854288 127.14694118678945 -10.616158983172443 48.82148520265792 -8.987778007737464 38.77543572962425 -4.351515878813023 27.68532929549249
2.204530612 -15.335367887666925 112.00804778624436 -8.828997989356793 39.44385818816682 -10.105576774348817 28.515018689423528 -5.536339945781268 2.4046161659526453
2.286142857 -7.836973237067454 51.335408318104676 -7.819409186136863 24.400669287208 -9.805664431708676 21.37153559380392 -6.871028578060059 -24.472076573446923
2.367755102 -6.86647802405027 37.846092030759834 -8.092961284333063 6.414020653103174 -9.630947747056576 9.070339397234205 -7.639794183672837 -39.98957422740447
2.449367346 -5.361910860193268 15.529216308231751 -6.646815007263159 0.10913884026468901 -10.819127200941914 -4.562919011630033 -8.558224688066607 -49.96106805690585
2.530979591 -7.5899924845385485 0.7342929913605825 -7.656353285086226 -26.492284497864677 -6.643664080817178 -12.999041871793422 -9.434660041607552 -38.38830724248831
2.612591836 -13.77073138952689 -4.056828771558218 -8.279698011526143 -47.10824770265076 -7.471528783789349 -37.59751717853721 -17.085348918264813 -60.95514886289779
2.694204081 -18.423260026569 -49.31697174786714 -8.322045537245026 -46.61371825607136 -8.057816384292426 -31.295224459801442 -14.308820186252603 -139.11873428512786
2.775816326 -11.894445859722227 -84.10367596378939 -7.053057176113415 -69.02023898676987 -7.527420789679543 -44.83009582920406 -11.956007829174276 -152.81174771456708
2.857428571 -12.465101636511662 -85.37604885177215 -10.57288740803459 -78.97128756461518 -10.084199106341835 -67.36421860991939 -19.536671837463658 -175.50325148929986
2.939040816 -9.50963172509782 -80.33048461822962 -8.17407046092573 -61.53165405089916 -9.97977554613724 -48.84956231260599 -13.004580057220494 -85.33641630875363
3.020653061 -9.862888168396339 -85.42306645790747 -6.930406543308055 -75.25425388980116 -8.516792700231484 -80.503350317549 -14.125914123287803 -90.34173084016994
3.102265306 -26.501820267277523 167.3970291811633 -5.810965259093626 -85.96515487952723 -5.403576812282578 -103.93607019945776 -16.73332391172363 -89.64965523612052
3.183877551 -19.800156867342068 143.86702650981695 -4.641488816607653 -99.74281632517553 -4.0227868799672795 -99.46504871612079 -18.321563148607936 166.76608471224358
3.265489795 -12.217744142344758 157.76845446990268 -4.467819711202329 -125.63523403677787 -5.140400481323807 -128.2032776011816 -14.426409251488765 176.4687900182756
3.34710204 -14.023036655255293 155.15807854802188 -4.058899693564942 -138.31356720944748 -2.598305289099305 -149.9503485544216 -12.341697525878711 156.33727538125245
3.428714285 -15.809836104976851 170.37045691547522 -4.283402090004043 -156.13535044644243 -2.5713238622446126 -143.48845689058308 -14.101172066962365 161.58985526936115
3.51032653 -16.80656097013834 -151.2203809893161 -4.686482273622837 -178.11746524625477 -4.084080562436977 -173.3050121504886 -12.830907932736713 160.7064190402625
3.591938775 -21.32058691048735 -177.39019515471156 -4.245237297183867 156.71518689572235 -2.064321734934547 164.14787404308606 -7.730917343924516 139.49235925064767
3.67355102 -18.654734323044995 151.53070960179497 -5.74633260478611 150.17646478816215 -6.272506711166885 149.11915587476165 -6.366193606514442 71.00944985350198
3.755163265 -11.966343350339294 115.46911359787731 -6.805288522022855 153.71817472437502 -8.554141091061714 119.27005994918933 -8.063829282938428 14.478096183298995
3.83677551 -9.151173202041402 94.05852726263515 -2.6865787373842793 140.66707721224887 -4.775337768208392 127.77608407844762 -11.369289201842058 -46.61234667372512
3.918387755 -11.308299462768066 92.80673187849621 -1.459804007850308 123.10522777971534 -6.483175390599049 129.17191663836388 -13.763633757642925 -65.16546763588411
4.0 -7.089052237403561 61.23329122430847 -4.007213038475697 90.10159874667838 -1.874843617892413 92.72782805844093 -15.885858917473627 -80.50318876776228
