!Created with skrf (http://scikit-rf.org).
# GHz S DB R 50.0 
!freq dBS11 angS11 dBS21 angS21 dBS12 angS12 dBS22 angS22
0.001 -5.912357134268338 26.675827556189915 1.5344122450128537 -74.06937012782274 -2.0971846066617585 9.371737539451159 -7.056569851281581 -46.39512764345834
0.082612244 -24.501098936509116 -107.44127603801715 -0.26128384208506594 -20.87925849338262 -0.20546045682221795 -21.255922945305333 -25.052735175483875 -79.66929323631227
0.164224489 -18.585563834899766 -91.16636079920393 0.011588765665683835 -44.59985451323168 0.4977331475101727 -44.79033193133268 -23.870696968698244 -72.41027246588679
0.245836734 -13.51340694867397 -152.4614870766399 0.49597360486700104 -68.80831044949134 0.17537793765788065 -65.12793973720764 -13.917037426707699 -151.5104576245084
0.327448979 -12.45521657516878 172.5227277187855 0.03511487676076923 -85.21962973811506 -0.2165487276458254 -81.81956356258286 -13.797322213780216 167.96247316164485
0.409061224 -14.00232110445632 144.35126645865472 0.04887457651193161 -110.48400969312225 -0.2647471708679847 -104.93508910026148 -15.161877993407382 153.28845944201893
0.490673469 -10.515007395497612 120.57811485958399 -0.19015118684416907 -134.35898904644554 -0.745559041491992 -135.2295880079818 -10.37846593555143 134.70822188158147
0.572285714 -7.326309248528399 100.6888989423109 -0.29489132445660404 -167.035552155453 -0.9291455726158775 -166.5133483214368 -9.429131425960405 99.14374281220282
0.653897959 -7.998570605473551 68.44275758447526 0.06005836201629351 154.00758705940967 -0.4101933346477663 158.79732567551375 -8.454844955633863 49.193436361634696
0.735510204 -6.431443781547975 151.353513647652 -2.803443869327325 74.80780671167277 -3.1861585793550944 67.67803696764561 -6.55582304894809 153.36110905896268
0.817122448 -1.2864050911696827 87.80563275221665 -15.171951410030498 -96.6118995733534 -15.201928705153595 -103.06497756892323 -1.4513019248775638 99.47397131946961
0.898734693 0.24299697688210953 25.327322778660623 -43.02433210390156 -83.06308859861116 -37.120919236001484 -83.3803973373174 0.21847000008105671 32.87427715557491
0.980346938 -0.10756169463251003 -2.772083204718635 -24.861898974179553 -91.23511005521799 -27.382810080797814 -105.62680831304607 -0.2450950795479412 -2.9104137961357823
1.061959183 -0.5572481574171824 -15.002682500747346 -18.86915868827733 -95.22822970320368 -20.490356394693162 -105.98392329028958 -0.5045120367613347 -20.019679295121858
1.143571428 -0.9381615545874513 -27.73099649827887 -14.342442027486982 -127.78190425076262 -14.805957403781505 -128.48112073706332 -1.4032018933485058 -37.55430066777565
1.225183673 -2.7608432865602275 -52.88776299876468 -13.002245859199753 -153.1277147156735 -13.137930644457114 -143.49197814854975 -2.9317682260775433 -56.59256578108939
1.306795918 -4.709328354400186 -80.77963247307947 -7.9924099419745644 -163.01937968806808 -7.455734070948463 -161.137696532334 -3.8807013300750937 -79.61467525259549
1.388408163 -4.663931155537921 -103.96257914423632 -7.318031543159415 168.60802830727454 -7.049851660243599 175.7355936719145 -4.5043511459854875 -101.3128862646694
1.470020408 -3.574713834472665 -116.78033194724017 -6.0109453420366075 157.40720936873905 -6.166447731638253 158.98706023953585 -5.084185391154418 -116.42285963831651
1.551632653 -5.620575449711898 -121.01061902008618 -2.655388654647946 141.39377721650584 -3.3556478571973014 144.6998643956815 -7.21759930792619 -127.03584563164021
1.633244897 -20.458006643577313 -26.081010067866668 -0.1197482319545792 93.99403887178516 0.125734221972684 94.4188218108385 -17.216823142553395 -58.84842994351824
1.714857142 -8.042138459084306 -23.23909122515684 -1.9962155730812676 71.08102262208794 -2.512434035223343 60.91395317930924 -10.013108536251586 -21.308699687071105
1.796469387 -13.639499977375355 -33.81009323107881 -0.515119379194987 45.3911415664982 -0.27854146502954136 49.411553735228736 -21.692583341274975 -65.89142243129905
1.878081632 -41.09568549299871 -103.49234366444888 -0.979094406219912 20.487660301877547 -0.6655395436336156 21.225037235790776 -24.766707018461606 -123.8039402149038
1.959693877 -10.851949164703662 -121.2843774838097 -2.7349644488395057 -4.441002367627944 -2.833638212911276 0.36886915823957633 -11.681270859333459 -113.36822922574578
2.041306122 -5.800227851583733 -128.50672279324723 -4.544988517528937 -19.248174267395306 -4.303393841845406 -17.496785570126377 -6.348603832569724 -130.50817605953938
2.122918367 -9.232072139252208 -121.2592340545965 -2.593014516555175 -42.18856580450892 -2.4587524958825613 -42.90836707440671 -8.626477464393439 -135.01992958486414
2.204530612 -7.9680695706559925 -55.26824328034278 -3.6581385691612542 -92.0402040284924 -4.918371048270236 -95.13623235736327 -8.939483399336934 -38.912071747690376
2.286142857 -4.769618344483286 -44.67341064387925 -5.785831865494001 -128.2936869173674 -4.471236598554536 -116.09060485035789 -6.32297568039743 -58.90703076414073
2.367755102 -13.738902011886992 -47.67531854896072 -4.618061189507247 178.57831346199004 -4.713112991991361 177.27134497078455 -14.062528102293705 -68.98752253665798
2.449367346 -8.899735235350947 -84.26069408449514 -14.96488278993823 70.52640932081901 -15.704261551619222 90.74901362248447 -7.816311428910577 -59.91094751649835
2.530979591 -4.129710754039801 -130.70829777226388 -26.253537137246642 84.71074490490457 -30.828113088796005 -7.795380386409362 -5.48692344761215 -121.87807104249609
2.612591836 -3.6930445918598287 -138.7832027965441 -29.76959211941951 152.09883884327186 -39.51602916775082 66.64001785318425 -2.9443911603240864 -137.66833637877878
2.694204081 -6.614025018018845 -129.65941452028335 -28.935833624826493 141.5485658011807 -20.638618067751473 84.29052220843285 -3.4495806894886316 -141.33588390232927
2.775816326 -5.899688509044154 -151.7628905881272 -25.357975086633875 81.40321413802316 -22.571153732788748 86.81709620052656 -4.737392198161164 -130.46660867394894
2.857428571 -7.505761353348525 155.19751907814012 -5.017794872252002 52.29597148293496 -5.119231315087539 54.57004273115491 -7.437122393458411 -177.1848094209875
2.939040816 -17.155631917979314 166.63245322831804 -3.040093050423269 -27.509319454654108 -3.1424477557714274 -20.416485689303492 -13.40199415841521 160.43845393125181
3.020653061 -6.7816241471456244 130.36589773583452 -0.48168508645097174 -74.68661881051281 -2.1709626120405785 -55.68141922772352 -6.715905031870621 161.40676029887888
3.102265306 -2.989364336288716 137.66021597701538 -1.2468724419124977 -100.47745379904103 -0.4751986916433186 -105.21544043329136 -1.037441808053405 131.95059927495498
3.183877551 -1.2023037687888636 139.90540167762515 -1.5904745510388145 -102.74163631477619 -1.6749188709885172 -95.4517656903899 0.15745545052815543 133.15079613549895
3.265489795 -7.222430679455959 120.71757065152849 -0.18177600352034476 -142.21536824476146 -1.4598573217422928 -146.52517640205465 -5.744880519868724 120.32567463585576
3.34710204 -19.280865038282514 -109.90095785077757 -3.580061171486628 -175.35684030436468 -2.195849044432716 179.1710139551637 -22.154634761987108 -146.9632864635754
3.428714285 -9.564269551665303 -130.707208673414 -5.504522962140418 162.57034668594906 -3.8216588463418137 172.48230440290695 -14.924656979619293 -130.10838111931136
3.51032653 -11.06363067614656 -172.929664147506 -1.4281414502214316 140.76419736580894 -2.2369185615306346 141.20281601401112 -18.298707606874867 -176.73299847724635
3.591938775 -14.632682335105397 49.59145978788046 -0.1988314171468847 98.10741664971383 0.08036716143402203 101.01974157021166 -10.460186911046636 102.76988148028481
3.67355102 -13.864543941173512 114.9063387979219 0.1978731204442592 73.69206868739066 -1.6382939929385512 79.58265820060846 -4.1029052392608865 110.89989568391886
3.755163265 -1.1996784953278592 121.98257126392814 0.4628310870293167 44.54155311447643 0.2771741492011203 51.358671860812805 2.208235461832315 93.80026717401189
3.83677551 -4.931866635648104 113.40465396552904 0.4946071014468584 24.53250522384851 -1.0234138357337421 23.279521930355067 -4.201663106704967 106.27504958048445
3.918387755 -5.900425614536707 -157.52577844687687 -8.41753279602925 -4.547048748134442 -5.722653395197996 -13.166825213907911 -7.124073523323418 -167.20579024692117
4.0 -3.477661133082024 -168.0139988787907 -10.354222125911154 6.098122817022489 -10.83422444304393 2.9937895894331183 -6.406783842568928 -160.28091106704323
