!Created with skrf (http://scikit-rf.org).
# GHz S DB R 50.0 
!freq dBS11 angS11 dBS21 angS21 dBS12 angS12 dBS22 angS22
0.001 -2.4406807904436487 48.96508964402898 1.2182692225851723 -57.73859810544992 -13.15911482677449 104.43706597447931 -6.64549802091953 88.1201621952319
0.082612244 -7.729236474971853 -173.99281901613557 -36.40699915531614 80.10445718283876 -35.85541118244608 84.66543338365356 0.4178738086316894 40.19436324395743
0.164224489 -2.865751381360653 167.53347849902417 -25.895430818059097 70.01337398853164 -24.51838142107475 60.146356741049765 0.5634806839439006 84.04411565827496
0.245836734 -1.9009928928651465 102.56741140646837 -19.805623014997288 0.4451672316204566 -19.130528195770417 -2.211205994944012 -0.025696196896681983 135.74356159652203
0.327448979 -9.691239212364833 74.16615581324645 -22.416961303069648 -24.591787958529494 -22.40930120316344 -16.99816140553767 0.18553754164196679 -178.0459189245461
0.409061224 -13.383309528553832 79.97233947566211 -23.38085354509365 -27.016364884704103 -22.673670439324134 -19.08589163376283 -0.6521899436366628 -134.37697473908526
0.490673469 -10.317124284958798 91.84914964569056 -19.191118648389374 -36.81834696701846 -19.35517363218985 -35.550558964847596 -1.1517293832719737 -93.18617370775104
0.572285714 -5.167204877663226 66.08880380715085 -13.469723607488453 -63.762168280419594 -16.590765762803088 -59.14907552594256 -1.4174267158421003 -58.088455417453766
0.653897959 -5.595812553799501 -13.422379908731283 -13.033001976321179 -111.46250193092578 -13.556437171267133 -113.40703956832665 -0.909761251377753 -17.81956051169676
0.735510204 -8.507192466506769 -93.26956350031413 -14.69599867378534 -119.45934312757919 -13.57795806253045 -136.03162885261477 0.1954266767765692 20.608372482369397
0.817122448 -4.559203823417095 176.9636797407462 -11.459527472504194 -132.599721644808 -9.26922041295628 -146.45000741469408 0.8553599783457578 73.54792352033574
0.898734693 -3.293218657046541 45.27558953821786 -8.809788894920969 168.71517205754395 -8.02616690414114 -178.84894192614678 1.0352619378119563 129.138377057985
0.980346938 -6.56756113990789 -32.12537994283762 -10.564994837744418 150.12455400624475 -11.457964713137368 156.42307823253086 0.1013190011598586 176.17184419276091
1.061959183 -14.14381666597733 -128.41491957765842 -8.916545566600625 137.71981799845776 -11.127360816527133 141.8023577284885 -3.1248112753738804 -139.878995775081
1.143571428 -6.282773313570162 74.6106171798488 -7.597716212512884 92.55107174477297 -8.733162633132775 111.45286445433482 -2.5931718226131233 -106.674650781957
1.225183673 -5.796846042005201 -14.2125267163774 -10.3201650041186 45.81583600911278 -11.688644354299091 56.03499340319326 -3.3727006900737413 -69.02178285066307
1.306795918 -9.13030327273978 -93.97680589045278 -11.04568170639645 48.784417339485195 -10.867322121615246 28.947454397903297 -2.5417839976266086 -32.400257853555615
1.388408163 -6.987660812409527 -148.30388567864148 -9.68443220338936 36.95693979930347 -9.00473738115763 8.350950205684635 -1.2018112239671321 0.605190161200139
1.470020408 -7.875773035277444 163.93128262381708 -8.239779393047792 13.05399389943501 -5.7405622737803155 2.2634303401429605 -0.5734773062298011 52.80610407656164
1.551632653 -12.484537999977618 -32.90689501904945 -7.020960936128313 -29.87263446344517 -4.2260294012747845 -13.537327252255597 -2.8988005762480644 122.61663698320724
1.633244897 -9.811782712358609 -108.31135124994431 -7.0046396760317 -51.88144475174827 -5.9283150082604905 -47.771342144860384 -1.609085290904003 179.58761971642548
1.714857142 -6.662956330869967 136.826741447445 -4.606959094930756 -72.14327487956284 -7.227220502471211 -68.2208244400018 -3.2069149286861593 -146.12452921640656
1.796469387 -1.7464374793664659 65.85086869275887 -5.022560797042495 -101.29784645509586 -9.142234452828323 -90.48408181864933 -4.364688873042635 -111.79230327693244
1.878081632 -5.835574414588512 -8.747842384686681 -6.141659218160177 -136.0339001279106 -6.518163840709618 -127.70813437741093 -6.105039297619327 -77.8700032450767
1.959693877 -8.186199536592307 -151.17109874676626 -6.8535179938099136 -140.3330479112661 -6.253127823865521 -172.72775435905524 -4.012077419182087 -36.4155350154046
2.041306122 -5.317416561490375 150.08219939464396 -1.7558233530503013 -169.25359701567095 -4.973692777089629 163.47458032053467 -4.217423620092258 -7.4578604703152225
2.122918367 -13.59587961442626 18.07561337731742 -3.217332906419749 130.07793739783813 -0.542700602140964 123.89152048129462 -3.65533870250772 60.10731716690513
2.204530612 -14.373739192455233 -119.54888923008423 -8.063668983314551 103.1128498273195 -4.494774960534267 108.49743236938683 -1.5879909044011817 116.10329489429468
2.286142857 -9.539132720985087 78.72353996718174 -6.853280364761848 89.71053013174604 -7.1381687539409855 111.2518835330488 -1.7281501874192622 175.1920146434409
2.367755102 -1.8813403276338252 47.09906227507405 -7.009840864127245 79.75783785690474 -8.091888750482749 101.06051932235324 -4.1726858855762 -141.80581822173036
2.449367346 -1.6243209851677032 14.407750323307699 -5.9551198585035445 46.5602963755002 -9.358346424771833 76.78078276161793 -10.052419097965576 -112.29874047539629
2.530979591 -9.797470391836043 5.651620887112496 -5.018317747103164 6.651774583750945 -5.924391443315544 5.978239890542316 -7.828657434993357 -35.27317052024297
2.612591836 -11.567078745075134 65.672066457147 -9.919722706536758 -33.95568101830913 -9.604164193760354 -28.08643544863653 -3.684160469136745 -19.549798691262502
2.694204081 -16.912592421630475 7.540284679838395 -10.809869043479441 -24.523557282171716 -8.12894571324175 -49.51966264731234 -1.9915613823839187 4.6152204290924566
2.775816326 -9.014299516140463 -74.637907349525 -8.261785541102943 -45.99771175661908 -6.643597216368795 -58.552058094907565 -1.7113547930974842 32.791157868625696
2.857428571 -8.928314824354295 -84.6265978328743 -10.93999562616741 -78.08533401020738 -7.052185834088634 -63.92414963040125 -8.901932831732804 123.20950093894201
2.939040816 -9.412774086894252 -71.77822343676308 -10.11899805682587 -97.16083456953193 -10.618230448262134 -75.98811652547678 -11.512124775275163 -134.59290643396977
3.020653061 -9.937765883360857 -49.66177379005521 -11.65079044191831 -116.90953808012526 -12.660812922894989 -118.63554367412682 -9.054288426840433 -105.31108377586918
3.102265306 -17.04463649211137 -17.613661399071326 -13.733040849843412 -122.89211552972243 -12.989625527531528 -143.96136560294275 -6.644549771329514 -79.51704583520414
3.183877551 -12.684146008027028 -179.83093571430757 -12.651700888014158 -135.31593093968638 -13.261195324578576 -139.25670502367265 -5.152168116478829 -54.200608379872676
3.265489795 -9.23397994677043 165.0313376688751 -10.910449658231695 -156.6147583873974 -12.623048024137749 -167.34085554352978 -5.218181517778065 -27.847438669980445
3.34710204 -8.908625753207287 164.85305660382585 -9.079915508068376 -155.96959060143894 -8.321790825132542 159.8894837934234 -7.6842992812379185 25.400472726933298
3.428714285 -13.318903675483263 -162.88506242487722 -10.347448892471213 165.55563846344788 -5.065334117214558 173.97065338163983 -5.542809980235114 113.58876234871633
3.51032653 -12.942211320685272 -126.72553720515846 -9.670588791962913 136.84370317057807 -6.315663650543976 153.3913205285364 -5.2740169578820515 162.00960689104912
3.591938775 -31.056209256838944 -79.64329009309287 -6.692788395378066 116.32724019769768 -7.433795813874191 137.94610415341666 -7.410834612203091 -164.39919045839656
3.67355102 -12.279338677208187 47.8672719260151 -4.840617120175833 99.98180758202646 -11.521132934074751 106.56089672055442 -8.494060958475302 -122.28561176409443
3.755163265 -9.056255490040876 56.02413152766752 -3.9053551129040827 66.62124504418186 -7.172913954503701 67.70730384351005 -9.887156632774607 -116.21795522467457
3.83677551 -5.235738080083115 119.36016461014765 -0.9363546589634676 52.19406971456949 -6.773601907961745 33.582452144135374 -17.791185715963955 -49.31528835271115
3.918387755 -6.318211248948947 123.16925307198727 -0.8334158008858594 15.906912908174384 -4.049790248342575 -14.583306050073473 -10.136940582172064 9.270316355639691
4.0 -13.484943038033643 146.58869479182954 -1.0267767780173247 -26.95642626777534 0.36585707650753024 -25.164386936485112 -3.858198426228217 44.096480402831126
