!Created with skrf (http://scikit-rf.org).
# GHz S DB R 50.0 
!freq dBS11 angS11 dBS21 angS21 dBS12 angS12 dBS22 angS22
0.001 -8.559328112839637 -156.6180858469441 -8.935342170787635 52.15712311778179 -15.73400119118726 -24.708928145509844 -21.51581507666625 168.9080035585518
0.082612244 -6.353876364720211 160.47195241039253 -6.0813849799051205 -9.358142450299663 -6.003593542870057 -10.551956782341925 -6.090518295413462 164.64202363761106
0.164224489 -6.438323399257708 138.82344049931692 -6.061229320423993 -26.746127018978946 -5.613140004071644 -25.815610215057198 -5.926771575939079 149.72601302486697
0.245836734 -6.540132055195994 127.56493892998454 -4.483368292929621 -36.41770567847382 -5.144831367568935 -32.4357680014514 -6.702878451359339 140.6315054442488
0.327448979 -7.531573104333581 105.56187876182908 -4.689355890024603 -47.35417918556391 -5.323496086670354 -42.516873955197426 -6.55012802529029 121.88772786455648
0.409061224 -8.402374863692312 77.23803152835318 -4.474349201039518 -63.082397530756026 -4.7920443849311765 -55.98491485876707 -6.048594017386341 103.85897686354554
0.490673469 -10.636241203930066 48.83995609834497 -3.986215742187793 -78.07852153318007 -5.14279689307603 -74.84486882989137 -5.043120268317861 82.8189823279424
0.572285714 -13.862997816989203 12.901385549866264 -4.655728869428323 -91.66318640007259 -6.266478330833412 -95.31135769774679 -4.221508692847982 58.47387176631798
0.653897959 -18.286407018478364 -46.68823371786662 -5.594129089833412 -109.61080947656933 -5.47291597204423 -122.28136298763853 -4.0207651981190775 40.85482481938581
0.735510204 -24.313639674078157 -129.70919013098006 -9.816396735622222 -124.89898553059507 -8.312259780169699 -140.18416178872778 -4.387439421076806 -5.192087257169952
0.817122448 -19.988477633802923 107.24769289019369 -11.523174059022093 -109.45728031049603 -10.076597638051759 -115.13418579777331 -4.574984792673931 -33.56055393056038
0.898734693 -12.601791443087754 50.06376535425541 -8.100022937817787 -111.0791395319087 -6.88243166097564 -112.79875270185357 -6.978100535486739 -47.51474751145399
0.980346938 -11.774960245845826 10.593501243906875 -6.099681899519115 -130.7251360692849 -5.012765027588943 -126.2552050782176 -10.484851419791221 -65.76782357658242
1.061959183 -11.697574958889119 -10.72474604845962 -4.8209117852232115 -147.61701365589855 -4.124126143073588 -144.83112578760228 -13.440911561746752 -78.61197254353338
1.143571428 -13.182850592351716 -36.32126832250474 -3.7288203704136413 -165.86882948602494 -3.924750155414227 -167.48642556765478 -13.54412428334442 -104.56689940528233
1.225183673 -15.583493192232487 -68.22937691129384 -4.070040808859441 172.04473952801817 -3.985188673495598 173.32714469427438 -12.541288522915286 -122.01279950539593
1.306795918 -14.410686962939556 -111.62483467059661 -4.358017980622571 150.05954937693122 -5.099228756252289 155.626340104331 -13.177085731771317 -122.24160912515958
1.388408163 -13.669468384571573 -137.29418083477006 -3.93159157384153 137.09051909443235 -4.330700197078859 136.4435924938756 -14.76261703946312 -122.76766913524698
1.470020408 -13.728261441964406 -155.09383429764583 -3.1496905271811766 123.1650237375376 -4.069736825132248 120.49928553991796 -12.95162339927428 -139.39831207908955
1.551632653 -16.942031729401922 135.01936218851594 -4.708395438251127 100.60283367014617 -4.799897441780608 105.47520414918664 -14.64014560683173 -150.20567260980533
1.633244897 -16.32161357407544 65.85574210956212 -6.000457633619524 77.1884487949973 -5.89033199412897 81.90284586492577 -9.841329878307373 176.88045743988553
1.714857142 -12.76937176557238 40.96971148397331 -10.265021827493888 58.67593335779229 -10.137336915521766 66.38027881897563 -7.080128701941026 148.0857862295268
1.796469387 -17.587824570676663 55.2277430604627 -14.079939195559847 76.56376555038757 -12.723725701453507 82.41487493466664 -4.739083553877006 129.1874277240548
1.878081632 -15.58648114092099 177.09289153862952 -12.857915681747038 96.35919826773943 -10.5207046298478 99.78821589930104 -5.145608316789385 103.93658202809401
1.959693877 -10.256283574227222 163.66782674334584 -9.689213277543542 89.81198881479791 -7.840927529310622 82.10265732826657 -5.180070616980267 63.19935796323227
2.041306122 -12.574012571217724 137.88478942152778 -8.294431208670016 75.11949747508804 -6.397437218307179 63.466598904722346 -4.302673550500755 34.75729089100068
2.122918367 -9.556152430033809 96.74869803236693 -6.618310587900272 61.92441038866302 -5.5395748186414595 50.73002708659543 -4.482286116782291 16.136067090488137
2.204530612 -6.173953862155801 52.268040612838966 -5.399458624587407 36.3651935222315 -7.32164228290218 33.79307170906593 -7.588389535407777 3.5355010189557774
2.286142857 -5.277181552895394 29.23528990671812 -7.239951937428569 25.564494413857066 -9.444488471808516 21.933958600530172 -8.859149506467904 -23.559275487780607
2.367755102 -4.682389395362504 16.157214723458257 -5.927513856415021 20.446885898530578 -10.168339467212139 22.82320426790813 -9.122880173561525 -44.92735065888074
2.449367346 -5.594850569730316 -2.321786516855854 -7.099870413096524 4.023889235856252 -6.851247292478774 -3.397862258994697 -9.872673558933954 -53.194001517389324
2.530979591 -5.720566214701293 -8.394488347853244 -7.656946228832 -23.024372292171932 -7.00049393454932 -2.3387059263916647 -15.955068161880003 -61.12406895761879
2.612591836 -7.68152530122161 -27.86312962739034 -8.557103078332972 -20.67632579294264 -6.599348730490949 -9.983176989474618 -11.68505078298663 58.02028751948859
2.694204081 -9.499936767424215 -39.94209347522943 -4.950381622661183 -37.2658733782394 -7.902493818726521 -17.4082831851266 -11.623276445766372 -1.7004239994228327
2.775816326 -10.123843970692468 -69.23090385826983 -7.219577317658038 -46.94750724914875 -7.968865503743747 -51.53326941416883 -14.431198191539806 -71.68072847206378
2.857428571 -10.67436039898595 -84.76523347705627 -4.442144232533349 -42.08172984408279 -3.8654161871177735 -43.60047317528955 -15.926224404336528 -74.29944822834096
2.939040816 -15.003642392583709 -87.39102985899635 -3.438007068428121 -73.47808102574905 -5.002645718802175 -65.98143999244229 -15.372904201811195 -82.24042096054373
3.020653061 -16.420614228522542 -59.41310444684169 -3.5855275644162568 -82.7969539607377 -5.989239600656381 -86.22426928648206 -26.472746000040726 -139.0709287181577
3.102265306 -23.418001768824674 48.416084837219834 -3.0751235616375734 -107.19499487747433 -3.0082982239579197 -103.69808781651226 -12.887693184855195 -158.85040453512832
3.183877551 -17.823913251926573 43.630680017374175 -3.6772713321204273 -131.9221928637466 -3.5707871214763793 -125.6894293910202 -11.864090200180858 179.45040311517025
3.265489795 -25.237177589970898 53.69695223466198 -5.593209990193041 -140.35881229303163 -6.9732168411434925 -133.47126522215947 -7.871365827653804 -178.86069280732156
3.34710204 -16.952146688696267 -117.63047734872417 -8.423897323913918 -143.38984666519517 -3.3805325641907484 -131.74988000841313 -5.891372904036417 143.8097968446956
3.428714285 -19.240573922184918 -176.31324370697138 -6.57891803803248 -143.7005856782081 -5.360702635229434 -138.37350751339653 -8.640729655780873 71.1403735568415
3.51032653 -13.36414774737461 170.07313014988736 -5.92850453691751 -158.64008488788824 -6.557691643424068 -179.3852568557665 -10.04783813979461 30.283475147455903
3.591938775 -10.973395563889984 131.81322393576176 -2.9875257694482555 -174.06278845086166 -2.7873341899595627 171.4780845931409 -12.809862447258238 19.946920073129768
3.67355102 -10.45606448952263 104.54712183278454 -1.9579892907415977 157.43698777011323 -4.521619289999316 159.4828095140277 -15.337797842687102 11.63986104097989
3.755163265 -6.824750696691247 73.25569818450379 -6.950015389195631 150.3144007500342 -6.177655603582684 113.73152341461277 -17.04716044754365 -59.67369756820002
3.83677551 -9.472978714320474 78.47485114402414 -1.2821912761192966 135.03896993499265 -6.20898814106726 144.31061023010818 -22.36497504962942 -74.44897594344874
3.918387755 -13.351343319221032 68.4091611419191 -4.232553738484557 89.44915172263084 -7.774440163511779 88.6834282172615 -19.443310137273745 -76.89747162900234
4.0 -12.325678284964392 13.962642653378747 -10.873265739161212 68.76214140552062 -7.244588956272086 61.556074067667176 -9.676762369551694 -22.839139681615922
