!Created with skrf (http://scikit-rf.org).
# GHz S DB R 50.0 
!freq dBS11 angS11 dBS21 angS21 dBS12 angS12 dBS22 angS22
0.001 -1.0429283428854543 177.0776450814685 -11.970607479378037 95.54599095111139 -11.5795971706141 -8.796282014152018 -19.746302504743486 159.7244865683251
0.082612244 -6.242858092986074 159.76393583956636 -6.019490270852254 -9.081824033782869 -6.0709729159980945 -10.580989256222415 -6.0923100509195525 164.6881947962093
0.164224489 -6.496373848888727 138.4298156038758 -6.077214841532382 -26.510897685886512 -5.590703213286358 -25.104578463366387 -5.8173838752165175 149.84782706937824
0.245836734 -6.259464630313327 126.78022485835919 -4.444637078298388 -35.92903342690146 -5.1724748951686825 -32.594572514347796 -6.802070719681726 140.115195580087
0.327448979 -7.353191301280377 101.12472372847127 -4.634814671758495 -48.10584838899254 -5.360130288536706 -43.56886475649266 -6.324667040127517 120.37089220930405
0.409061224 -8.524987924879854 78.1001127297122 -4.472116163223753 -62.71733946675968 -4.639657970730655 -56.15002503428304 -6.043623205587455 103.47250983335323
0.490673469 -10.599015560436523 49.99978273872388 -3.992818955065227 -78.38052274774348 -5.203422688402738 -75.4355039522474 -5.093615002789161 80.25394704174464
0.572285714 -13.383684152276928 11.469171368786906 -4.702476935695584 -91.55911634192623 -6.244339889560782 -95.29976506534807 -4.396680182944134 58.18976999353733
0.653897959 -18.677626355927003 -45.130183717314495 -5.499860581390114 -109.44985386275889 -5.423636822848127 -122.37802109515276 -4.210303297494028 39.136780892590295
0.735510204 -22.864878878958336 -150.45191514876174 -9.84687163493372 -124.22241048166627 -8.250744874588314 -138.98012706541522 -3.98103659372725 -6.373724626235239
0.817122448 -19.218333244368267 108.37541410551233 -11.454054793192913 -108.90467914392096 -9.951717603823914 -114.95275778536707 -4.728699137398816 -33.28791560957114
0.898734693 -13.415699075604092 44.84855358717535 -7.998837061259704 -111.204384379024 -6.728929744227963 -110.75430720842276 -6.798476949433035 -45.931211603004876
0.980346938 -11.798043856033118 10.80291257809617 -6.127868167760596 -131.23662059897822 -5.072982743229709 -126.81913760500498 -10.848739975337939 -68.49143593863698
1.061959183 -12.014760833136716 -13.038970306052327 -4.737237651707079 -146.94869900184096 -4.206373118802873 -144.80088966655987 -12.260888188918775 -78.93441794030157
1.143571428 -13.854269359537607 -37.87098736998351 -3.710837871049344 -166.25297054654692 -3.952143423852471 -167.66303409940326 -13.621472572610312 -102.24111809540733
1.225183673 -15.421677952272825 -71.84672202498972 -4.136655677045816 172.1215928665122 -3.881326472811914 173.82915407986647 -13.430075064880342 -127.77776246359242
1.306795918 -14.109684612236439 -108.1339846764217 -4.377692833495986 150.0346289476196 -5.076708426141869 155.1799718119827 -12.293524505909119 -123.90994815138134
1.388408163 -13.527403403927067 -134.33304048378847 -4.124617457150756 137.6202899850788 -4.4114359642951095 137.26478567641962 -13.05606618897825 -120.46428369238254
1.470020408 -14.073059024080141 -157.34692684064788 -3.2839068501670674 123.17734915568352 -4.043377188812016 120.0355924522038 -14.084701151856658 -143.31489682211995
1.551632653 -16.134133761000463 140.27747373254584 -4.770641774778685 101.2914524558697 -4.751303513459627 104.62424250622979 -14.591816058711704 -143.53559308235583
1.633244897 -16.127058773453683 68.81885737061516 -5.903193414218534 79.08799057767679 -5.946372606230881 82.79016973795665 -10.470741261831337 -177.7883892172593
1.714857142 -11.561069064537596 51.69215731203907 -10.109651071823649 60.97855302029125 -9.817962212271956 68.30086949604485 -6.657574795694306 148.660683816439
1.796469387 -19.172616978943346 58.45882562682232 -14.232208980133276 77.54966213233537 -12.840932096188865 79.67572284726178 -4.938014780410703 131.2679847331772
1.878081632 -14.277697834696518 179.1654112878482 -13.137848464551034 97.2112781093718 -10.086539413654506 97.8284850128642 -4.909908958085659 96.54496909627595
1.959693877 -11.122050235161133 166.5883921479858 -9.68064559714392 90.76557795717862 -8.080719433128055 81.40767707341372 -4.917656050143248 71.16413457126932
2.041306122 -9.915535703770024 143.43618029774555 -8.13484874519214 75.10825412639157 -6.2646523962659515 64.31324970532745 -4.466152508803957 36.021848498322896
2.122918367 -8.949341847025813 86.25278253149597 -6.3798755798279725 60.06306574087786 -5.685064361231277 48.73128547195634 -4.561699705698656 17.5281924896085
2.204530612 -7.15203992608394 47.154838386486354 -5.450464587772622 34.898807568632975 -7.773402195320709 33.779344602002205 -6.5502032828922205 2.15101134715552
2.286142857 -5.800684346198421 30.108318608292578 -7.383586349820952 26.5075307629768 -9.232072412725639 21.001910520232087 -8.145200479205405 -21.546785728766185
2.367755102 -4.637723742055479 18.05208120518557 -5.832450186839698 19.57602117465588 -9.829694903384373 21.16604263244085 -8.670471985734372 -41.57613560240436
2.449367346 -5.069191197562397 -1.3863057536391317 -7.242634151528029 2.303493703246421 -6.684223465918224 0.22152972986892844 -10.449521547577982 -51.30248691750649
2.530979591 -5.98886203712913 -15.529518347496769 -8.170554755712356 -21.06973518980313 -6.5928570487485105 -2.8466286516656614 -19.89741024474554 -51.36733650576182
2.612591836 -8.624556974560258 -31.39880708541134 -8.335474912298825 -16.44883291716184 -6.023936355290589 -6.627928831543979 -10.80027136770381 74.98167036879344
2.694204081 -7.56905194268634 -56.74899920015925 -5.445020579493859 -37.14859102589962 -7.554676039510193 -19.147277062250218 -13.042051948609627 -43.213980557627956
2.775816326 -11.22887843784914 -73.79137569939692 -7.154048918392446 -43.00387525980073 -7.6788421089556325 -45.926056182729745 -17.568404259194523 -82.08776508097058
2.857428571 -10.799384865568452 -75.27975394097095 -4.33836803168686 -43.57783875632164 -3.708053378340388 -48.13477175841732 -15.222010481194616 -57.21074401735856
2.939040816 -13.578767524885443 -83.64061559657677 -3.703127907630498 -73.57562522245411 -4.793634373979932 -68.56837261800827 -17.428783221443336 -64.80597093203087
3.020653061 -16.033117228989575 -65.57190624344007 -3.67334214986684 -81.85526748648327 -6.062704727024445 -85.4135773768972 -24.43119088267048 -137.66850667646727
3.102265306 -23.068773671303894 33.00622738387443 -3.3433852077794275 -107.19938243092354 -3.0848948875398885 -104.70278453266411 -14.803909139419904 -149.9226403286154
3.183877551 -17.933243620003054 49.739784942996394 -3.737868323962709 -131.00740675705268 -3.474466022718095 -126.73163855911899 -13.287660132919905 173.68291304962315
3.265489795 -34.36992676338668 51.46190012484306 -5.766033164797484 -139.41429517994553 -7.057721480603152 -133.027502421158 -7.801441653070141 178.17271266427636
3.34710204 -18.952222143385793 -110.24276575679755 -8.333133455444724 -144.4790704233533 -3.533507376650987 -135.03187740418107 -6.06857086021154 137.1455957613243
3.428714285 -22.494062318108526 172.85087373154138 -6.749082446485543 -144.89657961949132 -5.155713379984485 -136.72314722925498 -10.155681963631624 74.61482353564277
3.51032653 -13.89089681343205 167.99572351220846 -5.9866395541573505 -158.0455327060688 -6.380793501856033 -178.06171299656427 -9.609410809746786 37.50451637857653
3.591938775 -11.703253056838612 127.54990201490428 -2.962766152051378 -174.3549546771742 -2.8018267313888328 171.97388422510284 -13.568441453254716 18.451923009240616
3.67355102 -9.711223909393938 99.83830383497745 -2.02134206955972 157.26803907717166 -4.563731514900556 159.04044003195727 -16.166020996868703 17.886033475184792
3.755163265 -7.611150527825822 68.0964792332059 -7.30067406456903 149.28898128541442 -6.187657258615538 115.4428650226234 -17.763083782260747 -62.37158775592934
3.83677551 -10.365703014915844 90.84087839213507 -1.333340814964946 139.13979564576132 -5.784950720089478 140.0271210242334 -27.32755876419473 -37.90482718332107
3.918387755 -11.18955361018382 63.53697376277759 -4.01496474411048 89.39606855260472 -8.010809065708791 85.64953134621416 -21.812209189785424 -62.745073919072865
4.0 -11.970100428805484 4.953878517055329 -11.050969312968897 69.50099314186474 -7.717921250430786 67.56368882127312 -11.749692313927369 -37.400845340099934
