!Created with skrf (http://scikit-rf.org).
# GHz S DB R 50.0 
!freq dBS11 angS11 dBS21 angS21 dBS12 angS12 dBS22 angS22
0.001 17.995400382209642 102.17632172900872 16.286670035916554 18.27344926108344 18.573011754295628 40.06599078619559 19.184627989508517 -49.46298380362913
0.082612244 -26.388642067967382 -110.22416139321344 -0.2686065049800759 -21.136016870021056 -0.1711146588885372 -21.394998284757357 -25.04175922705555 -81.11946265449797
0.164224489 -19.480927412415163 -92.5836962869288 0.0021863271392803295 -44.64026842744628 0.47328965118826 -44.57542913604065 -22.46548177489568 -71.98072942697486
0.245836734 -13.256958529686237 -153.21375074505463 0.5007482404076992 -68.81924231455908 0.10873731829735928 -65.42953878522815 -14.212662378312677 -152.24637308154198
0.327448979 -12.676809601933979 167.52455091227176 0.07042896436472529 -85.6492008486197 -0.1591999946385197 -81.61500040888161 -14.044028628061834 166.61106722879504
0.409061224 -14.525795101752008 147.2845127169448 0.008533488942700907 -110.18168916473071 -0.2927941488442909 -105.00464554688284 -14.98051877404907 149.04293484498953
0.490673469 -10.40704907551204 117.51388800892374 -0.18504263911752855 -135.08560107718066 -0.8234401263312129 -135.21369512339513 -11.04653728318723 137.90899167363494
0.572285714 -7.349982218382664 100.89473744031046 -0.3156846968674149 -167.04357609861088 -0.9714531566987059 -166.72678456993467 -9.475761818270861 98.11524882543083
0.653897959 -7.946728022397302 68.3501612473801 0.09766899616838721 153.75417996294027 -0.3841792377277156 158.73175088902352 -8.860171195920202 49.79296179197051
0.735510204 -6.5204312238361 149.853719158114 -2.822530841256551 75.20494872098698 -3.1114865283434776 67.73061522979509 -6.6360755605535795 154.71150969187977
0.817122448 -1.1462125207222271 90.13207972931475 -15.239378613237031 -97.83095279570362 -15.416641406479307 -104.49092852533124 -1.3522793641895137 101.4155798764655
0.898734693 0.34607106052636777 25.2453179004041 -59.10668574299195 -34.991783424338045 -36.062990654444235 -107.49333302120955 0.05627688202907376 32.72518590956145
0.980346938 0.056640388717536835 -2.372967964760654 -25.19020585926047 -82.1316288046191 -25.83892385347555 -111.46993118324407 -0.17411572423366367 -0.814839551489648
1.061959183 -0.4714039960364727 -15.419506583142491 -19.0570450376091 -96.82669497512693 -20.339372130824 -108.734557494223 -0.6435632640684198 -19.96372075400322
1.143571428 -0.9558082208887096 -26.684683965230086 -14.193567775035042 -126.64476089244805 -14.393799435581114 -126.57229652945384 -1.4957835303016047 -35.59324459858609
1.225183673 -2.9336763831786588 -52.603545906314366 -12.8774733726796 -152.05833142220098 -13.309818700963891 -140.8842719002039 -2.756736077804862 -57.111751228041406
1.306795918 -4.856523891860973 -81.13034993052393 -7.970048048284092 -162.7385842818307 -7.590690434613557 -160.82943016721975 -3.758078003884707 -79.64787588595108
1.388408163 -4.797263094737789 -103.76071666405755 -7.381432678741218 169.0492013922453 -7.110829074465056 176.26877998850202 -4.539976914289489 -103.62070030665633
1.470020408 -3.6377111163460563 -116.46002307487 -5.9974153781959485 157.93339578987212 -6.1337648930105875 158.36868253610066 -5.018486694851304 -115.8237485587843
1.551632653 -5.833436402604941 -119.93569633560254 -2.716689811597055 140.4850021299868 -3.305955376463012 145.31373015927196 -6.558535909605086 -130.3079200740337
1.633244897 -20.38453889660062 -26.501294646375314 -0.1258443249262939 93.12668827333509 0.1520213666696513 94.9289944127484 -17.978107777958567 -85.93717132783149
1.714857142 -8.044777184668177 -30.24325592587881 -2.1263383158244205 71.25793767281344 -2.5884179570752215 60.35324977191951 -9.59347276900678 -23.210666558885357
1.796469387 -14.493442504520583 -32.21728461147614 -0.5059591038157827 45.15100371750011 -0.3463811854550659 49.7678685125704 -22.13368719603945 -66.33890112200872
1.878081632 -27.75145206997161 -82.42672579805682 -1.0880425383023855 19.832159264180632 -0.7311694127501517 20.35023304208853 -21.22782890408239 -106.01564017189747
1.959693877 -10.63851423381717 -119.01877999314935 -2.848840385722249 -3.049995950555432 -2.9364374834163094 2.1512868185725003 -11.41544299963484 -115.85490956346614
2.041306122 -5.96474718470507 -130.69208724710987 -4.354825446674452 -20.18697919229126 -4.101124628582424 -18.575212098432445 -6.757786430647007 -135.22864080758137
2.122918367 -9.364928110624614 -118.72710236202448 -2.513396805715584 -42.42879796215329 -2.3316681212198445 -42.110723817535025 -8.520976537531649 -133.04484707318045
2.204530612 -8.156557471000362 -51.997739462064786 -3.647472262631757 -92.8637838508256 -4.914525530164806 -93.9354903974936 -9.458933572381717 -41.73850522155587
2.286142857 -5.078198425089838 -42.63516112638295 -5.6441894662671475 -128.16976435563748 -4.675983424501037 -115.01510763872773 -6.323197294729096 -61.430878894337134
2.367755102 -12.695001592907008 -45.211532134001814 -4.755230153647386 177.56898387483275 -4.660578462693444 176.7624994921785 -14.01988583884835 -64.68762199207198
2.449367346 -8.889108620205127 -81.00037158791845 -15.256995123577452 69.48860556498691 -15.415918817927285 87.42028413976404 -7.504623102887607 -61.3965949654879
2.530979591 -4.3947084807179815 -129.6708450053525 -26.80744260218669 101.22483734043553 -32.705945244889406 -1.7043579149684454 -6.138381817375988 -122.16990757023827
2.612591836 -4.181440933189516 -136.44810027571114 -30.637325383330438 162.891610762512 -30.326943281791788 28.60359459299773 -3.6181518737206426 -137.29426661546506
2.694204081 -6.27792011527771 -131.24410720668334 -28.668940050585086 146.18193558520233 -20.67691905523462 83.41747133427371 -3.449323074006987 -136.43911498631982
2.775816326 -4.940950730187056 -150.9294124864079 -23.51532662619801 90.67824323071484 -20.745292803503972 95.22050472592005 -4.549829342638739 -132.8529743758429
2.857428571 -7.552737876182074 153.10071019488436 -5.036036241469642 52.57469324549933 -5.330069333775594 54.623106325084635 -8.157285219736776 -173.79974462640524
2.939040816 -20.52261183622182 -174.84286651268795 -3.3145589700117806 -29.52163685977761 -3.0421692063511037 -20.30493831086039 -13.897001147456507 154.46751991830988
3.020653061 -7.28147861776176 131.57326903520186 -0.7855999817955552 -74.7836176559445 -2.068703413234001 -58.87083961481958 -7.497457656840734 148.8264662822027
3.102265306 -3.2094579103962517 137.49645403290867 -1.3429423191648118 -100.41997326060147 -0.6286446546388049 -104.87857900030532 -1.424689538439444 132.83063105475344
3.183877551 -0.6276545344368081 139.78211463421005 -1.2414461612859171 -101.78341484928985 -1.7553084919066557 -95.40165517451597 0.13632474968639502 133.4953923274233
3.265489795 -6.988254601253809 124.0319999644237 -0.08664506010278686 -142.46520860518186 -1.5916625798764936 -148.2467224375455 -6.852561190748631 112.3438512143947
3.34710204 -16.713245931033377 -119.15308074045686 -3.738849659844746 -172.58822281048447 -2.15647144311704 -179.62265823085295 -20.76377215824187 -160.82532086739812
3.428714285 -9.43209613934865 -132.10640904674773 -5.454665325564656 164.18552977893742 -3.9530567932761853 170.8030976647145 -15.332505407520507 -125.21067753510492
3.51032653 -12.073032601756948 -175.43076013417928 -1.4984306407791692 139.59724009172382 -2.4093231370303467 141.84163226616587 -19.00574330634853 -174.52045063010397
3.591938775 -13.373930295874706 52.182220688843735 -0.1477106280333901 97.89723961056895 0.04914507176119818 99.89769136045244 -10.771800930698527 101.21926270842125
3.67355102 -13.068307341756206 110.83266913785052 0.35925978877233894 72.27364004497159 -1.5259660966701885 79.07400602349472 -4.014983414003756 108.49041467064946
3.755163265 -1.3612422455723314 122.03243589831159 0.3851352204508018 44.021796824160305 0.09183079397206508 51.287410734988754 1.935277178579179 94.92842297256146
3.83677551 -4.941822961471473 112.34835986472235 0.34739699233156807 23.206764660804943 -0.9892229864488844 20.653390480029195 -4.379759146481396 99.04550501007859
3.918387755 -5.589891585529745 -157.31677102225498 -8.171867883908346 -2.934390878849723 -5.151431880277285 -13.938890480339964 -6.884410133669024 -169.8511680589197
4.0 -3.452451000602024 -166.63467190270958 -10.560030454654676 4.828637850291357 -10.885042459159347 5.25349198675677 -6.115312318560816 -159.17650307336913
