!Created with skrf (http://scikit-rf.org).
# GHz S DB R 50.0 
!freq dBS11 angS11 dBS21 angS21 dBS12 angS12 dBS22 angS22
0.001 2.5587284833918633 95.40582356222869 -15.322949879793597 60.14010656079793 -5.929399164323106 -60.72823733174217 -23.01617650729647 140.79756208572988
0.082612244 -6.253215148465393 161.29826058996045 -6.074922221441872 -9.748974533282034 -6.0481704578636 -10.831301945750809 -6.044878428911879 165.26632434438213
0.164224489 -6.559768936392687 137.99971072191795 -6.0271035824632015 -26.566410079122324 -5.5436465924005685 -25.15010200929868 -5.714155403247279 150.69877497037572
0.245836734 -6.411532423417524 127.51530674973566 -4.49592284304213 -36.285214556046554 -5.237876786290197 -32.57823553966847 -6.7491413221117895 141.32985880510194
0.327448979 -7.950500631373355 100.40187596364423 -4.768579540515945 -48.49280288144698 -5.301090361852328 -43.61188580829344 -6.272040777489592 119.75719483077651
0.409061224 -8.19441211239048 77.43311106849285 -4.485937747997021 -63.26278557621911 -4.738969604477349 -56.31583272480384 -6.2124228114910975 103.15251941290146
0.490673469 -10.608572540644996 49.41432431202842 -3.918644850178774 -78.18266005812586 -5.323233213594628 -74.27584900966656 -5.2654140785220545 81.84329709519668
0.572285714 -13.294045598723482 12.199356702297381 -4.731327025415765 -91.80220502281254 -6.184401647333698 -95.50755682953502 -4.264428761860809 59.28677637925835
0.653897959 -18.34330444054302 -60.64774280902591 -5.3814614020366145 -109.76666132601557 -5.3678981924020475 -123.11840393264616 -4.484476882024326 39.66842207079922
0.735510204 -23.2659359320876 -146.89681108876422 -9.812547854554872 -123.9199015903497 -8.421401485336242 -139.68782877317415 -4.438462225000711 -5.177262480227463
0.817122448 -19.218848243410896 106.53163346388483 -11.57398572679082 -110.30191068794379 -10.267167401281444 -115.12679966397046 -4.591951100293804 -33.94439769312554
0.898734693 -13.277266120653668 48.05393992503673 -7.953597278362152 -110.74426969676045 -6.74066712636229 -111.33164123954728 -6.869061658831061 -48.168078364621046
0.980346938 -12.618134825623912 10.08550654475533 -6.26559931554362 -130.68585033606783 -5.112831618543955 -126.8461238859473 -10.136824893456673 -65.08135038643249
1.061959183 -11.718323869455391 -13.17657790128504 -4.875116939072094 -147.06058787752247 -4.229152663765012 -144.87439984093183 -12.109587476218188 -77.58532551092777
1.143571428 -13.171913183148188 -33.21789797283538 -3.726797982285317 -165.87185368846528 -3.9571778890769687 -167.7761978877586 -14.256533576833181 -103.07240879346516
1.225183673 -15.892888985302577 -73.11721896948146 -4.030905436793736 172.56675361322945 -3.9153630397482426 173.04700824321148 -13.711538599091938 -116.58816170714013
1.306795918 -13.993232574561137 -107.91040763022757 -4.424274147882991 149.96816912470987 -5.168488261407015 156.0382009197445 -12.032945127711962 -125.06181017349063
1.388408163 -13.045165412633182 -133.4654021821317 -4.051847785441877 137.24952746502925 -4.170738373512695 136.8653766685286 -14.560798563047184 -129.85212952866246
1.470020408 -15.277563801406096 -156.38608192921143 -3.082998060884826 122.52497450024144 -3.9899496018321323 120.03175559955406 -13.880344771455135 -138.96281313920437
1.551632653 -16.426285947765464 139.75334780317968 -4.729857896989743 100.52695396500893 -4.525435752899806 104.53727928369906 -16.48347486083377 -148.21451090036166
1.633244897 -15.709964902524709 69.1477495985061 -5.940852826066666 78.00951963218478 -5.990177384400463 81.9079882275462 -10.085453117286661 175.23070011830853
1.714857142 -13.374279837076761 43.014188125376606 -10.072938051298854 61.316966719566835 -9.567697662842406 68.27571039528235 -6.568675228931273 146.7508461051678
1.796469387 -19.96912398954362 66.994986856383 -14.022634241749925 75.74469746713264 -12.748173407026187 78.92104405369784 -5.044279616052913 129.38723620789463
1.878081632 -16.999971387550843 172.28752985172815 -12.849285549954736 92.4840612008358 -10.364336064286451 99.16348825780366 -5.2002566245343935 100.2056334021661
1.959693877 -12.055584723666415 160.97644602374174 -9.662399817171613 89.96653094717638 -8.10193803534749 81.94162101104754 -4.620125012175486 62.372344800948824
2.041306122 -11.394102601456018 144.40638688157472 -8.277464868106637 76.36402296365712 -6.272749358933446 64.43418934694581 -4.563333648772757 36.6801806420507
2.122918367 -10.363005167566431 89.04285543347224 -6.564009321723874 62.01107755526991 -5.502912946914545 48.25026025900042 -4.223765765497821 18.624241541956856
2.204530612 -7.006970431425383 45.615006715696055 -5.538140717991417 36.16658184888818 -7.351825247636342 33.43093216100952 -7.135106474968155 2.6984421826193854
2.286142857 -6.431988551125455 24.252839901642705 -7.638572305540379 25.331760052477133 -9.611561024787472 21.647487540958814 -7.928337800999474 -23.732456581357326
2.367755102 -4.641574839549909 15.000742484349777 -6.04351843849027 20.732188710278333 -10.352913223872203 23.30488458389389 -8.313029567017049 -46.78189898767049
2.449367346 -5.5205670571399015 3.614960867401397 -7.0392735540673925 4.474222923326869 -6.590289532238126 -0.32385677618919195 -10.9068802284439 -72.7288817211166
2.530979591 -7.792790607059581 2.097011018751454 -7.818991193097961 -17.24622889455012 -6.485084982301261 1.6259202513729933 -18.554214354829888 -110.9406488442946
2.612591836 -10.24250383050504 -16.924464367038485 -8.243728539814088 -19.32513078162501 -6.456378163037899 -8.820707162311429 -11.454715087398707 82.6803456905396
2.694204081 -9.502630314292464 -44.90056323920134 -4.770912717886024 -32.612986529329 -6.72801457467998 -21.94017477555438 -10.819687184249453 -9.81029066710509
2.775816326 -10.553738974145359 -77.84508046607404 -7.389989936460346 -44.17401961907584 -7.658695577698453 -49.677055588460384 -16.005789593918518 -72.46554601542202
2.857428571 -11.871305084180648 -77.89780817774007 -4.177036748958413 -42.86422107755445 -3.589852897279613 -50.39441262542286 -17.017224674099364 -49.87300340084267
2.939040816 -13.930881809174645 -80.71107690673932 -3.7104057653741944 -73.86182237641181 -4.750159981749761 -67.21317310216291 -15.298208051293457 -56.423406771449855
3.020653061 -16.767602861335426 -47.223429856704385 -3.598235232856188 -82.6289120338534 -6.183995755775001 -85.73925626057408 -21.437268635948413 -134.49085665852346
3.102265306 -19.73066030953877 21.866770765337893 -3.3897127758510006 -107.33045626351466 -2.934099384876549 -103.94799720203467 -13.53087932957753 -158.3300873456355
3.183877551 -16.908281820056576 53.61691489792882 -3.8050569664287837 -131.57357844188192 -3.7135017573131845 -126.15740870084072 -11.855801599133923 178.69386207397966
3.265489795 -27.804841161689392 42.691835861578184 -5.436674134752008 -140.2222504004906 -6.735304625681381 -133.91883417580013 -7.821413760072369 177.77126814244173
3.34710204 -19.22984853684808 -99.47680335655852 -8.407832212790765 -145.38180601632234 -2.8818157772568282 -134.93287088416056 -5.244497483699988 135.8520121792238
3.428714285 -20.133979760062772 178.93335881651007 -6.548010928062839 -144.28850682986908 -5.284960782278297 -138.78681917785832 -9.64853431672912 63.14780638277102
3.51032653 -13.307527994986323 163.2550557121303 -6.151238192789239 -158.38758298610404 -6.435351104848568 178.61291467818 -9.520847016461756 28.271928098668038
3.591938775 -11.884958706267405 124.24302458441332 -2.9758405842074587 -174.72438415331945 -2.86464403307608 171.88351969308607 -13.454752922523447 19.099208337555368
3.67355102 -10.237118170024466 98.98399321866836 -1.8940366116364806 157.05094572505126 -4.467376570709727 157.91223535486375 -15.102557537363829 7.951469207999761
3.755163265 -7.295265728109936 68.04777356732883 -7.160787230105038 147.92265566494328 -5.806816290416673 113.64569354066035 -18.124556300938 -55.792676504343504
3.83677551 -10.937217877410706 85.42521498497507 -1.7206007668679781 139.34983862427782 -5.582240986663915 140.5853636068499 -24.852629192696547 -38.940863091902365
3.918387755 -14.320209968882425 64.98936885087547 -4.511356142310271 90.50975254530286 -7.680759328288409 87.79389714657773 -20.96478364965457 -60.11952998740117
4.0 -12.42012555802199 4.852250794754624 -10.859688783894761 68.72169538058873 -7.350301031334486 64.25390587081657 -11.740277017145822 -24.52239024058794
