!Created with skrf (http://scikit-rf.org).
# GHz S DB R 50.0 
!freq dBS11 angS11 dBS21 angS21 dBS12 angS12 dBS22 angS22
0.001 2.6329439814156745 -179.12980715409424 -19.683480327328322 35.044642834707915 -8.157952182468753 -35.65708072666284 -23.291831678443277 119.75925672652002
0.082612244 -6.47450894719174 160.31473905675512 -6.032814942374662 -9.435243175746203 -6.087149491610942 -11.045657104582512 -6.132831678211701 164.9965476425801
0.164224489 -6.416816006116868 138.45995065299982 -6.08047348694973 -27.04576516655449 -5.62467963732 -25.059290209934844 -5.759853279765876 149.75068411535156
0.245836734 -6.57392098897112 127.5422496937136 -4.410317382687477 -35.9364428903396 -5.198698647888408 -33.08849702809481 -6.636065936653416 141.0864962604641
0.327448979 -7.687217597870173 100.08912132990524 -4.68726856176495 -47.89886732537988 -5.5055717549590435 -43.69751130379065 -6.492321109574473 120.77043809887387
0.409061224 -8.34526298954787 74.53718336623304 -4.512780216141324 -63.81678931102027 -4.823492093728124 -56.216234574940266 -5.994322993596476 104.06654247750393
0.490673469 -10.537307124646462 50.178488503735785 -3.956705973818906 -78.10332382264714 -5.26063538321654 -75.32998674553679 -5.147665060185577 83.63947119877882
0.572285714 -13.25057585667009 12.89749907924636 -4.770266880342511 -91.45793601451346 -6.219536094533845 -95.5808425088789 -4.06330825828023 59.0555769831887
0.653897959 -18.82103982915695 -43.725581075263385 -5.485016329703898 -109.44859675846091 -5.4687507732689085 -123.1635055620865 -4.222942954912142 39.43220238598475
0.735510204 -22.921553447610556 -147.39021892536346 -9.792798009659588 -123.39873133854161 -8.253561403482655 -139.56023139921345 -4.276920786585345 -4.690559527333309
0.817122448 -19.791964560541086 116.67311522788333 -11.583912319014589 -108.80861538747018 -10.153322424046404 -115.57721281372191 -4.570025371829447 -31.79267486880292
0.898734693 -12.893262690363706 47.47605002954235 -7.8664726413233135 -111.19582505478323 -6.9298902830907005 -112.41774748111419 -6.671598983324979 -47.279554480622764
0.980346938 -12.149618421257937 9.412509753426635 -6.210081729846674 -130.54349142768407 -4.954774370774583 -127.9925209563591 -10.35176260004416 -65.24729032489982
1.061959183 -11.609038865899706 -16.628898615336 -4.82084709052645 -147.02918476417437 -4.21685857028527 -144.61098559557308 -12.631176690591317 -77.97172843592591
1.143571428 -13.221392595308135 -36.63495639170284 -3.7103791011510348 -165.61584914444563 -3.954635256670944 -168.0749504782767 -14.453258585556805 -98.9939552589223
1.225183673 -15.590159799458434 -73.30755302311033 -4.0285862467974844 172.1396400934582 -3.9599438721152285 172.98110100616043 -12.986255504147659 -119.82968072631516
1.306795918 -14.101301796014292 -108.41673837077128 -4.355265012294146 150.15368891787264 -5.0912713885171375 155.32241075658897 -13.034178565250167 -122.65146195841243
1.388408163 -13.153731370422348 -137.52681227078222 -3.9474873246339968 137.16109917096665 -4.352779679020754 137.92971903220868 -13.149406545049587 -125.61485258253447
1.470020408 -14.432549797107244 -163.34193857465743 -3.094673340981236 122.50910378031627 -4.100947926937236 119.85363728173148 -14.202698014618399 -140.13968141281828
1.551632653 -16.797408334623647 136.35464565351072 -4.6727820724368065 100.8315604541628 -4.589602629271836 105.83761133681863 -14.315989054576297 -154.27293023573748
1.633244897 -14.686639085390087 69.23035262991525 -5.98798317800422 77.359173387948 -5.662625822591694 82.22876467570363 -9.917998956725445 175.05068862019195
1.714857142 -12.867437971109933 41.280819575546325 -10.146406747582981 59.48777226952133 -9.980536165638634 67.46986118317886 -7.092851517377483 149.87978656679076
1.796469387 -16.71791512545983 74.5464820666375 -14.128651712392966 77.8720238021146 -13.034906388920717 81.9273928633239 -4.891041237966251 129.67526027224045
1.878081632 -16.813837748886474 178.01555606381964 -12.824560907980796 98.05210314851253 -10.392379352090607 99.98775052857329 -4.8590058985708975 96.70980666083601
1.959693877 -10.715510172162617 169.00324541543887 -9.672968407968654 89.12549281824228 -7.776622673642156 82.99352673613272 -5.069132595939201 71.02738094540243
2.041306122 -11.085780577455422 133.5904309959682 -8.129127516239546 74.40008284242938 -6.17131121821513 64.44072241610161 -4.423457337813068 35.81143101775099
2.122918367 -9.24885548751849 87.38773383895253 -6.447815757057892 60.662649923097625 -5.757403347893231 50.47841257412031 -4.757989140765634 16.196497198102254
2.204530612 -6.885925515539618 45.0326864763614 -5.436266442644272 36.34874707851863 -7.523014270709584 32.72680589461255 -6.579934281927179 6.364764583615222
2.286142857 -4.801472151469737 33.78685991519341 -6.679351835048032 25.741291335247045 -9.12782442090997 21.503612310632118 -7.807348857339593 -21.118728267742256
2.367755102 -4.3563046072744 13.937979295895946 -6.234549461958084 19.179078286360287 -9.7851963729927 20.97261808350363 -8.362647073376069 -43.40227766357816
2.449367346 -5.200779816106481 -0.6222347242297431 -6.693515363181067 3.894912589331394 -7.039794851251768 -0.630071536072545 -9.92200875941195 -59.815100718299504
2.530979591 -4.898613807618293 -13.241433497002955 -8.204737806807492 -22.165980161829495 -6.386840899284328 -0.08917688300110531 -19.145418668208606 -78.30972429170022
2.612591836 -8.690787310132926 -9.216369451138654 -8.242687728935035 -21.53294443913979 -6.836547746614672 -9.049802644116877 -11.116783705989747 60.50810587370913
2.694204081 -7.384921086168391 -51.37213122557901 -5.229173829634356 -34.42353024161649 -7.331834870166183 -20.224298578052952 -11.073816711652613 -1.367150491656558
2.775816326 -10.520291186316973 -65.79033939989989 -6.992105713583976 -44.35626706433092 -7.965530143103221 -48.10430200944593 -15.647876709545837 -83.56266864156035
2.857428571 -10.648824687994356 -84.56328735528074 -4.464507029354118 -42.07485661749383 -3.5897798000115255 -47.65741682221187 -16.700619755264952 -61.04015064321825
2.939040816 -13.192144627287368 -85.3769956839481 -3.76141156523572 -74.52513784140137 -4.822178051227009 -66.71646274506294 -16.93595455040988 -75.220922186245
3.020653061 -16.086868506383787 -63.155476849002355 -3.765963490354875 -82.462449433669 -6.089444239620012 -86.97262123509562 -25.763875710968517 -129.12615493750542
3.102265306 -22.33990188686851 49.49040396230545 -3.3142054500387195 -105.3889727033902 -3.449178434877338 -103.55175678478156 -13.77922647217825 -125.4082223934295
3.183877551 -17.16117083579107 52.515047085604515 -3.6341766361054137 -131.92523600366775 -3.615063768546837 -126.81539464181769 -13.221749454840271 179.7540114350188
3.265489795 -30.71217656897693 54.223906988946524 -5.566362471138361 -138.8742341892688 -6.93045376758485 -130.82901546888667 -6.988077726351207 178.13965450452594
3.34710204 -18.800302165932376 -110.77112397460003 -8.324022059354162 -142.21527666224787 -3.857469838562944 -134.1603590905362 -6.724665470749689 144.52892256229936
3.428714285 -18.476580505211977 -156.81160836946927 -6.86832860037714 -143.71632537417207 -5.587924811018333 -137.7138060489419 -11.746390145448604 71.41999592364557
3.51032653 -13.317201291669289 169.2179190363271 -6.16157019977117 -159.12861485325064 -6.188318258148632 177.24005825796246 -8.462511623718012 26.86265665980283
3.591938775 -12.01544704083216 127.92290410238749 -3.0252318523822446 -174.50857289607848 -2.7634558285378623 171.8730674551668 -12.861206800276646 21.651301472990856
3.67355102 -9.992943331551217 103.1864037259839 -2.0040060735380116 157.7466281848517 -4.6553352318812795 159.6474783129676 -17.117287007207004 18.97329219474473
3.755163265 -8.259254154885484 75.2202320342754 -7.155580469053017 151.6195504767539 -5.9462784186825015 117.7766441290183 -20.770183576188224 -63.48176633074696
3.83677551 -10.475560050421468 85.16526739214457 -1.5272459849067048 137.32534541552243 -5.471888610738798 142.64845744314263 -30.280707559620023 -69.58480026445831
3.918387755 -14.28399148545881 72.78546132151202 -4.553873943858201 91.4386059586257 -7.441987425616072 88.49921446323741 -21.42925067685812 -12.048821760348728
4.0 -14.418095907018934 8.125021562599876 -11.101365752990535 73.17826231854565 -7.605324398483157 66.12586010253976 -11.138706460264132 -29.839784693839263
