!Created with skrf (http://scikit-rf.org).
# GHz S DB R 50.0 
!freq dBS11 angS11 dBS21 angS21 dBS12 angS12 dBS22 angS22
0.001 -6.700036225347665 102.71361937732374 -1.2545134833114338 -7.140623783634576 -11.22079516323878 -45.60562249795842 -12.519862105702277 -164.24959809277593
0.082612244 -6.269932008827748 162.8145159074931 -6.098898829731757 -10.723521061749434 -5.996778410990588 -11.151162843494701 -6.295150418853472 168.79205858444737
0.164224489 -6.414070793647104 139.65518920254837 -6.146250501264667 -25.306188930126055 -5.687403364310656 -26.829905782384536 -6.165366657761044 150.16745041621886
0.245836734 -6.393576986095893 126.94770849362597 -4.980513187541494 -37.51244084280534 -5.158328278720311 -35.28709908130852 -6.163835793573719 142.1729451712777
0.327448979 -6.8977636915792075 107.12682646859578 -4.914876444760849 -49.62730374480111 -5.0259945309374245 -44.801343858626275 -5.6116021548685415 124.50151267092612
0.409061224 -7.394859652611655 77.23374353558418 -5.057179230276177 -64.97378869212463 -4.615143244355917 -58.46953952804324 -5.300298561804406 107.28094185755411
0.490673469 -8.926820147703227 57.05529047874154 -4.258049458002146 -80.03364973267598 -4.753531481499811 -73.34689837610038 -5.785529289139401 90.51428028806288
0.572285714 -10.954582884654974 27.415919083385155 -4.35608910837821 -94.51664557215196 -4.94005173042395 -88.06197007704581 -5.4636787543877805 68.85498383978192
0.653897959 -16.97229759089351 -28.366484600531894 -3.70885151091352 -113.38756423482918 -4.08558881499908 -118.85231177872858 -4.73882609053381 42.145493163203234
0.735510204 -18.53085913907758 -65.21180511407982 -7.264033965210038 -131.45163063526883 -6.645845054754513 -142.77728832137686 -5.2980251981878 9.110069126808728
0.817122448 -19.62643335415992 -158.1193499399656 -9.826379960599919 -135.62457760963747 -9.254490653397324 -148.13216667281463 -4.396476236923977 -22.807288120217915
0.898734693 -17.424870078107976 104.38979773604102 -10.690420184352973 -128.89921906447998 -10.59401650530168 -135.36326139883002 -4.269133190315483 -43.6187581851138
0.980346938 -12.841103251462787 37.301460353950105 -8.24805684478824 -125.08850059707505 -8.205224455774173 -135.54291437923143 -6.175493359621203 -57.9721101582258
1.061959183 -12.097896745493987 10.615594755412543 -5.611975266661986 -141.29395642614975 -6.004499582020623 -142.63252706445942 -10.066879954234548 -74.13231603721968
1.143571428 -13.710013526631702 -19.969555633058732 -4.2393054619786845 -166.08005716067774 -4.353322254393009 -162.82528978985746 -12.646050383309698 -127.24415663654756
1.225183673 -17.83715229118783 -51.41170185347887 -4.985566725567549 173.07956319208017 -4.818635947208427 178.57342823907933 -10.6028137115633 -140.329860796794
1.306795918 -15.860656889318678 -96.75674459841186 -4.742283182493587 159.011553071108 -4.120106726051784 166.9051970421008 -12.67962454277681 -137.5197795136495
1.388408163 -13.573247815911971 -117.36393611823604 -4.224644284630808 139.26628762855395 -3.8656130003503897 148.5857738295229 -12.814811962958995 -140.42985277082516
1.470020408 -13.315994259054039 -133.98547971833307 -4.510422706862615 121.05540688814756 -4.891388203078625 120.79365585348972 -17.20775650385701 -143.19119932272284
1.551632653 -19.176372844389917 -161.15512851151198 -3.473633723972724 108.42668533670475 -3.992777876884646 113.48107585177614 -15.395170427969449 -161.8628174842838
1.633244897 -17.97886435507702 140.08997187313835 -3.775522445639754 80.19966243199275 -3.6177849483517437 79.31809311438865 -12.692921839946065 171.57210378276636
1.714857142 -16.622630742568948 101.25657627898968 -4.686441304746998 65.11357045585984 -5.111146126468896 63.739122420551645 -11.063506045263196 144.43557564849246
1.796469387 -11.740119835357717 70.28453334204865 -6.578851541080002 39.601211736691376 -6.698516174326055 53.217064232879956 -6.518385836708038 140.9211091059493
1.878081632 -15.695824909190094 60.31512794728548 -9.539501532385232 27.080696046761407 -8.267967077693573 36.10197131470788 -6.455422583405317 121.32962901167471
1.959693877 -25.05642375316553 89.90742542491506 -14.6074227510596 32.96011819826696 -13.137014745051767 41.50135299998454 -4.776897584186754 86.0932621985679
2.041306122 -17.348979659384952 -177.9241945395151 -12.798960710496578 69.660614296835 -10.715976907844096 52.581173726489 -4.693965236957317 57.0131800245975
2.122918367 -18.55942784903847 134.75194823720173 -10.525614921629792 49.55127256297006 -8.801386090684034 37.05533046279608 -4.816967996120122 23.72669690345845
2.204530612 -16.253248907413635 99.46523884799593 -8.765480247762508 41.31557270803239 -10.020202001773724 30.977003446105105 -5.846012235366487 -0.6532414059086612
2.286142857 -9.1002520925012 40.33214832958331 -8.108282116247242 25.739302998024492 -10.301183065667175 23.725341701193937 -6.964955096586651 -26.489855176165946
2.367755102 -7.129012461069339 29.351637457368984 -8.232632571824958 7.003711095340232 -9.686438726086822 9.104968790137542 -7.76531572360666 -38.16268689046268
2.449367346 -5.545375975756758 11.85919069739126 -6.7752852585689975 1.7994982902292158 -11.576345770715353 -1.9413726277434415 -8.458602972273765 -53.08713236012026
2.530979591 -7.6559113727805395 -2.4803107200705257 -7.853377200228636 -24.780857848323997 -6.414316658294965 -11.06040050553062 -10.253244216280555 -43.79827000935258
2.612591836 -11.47930179586496 3.9066716155236016 -8.430027912573676 -51.598442363395115 -7.598247274359822 -33.8861604489176 -14.56740235935131 -83.5198610227624
2.694204081 -15.950730061863052 -35.751217439147894 -8.528589318528098 -50.102527941995284 -7.562489798561799 -34.66716240846571 -14.666471530274949 -161.11072437526457
2.775816326 -11.54356939275946 -84.28487735720768 -7.12312252621502 -66.72350546480695 -7.024608338895256 -45.76797966021936 -13.309079489785265 -160.35679063631358
2.857428571 -12.050863811116638 -89.9684307225846 -10.89869005366489 -76.47269830555042 -9.723399702940966 -69.6918035058989 -20.226103174040738 -170.686959671667
2.939040816 -9.75857122639823 -77.66183908644946 -7.9928165892417615 -62.84611453005619 -9.90862746009949 -50.35713714019327 -13.514520956011712 -84.2018511722447
3.020653061 -10.277987060660287 -87.11120539435348 -6.616566450856186 -75.86026790885876 -8.546600806325188 -79.24465928806075 -13.067243673680673 -92.41614576001098
3.102265306 -25.438976325352783 -77.67197139446903 -5.880850353210649 -86.36643991848952 -5.538900666739677 -103.46555301314223 -15.735105859448668 -97.64387285573174
3.183877551 -19.36940880184075 133.17782378733258 -4.493587133352444 -100.53292721158248 -4.185473932586332 -100.11535941149558 -16.544047911762494 171.35200965853247
3.265489795 -12.855612373891036 149.21175925464877 -4.248758456544416 -127.24755415310825 -5.1879984498148595 -128.33788154505774 -16.872347963771304 173.37667815474967
3.34710204 -13.872158267644597 151.5063803863061 -3.978543372956305 -137.02918103720106 -2.2901584295942006 -148.30620620784148 -10.430226639010593 154.10221219250033
3.428714285 -14.286816644593042 168.83264525294834 -4.129147534959577 -154.0320451305217 -2.779040840561669 -142.0028247619107 -14.883364696498237 173.08624819977484
3.51032653 -16.878372145509392 -158.64537795627012 -4.650806018888623 -177.7754911759561 -4.045355565096198 -174.35567009104057 -13.389666639532233 157.71493101257533
3.591938775 -20.201903694168003 178.36502288199904 -4.170188139041887 156.28545154865137 -1.921932285968355 163.55696399597102 -7.429460726693643 136.37950416463423
3.67355102 -17.83047155202297 145.17631996213342 -5.5316064890100485 150.13807143604635 -6.0982119823977765 150.99481526103202 -6.500674987530645 74.96356394200093
3.755163265 -11.733700517148133 109.47985855952275 -6.926958520941346 153.90803234796687 -8.437321345861141 119.27444501632027 -7.490276295266256 13.621850793985674
3.83677551 -9.117017454351977 95.07213540741557 -2.7174449099449314 140.98143375455697 -4.6451250881231765 128.0113952643768 -11.321479130754222 -43.64847885028761
3.918387755 -11.123804986828283 95.47108705357824 -1.2975820428153075 123.59870100182681 -6.576739037803795 127.99691057693315 -14.383342745609212 -59.21764524051307
4.0 -6.971094388804757 61.563898206070725 -3.958551493361326 90.06874214771976 -1.9685443331290329 92.0441532309387 -14.892123669069736 -82.95465361639701
