!Created with skrf (http://scikit-rf.org).
# GHz S DB R 50.0 
!freq dBS11 angS11 dBS21 angS21 dBS12 angS12 dBS22 angS22
0.001 0.37676452172853425 163.39926464435771 -9.259619935416115 66.376274674482 -8.08944484999522 -37.23316749081469 -32.88549096716367 -33.19909134075013
0.082612244 -6.32195850964732 162.4069210782871 -6.304252795258146 -21.07541038034903 -6.224145363645228 -22.199300426578176 -6.034481872106313 165.43722706350573
0.164224489 -6.478500270315504 139.67727723767706 -6.038261651121842 -51.24562659033981 -5.348901860226535 -48.12320567609716 -6.067483206037635 150.91338140518494
0.245836734 -6.185076168239472 128.36849525367992 -4.764770519830738 -66.10512155729916 -5.993747649120166 -63.973817382035286 -6.903894363595029 140.1378906862436
0.327448979 -7.066328984276512 107.05386224311673 -5.131992144728196 -85.53201139133333 -6.4091141703127095 -85.38593380810404 -6.447386877221961 117.15893561421298
0.409061224 -8.0216864664986 81.60773032853277 -4.900469994806966 -111.09805498262143 -5.777181210889044 -109.17116070018213 -7.0481575107757095 98.39622420023062
0.490673469 -9.838005048912624 54.87166308557099 -5.060972239996885 -137.20310745947654 -5.785694593288142 -142.08796995125738 -5.989841524002742 73.95892159405189
0.572285714 -12.190687197378312 17.176979000002184 -5.641615629845563 -160.9121660512611 -5.274622511332369 -168.8326569457675 -4.819286260521428 48.46101306947767
0.653897959 -17.433611989351967 -10.490495959594524 -3.853628984837438 165.8518281028075 -4.560723850307705 165.140333429794 -4.493861294793409 29.46578322645782
0.735510204 -23.927554182461694 -128.30252489465133 -4.797083764705929 132.5587921954282 -5.237230004038266 115.32153170789468 -4.224655690525009 -14.739761240243686
0.817122448 -19.80605352736211 121.97890374190968 -7.694079316318055 98.58371034709744 -6.633801766894079 86.48685177867713 -3.8972009019156424 -42.986489681220526
0.898734693 -13.427767891652707 60.77882183882912 -9.40058825690999 60.73335646340917 -8.786517826675787 61.35234602439624 -6.248579780220041 -61.6056058851112
0.980346938 -11.508675312693356 23.406775836571672 -12.478722181770504 27.866248321217242 -12.51128781092012 32.765423635564034 -8.769811354166286 -97.37713659794143
1.061959183 -11.360045073954803 6.057339919261417 -15.715384473160476 6.150014475373717 -15.985724323931976 10.791558420369638 -10.319309756745042 -113.08700825147179
1.143571428 -13.94360379193898 -6.430375231775292 -18.703493199255874 -17.134710738729783 -18.37947244345514 -5.731878676964493 -10.046810186442428 -128.79109913202174
1.225183673 -21.03615849102976 -29.434351873316135 -22.73710237611555 -33.43366199211182 -24.28377622316233 -30.84330051125069 -10.45714125970634 -138.76913664851307
1.306795918 -17.967259910055297 -116.4835942071186 -27.64642616821253 -56.67947098941901 -31.816987047097257 -53.084284782237006 -10.041414415640064 -140.42467347033843
1.388408163 -15.163241843156857 -135.70821465172983 -39.02604063733842 -55.32339809510291 -38.33193107150424 -107.47520329152199 -10.437218879750493 -139.59930912354503
1.470020408 -13.775192632282792 -144.70468352971844 -33.36707553386508 95.80831796327247 -33.08905934581385 120.45852243740926 -11.473662481201 -148.66802323527452
1.551632653 -17.803462450665172 171.75906676532804 -24.80249080219812 102.06225554987184 -26.371408169120937 100.40600028072598 -11.108086807108034 -154.43725472660043
1.633244897 -17.21378306761474 105.40219951671203 -19.59449967610344 74.48865976791923 -19.557725047103755 75.10432081339638 -9.678925840111178 -178.45110076309746
1.714857142 -10.03059860393561 75.37416553341504 -15.2519731058093 49.47376958087184 -15.368230243017432 54.84356624861656 -7.708822632318792 164.15864063437968
1.796469387 -8.774732806644158 70.77156038379219 -12.409884581143263 29.72380249443263 -11.854404191141406 32.22654078142858 -7.089793814502235 139.83968041416887
1.878081632 -17.085036156540387 59.41456828048549 -9.621849720355101 -2.14183160349294 -8.901248559615809 3.5039991337247116 -8.484714248531034 94.01790103832492
1.959693877 -20.13536018333044 171.23224521901358 -7.488128697637607 -37.98699145540862 -6.6334862842311315 -49.236794611693504 -8.043347229369855 50.79063158581231
2.041306122 -14.38628446005847 144.65106390343297 -6.690305443883596 -82.2557659899333 -6.058101906355979 -89.9838036462912 -8.85366128137694 -5.825072508645197
2.122918367 -9.222808492448136 99.431842384463 -4.741779862464473 -120.14534238966854 -6.161686213608329 -122.272777448269 -8.656833160316683 -43.09315947253022
2.204530612 -6.585018698559942 45.056559843395064 -5.554362994135715 -157.9084677000664 -8.919845164126937 -150.91414956401505 -9.00050090067234 -64.70387103637344
2.286142857 -5.8101535844329355 36.61889492005228 -7.413277124426626 -176.656905865574 -11.398145551903557 176.4650906760731 -8.76955982775848 -86.51792536662758
2.367755102 -3.7850803433910176 27.774812743262572 -8.612472809782062 148.3213162314313 -10.74222818606528 175.44908078277905 -8.984244572400273 -105.38013584006951
2.449367346 -3.7827653294845804 24.715927327278077 -8.974310703273016 120.64632123655875 -11.2985389240243 155.64835901341976 -6.719351647531475 -126.87337631255431
2.530979591 -6.968361721433052 25.701315589000117 -9.32546588699937 117.4549403219686 -12.783506538467794 113.96335074277594 -6.967308141078487 -138.6109190129855
2.612591836 -10.280323992171178 2.769655373183184 -11.585144205639288 87.75973276767171 -10.700482458335738 111.98471310835879 -5.856813122726994 -159.46352065471336
2.694204081 -9.785372505053978 -59.50953850432548 -11.444663991745255 69.8589843250853 -11.008636342190952 95.29844110269246 -6.087077003910873 -165.27545260988938
2.775816326 -14.573333068792902 -77.43209606622591 -9.784393065846157 53.7255919135323 -9.947387730050696 59.46404990191201 -9.707197747578268 -152.66749823066476
2.857428571 -9.681057002359225 -76.00744453506404 -11.645922106102597 4.17056379114948 -8.924807223897652 40.945577896344886 -6.03639065388206 -148.6851017893668
2.939040816 -12.694607832107147 -80.08910390227521 -12.22999808517354 -8.24707616197284 -10.408106812876479 17.2077118259243 -6.804674013713274 -170.74680575161682
3.020653061 -15.903183676817319 -77.65302152175774 -12.320155576660817 -36.27395677176462 -14.550332039543605 1.7241359075568417 -2.839224423022277 170.41418141737637
3.102265306 -18.893259969650245 -156.80182504429044 -14.200818995476416 -44.92877057522213 -14.852371298819715 -44.947559840996 -1.025787717292716 159.46926759233244
3.183877551 -10.602719918257694 146.79692476017152 -13.367705035114552 -67.6985463147749 -11.963549550384453 -52.34694398732361 -0.05739633530136849 159.46191470463273
3.265489795 -7.1161004422480705 142.34712120239305 -14.28639241568904 -77.27986529162752 -16.122895497898266 -63.32864359288611 0.3726759230261228 156.43609829398557
3.34710204 -9.323732128925746 115.09175818426372 -14.181624905793313 -87.58757688694097 -10.392909258805696 -91.25033770960289 -1.5032979536877051 151.24813345689927
3.428714285 -12.986790094304219 36.36465133957353 -11.824404728079196 -113.46514588597694 -7.090014603009312 -78.24402865626358 -2.550789937433729 140.75997146386223
3.51032653 -13.415568007763639 -31.29353166406894 -13.459934842314265 178.9466236745361 -10.544875560348883 177.10893337861978 -0.9478005290234368 126.0698516943549
3.591938775 -15.28829387364354 157.9140377039202 -15.241255775610465 124.2508820163621 -8.084442888909106 164.04522955284935 2.369806524297697 142.17993634658953
3.67355102 -4.089063591713016 89.64427008256156 -31.238537931092118 109.13402014045434 -24.474891221182183 19.21893681798612 2.9783192757773698 140.85929199393124
3.755163265 -2.7726210366774313 79.13998532430938 -26.200864491814816 38.700927129900265 -15.008299031720252 113.68224787159492 -0.06295892429687927 126.82691355508263
3.83677551 -4.619953545089624 49.3979470470526 -22.27122030593538 87.31278948399942 -10.113165227182757 -135.39791744443937 -2.630537574689357 96.654491044471
3.918387755 -12.696650104558554 44.05756692035517 -20.453759770791734 158.84248882747397 -16.322455444238297 -71.15752627179965 -1.2482294766175457 78.80111043822662
4.0 -8.901888513435896 4.585085398073423 -23.332510187718306 127.50141198380685 -18.036547425656583 59.13388771123963 -0.9634504945293192 48.563403309272786
