!Created with skrf (http://scikit-rf.org).
# GHz S DB R 50.0 
!freq dBS11 angS11 dBS21 angS21 dBS12 angS12 dBS22 angS22
0.001 -13.46188766171351 50.973685856381096 -9.733198173140263 69.42504502265265 -10.733209526823186 -26.935381952423313 -35.38218957828263 45.80487483164458
0.082612244 -6.083713005134249 161.76123037001312 -6.297367392455068 -20.647110814971033 -6.282975145348707 -22.471478514885728 -6.187759417018538 165.59483434800597
0.164224489 -6.543027244066283 139.5669665348061 -6.068149193869335 -50.96581192184926 -5.333167181341997 -48.4264174768147 -6.192819822155942 150.13255848128208
0.245836734 -6.05102581874407 129.3099839372042 -4.842852108723196 -65.40543167390146 -6.045250923764915 -64.28742622310854 -6.890785776813705 139.1020071011744
0.327448979 -6.801099715778717 104.82009752506637 -5.137212272716215 -86.38448814094598 -6.240529425122342 -85.83013778052111 -6.852344229890949 116.79141291821811
0.409061224 -8.39438888260282 80.27963793322066 -4.808079721020534 -110.77599533306892 -5.847296733752785 -109.07303390522341 -6.910015598845122 97.48955101485517
0.490673469 -9.85792725310996 54.95951705681283 -5.028636093576331 -137.4179620557238 -5.72517673463345 -142.14187540363747 -6.060085563171577 74.69296412560416
0.572285714 -12.26893413562362 16.888125052373674 -5.653861470852614 -160.8333891462115 -5.184817192292606 -168.87564567672652 -4.748498152036475 48.920108032043835
0.653897959 -16.39352987826861 -11.794699032466244 -3.836024807214315 165.68479648597582 -4.418208680483527 164.46376864082973 -4.687649133615219 28.085314068940303
0.735510204 -23.50018892213847 -129.09422233161567 -4.7352821735218384 133.2133156224883 -5.018996673014286 116.09967353971564 -3.986612312806371 -11.884590196150164
0.817122448 -21.292425757460478 134.0164211314548 -7.782710440250403 99.85510108220542 -6.595169002827235 87.55617878666428 -4.0093367583184305 -42.67480580409861
0.898734693 -13.789142091126049 65.04687393717451 -9.384275844179019 61.4077602289269 -8.80863763342646 62.05017102321058 -6.126032171207703 -62.641048408044284
0.980346938 -11.9911931463037 23.621834104094262 -12.478824529177944 28.05505961195463 -12.249819673084666 35.31667813808697 -9.180677415346937 -95.07655238298128
1.061959183 -11.527920799534002 8.321622457943382 -15.582926790909992 6.959702769871519 -16.00766758059123 9.726535692552696 -10.274756030011986 -116.40549751973448
1.143571428 -13.711486945465307 -6.7596030899562045 -19.336364151031134 -20.52550519807575 -18.958465974460246 -9.557065260321037 -10.53792800893163 -132.20194210180432
1.225183673 -20.095409092476118 -34.97676459343638 -23.071989455737892 -36.91608834635446 -23.771488147094338 -29.999298109293054 -10.054161546617284 -139.87583883799857
1.306795918 -17.12694636490759 -121.30148307805582 -29.212996764647578 -55.3337342455632 -29.50477357581848 -42.45704010203748 -10.500627952718553 -145.57765847410963
1.388408163 -14.208540332331074 -140.83780689386697 -40.96805338897565 -66.15987374587333 -35.65233110772216 -107.75968361688956 -11.12382059819921 -143.54152313173964
1.470020408 -13.570571035026006 -143.91987796856208 -32.03716413707855 116.27692893753895 -33.38586055116401 143.91568849449632 -11.260321109663101 -151.948786357602
1.551632653 -16.480601197579052 177.20136278063262 -25.415884035876708 98.04138340442354 -23.778617045459278 98.36691213497699 -10.802225252647325 -162.01638689625824
1.633244897 -16.788181500853 97.63591840976505 -19.28796813521866 74.4618243642365 -18.587614535775934 74.5788288398513 -9.071804967699311 179.26227436487147
1.714857142 -10.74689719537889 75.99628888591546 -15.175538362477885 49.71981820804202 -15.536445559470707 56.13710461276075 -8.088392099934245 159.76900616433014
1.796469387 -9.651427894864856 68.17296127043055 -12.472927487670521 27.159819692243424 -12.154570621399174 32.882703555121715 -7.536577056678622 146.53029762629777
1.878081632 -16.144360373546778 74.488306711666 -9.42182345479391 -0.8959300011876922 -8.787724773811199 4.910798843032568 -7.920727094051863 103.07366879049526
1.959693877 -19.30358862494477 167.9597531126481 -7.587557851817315 -37.53902169471255 -6.551885046180603 -48.20263865850429 -7.959708009469155 46.38809090808124
2.041306122 -14.719412562675736 148.01885804171445 -6.810520427097725 -82.4285063479498 -6.181626017841996 -89.98405952100829 -8.582768992751769 -2.2273122596580377
2.122918367 -11.546722365810037 90.16452785964528 -4.985639524537321 -120.43400241000147 -6.386548441909776 -122.5858931792858 -8.233826096467784 -39.1371259772528
2.204530612 -7.0802435096798035 50.604152244669265 -5.687717482063074 -156.70413524643206 -8.696908902713169 -151.0909078719231 -8.845921349401248 -62.19469456667997
2.286142857 -4.852067260821277 37.90922217432023 -7.349508475362186 -178.92669172201997 -11.476246389266066 177.74333789510962 -8.900964901807221 -88.70411396513846
2.367755102 -4.0727495948830965 25.442854662088482 -8.880217038917253 153.7050970579639 -10.497773386384676 176.1978965908658 -9.146323285360877 -108.19038741101825
2.449367346 -4.437818665818773 24.475879702854197 -9.002201264732737 121.99016164971172 -11.279783225215168 152.50885400407196 -8.407853659818478 -129.80936136104256
2.530979591 -4.817786433329508 12.635127251966201 -9.425260727020714 115.08608076201766 -11.709026541324175 116.02558107733192 -6.144499158889712 -138.9541962430813
2.612591836 -7.158228956326001 -5.114949126871596 -11.19670864875689 87.62362044548976 -9.220087716623548 109.36588679742603 -3.5162056005842732 -177.7249863713654
2.694204081 -7.181290473863263 -49.607968275656035 -11.209088405226737 72.60339392003772 -9.269129435777648 95.55597291697549 -7.322092499707738 -166.05095871804298
2.775816326 -14.74548479535632 -69.94717822312562 -9.703733051694668 53.32385359402295 -9.1190924414799 57.83365703275419 -10.058663235972103 -160.18716009359727
2.857428571 -10.560252243615187 -78.01368925305604 -11.57633949408147 6.343134199591707 -9.467360109408968 42.391439125808475 -7.869837829144888 -140.93282540898457
2.939040816 -11.781959753105776 -83.81538609667285 -12.94116495972082 -10.192729943911369 -10.80391334157784 20.0571044392919 -4.932170946591048 -165.5375160067331
3.020653061 -11.97129297829722 -80.61257703297534 -12.76684744320071 -36.40030725942254 -15.231193263948024 6.692118165137355 -3.589956874357398 172.96278866248238
3.102265306 -16.00520767300937 166.8167956357329 -14.095065304894877 -42.63826712667976 -15.37823222468436 -44.48819671482102 -3.1195921883630398 166.42701671669457
3.183877551 -9.31774373734994 140.28306110461168 -13.264827926522099 -69.11609719821958 -12.178722959030736 -50.12455360059737 0.43972879037116774 158.52592716956852
3.265489795 -8.299642484040554 149.75914399749502 -15.272145089166823 -72.08099114089424 -16.784596526917984 -61.295386400629894 0.4390234064904979 165.89343805708268
3.34710204 -9.64129421882335 124.0674901958482 -14.850309811883749 -86.28701421111977 -10.263685914901863 -94.06146682318251 -1.6127047267323857 147.85587945865535
3.428714285 -12.442494085115179 35.302419680984784 -11.631597253481571 -116.49402969025859 -6.661955911542712 -78.99882253431466 -2.1145017465096303 134.51805091549275
3.51032653 -14.301886782470374 -33.78135669204804 -13.321298614354687 177.18345193531584 -11.702085614666819 -178.37037025157844 -1.9045708501964222 130.92829083775018
3.591938775 -12.94482729005882 166.47896288081486 -14.776071890676246 122.35721134117586 -7.97377245010672 157.15695408548066 1.774054996780539 135.37646169593202
3.67355102 -4.567541484159692 92.762907915228 -31.0204974502783 113.97897950133789 -26.359412023947996 14.917033909547168 2.9857513621328575 140.9291364489058
3.755163265 -2.198352450471501 71.26436084499473 -28.02765308181705 49.402003041812605 -14.546581564229609 102.45214925736613 -0.802104745782543 115.43372518473019
3.83677551 -4.1775076065057695 66.132843003032 -22.34711514383042 103.92645148346847 -7.595694612217214 -144.75531565525407 1.5292170017467455 93.96121342224662
3.918387755 -9.845794188079662 45.61831951338566 -21.017879121696463 175.5944927667586 -14.840248507672577 -83.89335377155548 -0.004476076159051803 78.98294474278707
4.0 -11.858472160330999 8.04504620902026 -24.08717754696807 129.88739884569696 -18.21832500698886 58.332130744066845 -0.18533934222413648 62.6218253989327
