!Created with skrf (http://scikit-rf.org).
# GHz S DB R 50.0 
!freq dBS11 angS11 dBS21 angS21 dBS12 angS12 dBS22 angS22
0.001 -0.708269037113725 145.9117556248242 -10.569233785681957 79.69513595178006 -15.525489702282947 -49.575990816103996 -18.835246316484138 136.1959299613326
0.082612244 -6.172375353491605 161.29840273514108 -6.242701863671476 -20.54413420586023 -6.254124899460395 -22.365465449303333 -6.04637711614698 164.92699849187645
0.164224489 -6.55480852357119 139.3130045908536 -6.019171701075391 -50.839717095793965 -5.364139947430482 -48.528971022560974 -6.140115926789516 149.44707555004544
0.245836734 -6.055258351878639 128.4415604593752 -4.8550669282694585 -65.9165800229997 -6.051038820111716 -63.49944770845545 -6.797675166758363 139.6046332726439
0.327448979 -6.876422796272106 109.17008350868413 -5.195746955376208 -84.9777575210072 -6.316603825160759 -85.5143005766951 -6.895989029522972 118.03644192736932
0.409061224 -8.054319779796216 83.29536937862831 -4.9319528916880495 -110.71799837154539 -5.807432272229631 -109.73471793340326 -6.882312735727977 99.33003560393225
0.490673469 -9.862276605839268 51.919000259493494 -5.038576211056746 -137.1585569476923 -5.922762985950226 -141.44382045159944 -6.1826699953500155 76.99850845352407
0.572285714 -13.059530715369071 23.379610550355938 -5.638657968682943 -161.1213829219519 -5.225734260437742 -168.96235095609146 -4.6222118861812636 48.47484785430011
0.653897959 -17.268199825433744 -12.611076177121353 -3.908484788472542 165.3487660839191 -4.482969439977734 164.7398317837482 -4.526059163446129 29.581126196321147
0.735510204 -23.642879757471693 -120.12109851685874 -4.6945781878059964 131.990062680123 -4.997625161151802 115.9291784938849 -4.128472431146133 -15.325420167301974
0.817122448 -21.01881297011996 115.82053121167391 -7.725589655933394 98.12335628715608 -6.544204928450254 86.59483306877544 -3.892169578837878 -41.465102041748914
0.898734693 -13.34168060253804 57.683281149099855 -9.470441924285714 60.0372476567382 -8.746311973179333 62.02759320780212 -6.473328591769065 -62.24506277402724
0.980346938 -11.534175666949324 25.92161407024634 -12.51485694042625 27.28481910412631 -12.107795531949453 32.14734656081316 -8.602538551981567 -95.72701261946713
1.061959183 -11.587176003733465 9.464652829064995 -15.792904877217293 7.265628066685367 -16.14655919891512 9.656220181862368 -10.300528647304859 -115.28094746503659
1.143571428 -13.45789217186326 -7.051470452452262 -19.11680676062978 -17.27207853068101 -18.81494531937685 -4.271130611548458 -10.775911711301218 -131.49957494967492
1.225183673 -19.3243225705255 -42.37430403245929 -22.866006843689206 -33.200014665535065 -24.028629219972267 -30.459465510863826 -10.136416307567979 -137.14618466292444
1.306795918 -17.096495385291558 -118.50003386493916 -29.05212559808021 -54.87803436285796 -32.0489464924863 -53.2676609631579 -10.204888511934112 -141.5682346789388
1.388408163 -14.607423814881601 -136.0095413344277 -43.47216796202272 -50.29676130058065 -33.97662291305454 -117.84453398125146 -10.716381940442028 -143.6884546790924
1.470020408 -13.6710077610799 -143.03772812855576 -33.37398677142244 106.1185698157442 -33.24676556354185 104.8776124289591 -11.015647792273608 -150.4523218265782
1.551632653 -17.910257177700938 173.01658858984948 -25.76290197891142 95.65686271904676 -24.198266444112186 98.51724408466345 -11.517684539720667 -159.55482011253505
1.633244897 -16.74975640189679 98.0487411519777 -19.825831994584373 72.13233161442132 -18.05095106402991 81.33226114947887 -9.65585097308249 179.63379605844122
1.714857142 -10.517188521243174 75.36738524096515 -15.252053010172508 50.708637953445134 -15.462977532092888 55.74115948146533 -7.710285102598786 160.69210121142405
1.796469387 -9.420550393119045 72.0027363786883 -12.08143031230562 28.652081739663444 -12.090652877916641 33.588449063857134 -6.870301354672015 143.64882627612462
1.878081632 -17.39519186067415 73.99347325070153 -9.46884337055337 -0.9034049767317247 -9.142351101453276 2.5682837847386994 -9.298102190571765 99.48653542605899
1.959693877 -17.578506361914098 169.06080962218246 -7.6685756187572025 -37.349906543932214 -6.42595712812388 -49.100378111869226 -8.043129452706628 47.757647700199634
2.041306122 -16.215095357645517 147.08590382649123 -6.793061991284484 -83.30129103570205 -6.380005214496819 -90.60053603547871 -8.060784854122446 -9.503757698857905
2.122918367 -10.467161473033148 86.30005856247197 -4.933459756126574 -120.12010141158943 -6.184334676238839 -121.96703872645692 -8.840206615406535 -41.15327421707661
2.204530612 -6.635068841507823 56.31555024722678 -5.332525836000538 -155.93472320334706 -8.749825588741354 -150.68258243858216 -8.458159963957545 -63.210670996624316
2.286142857 -5.297744485840262 37.196534809875786 -7.292156760762625 -179.80351894518085 -11.157937497014307 177.773029361418 -9.141018208842468 -87.41169795391268
2.367755102 -3.9287854093082224 27.629915705338988 -8.617958635292917 153.01582452706822 -10.805100068536703 174.60475677089886 -9.019662708861759 -101.35169441540593
2.449367346 -5.061843506877299 30.06035053563075 -9.115972326256243 122.84353941393873 -10.999334293950314 154.16486146483248 -7.611269819399022 -135.0391414808058
2.530979591 -7.188311958285892 26.353764233326384 -9.37915532617571 116.96263102955228 -12.205155652534376 117.3274175343744 -6.719205790634123 -137.18286284747543
2.612591836 -7.356881770618269 10.14254277468425 -11.04303635344213 90.14287005625715 -10.466096603940363 103.52411612226095 -6.766764782351553 -174.48372874595628
2.694204081 -9.424322531984078 -40.731714179478445 -11.19533765983915 73.24469663491018 -10.631377335134811 94.34563074802777 -6.51211096049412 -171.21179693430454
2.775816326 -11.717929609461324 -76.01862632425886 -10.101807685177226 50.08096954868812 -9.682211103452111 58.38418514338255 -9.840117248953943 -153.16318720723177
2.857428571 -10.355505167280835 -76.19830714077663 -11.588412901706068 5.506131417953211 -9.90396105722513 40.12417416154301 -7.897904833269026 -141.06758528454088
2.939040816 -12.318754976348554 -84.76430521236698 -12.589756603037564 -6.1090055335547495 -10.467191119946872 16.91785299359946 -5.256777956670488 -165.52570863710253
3.020653061 -15.373489151020232 -72.09564337079291 -12.445279871174357 -37.431831305171904 -16.323218701913607 2.6984298308401296 -4.748110829208979 179.19564003622537
3.102265306 -17.339104947387355 -175.16219890693824 -13.807405020640706 -42.448217215730935 -14.720560354576747 -47.689615776384 -1.3239237842289473 167.56760811682418
3.183877551 -10.24316227778069 148.40150685607077 -13.258818491108723 -68.05035033853352 -11.903712053090775 -51.283696103132826 0.18376591483577615 158.5311306095486
3.265489795 -8.218370403815857 145.89320839646498 -14.393917681925338 -77.89294103219001 -16.23462544801878 -71.54983760090684 0.33633385654246223 157.40369728576215
3.34710204 -9.913467442519133 118.77172370066867 -14.448966371815414 -84.2201447384361 -9.898465560778844 -93.80416447980352 -2.122842232687818 144.97937981320862
3.428714285 -12.82191296886074 54.03242907721198 -11.341305401153344 -114.77214617498302 -7.7335385810910315 -80.6904018465957 -3.270417108289711 136.39535363143352
3.51032653 -13.000002927935537 -37.085192162294746 -13.447568887815757 177.06392137452985 -11.355996112933035 -179.50513946833271 -2.027299982872828 133.23908669257287
3.591938775 -14.643434700346099 162.81860145430224 -15.920479394724193 120.4764672486395 -8.082370200928501 156.26092732434122 1.9038976858513101 134.8257148649111
3.67355102 -4.278238315353422 91.76305319025117 -30.32281390776418 108.77630093640728 -27.97380256962316 29.239691587165666 2.8533707991987445 139.15754247403507
3.755163265 -2.6950930244493865 73.35267398076238 -25.341598006920016 51.51909884999936 -15.138084375510513 113.1086895917605 -0.5024772096480916 121.9276473245511
3.83677551 -4.523653526179177 59.32578965356173 -20.894351796636844 103.18274983200966 -8.7005134384291 -142.96944763052957 -0.8247938390718041 90.6740415239329
3.918387755 -9.133260933718725 41.72634081263815 -20.828053011491804 160.84407152714815 -13.673215016583624 -76.35923818392365 -1.0501250306425558 77.44516597225596
4.0 -9.991951333908478 -11.98597135804296 -24.64810698910902 126.5443269450994 -21.13499385931961 48.82716898346739 -1.630974027030267 50.84080986188489
