!Created with skrf (http://scikit-rf.org).
# GHz S DB R 50.0 
!freq dBS11 angS11 dBS21 angS21 dBS12 angS12 dBS22 angS22
0.001 -9.974270608178974 26.112107606839107 -4.011274171626856 -104.46246877359017 -4.721546069068215 2.9695559629143897 -10.114446466019915 63.926280848234406
0.082612244 0.024910568296410692 0.5902496271465669 -47.03409371574264 -29.66973023810635 -46.07605044288131 16.874909851295744 0.005923992023785612 0.05118716590537956
0.164224489 -0.012315062723363872 0.5669900130397844 -51.78300597571899 -118.93684242413416 -47.178941384260405 83.43855260537244 -0.044915490736263525 -0.0062933933679400365
0.245836734 0.06251592816032502 1.3127315529924453 -40.56710609447837 -172.02418019109828 -45.64076027883978 -112.76740497727349 -0.03825078247884821 0.3871275899629575
0.327448979 0.04290116604525316 -0.06641082378927687 -49.2017705044142 -159.28660795873637 -46.20064341927993 76.36798966324963 0.1130657557468995 0.25539813013850676
0.409061224 -0.034794985375952166 -0.40356274267250747 -48.0921303642704 49.50479096846824 -41.241650350178034 36.07827550112003 0.03329699431366434 -0.39715832744018215
0.490673469 0.08205238903610945 -1.0654941720210118 -39.78522625568827 -96.51995287270353 -37.86038007679029 -0.1123946671958984 0.11972952664568907 0.5400186442875361
0.572285714 0.0027909109891116612 -0.08180511539001814 -43.51999458345713 -163.81032740133043 -46.41411945798411 -90.68029616300858 -0.06843791391963883 0.48801231330041817
0.653897959 -0.13295682531779224 -0.44713623507948747 -37.968881021103805 137.72265038999103 -45.69261961387663 162.55792240130674 0.04664158594625981 -0.9312768238034804
0.735510204 0.14327101852014038 1.5123964874794946 -41.68614589302544 22.283150239004392 -38.43703429048245 -32.222436229553885 -0.2532760787454522 -0.7160472334778374
0.817122448 -0.01868168387329156 -0.5452112624705249 -40.214408626666795 -173.0176283848785 -50.47977184694935 8.21471032307311 -0.03847985004756137 0.6767768352627628
0.898734693 0.03833290471249273 0.7717250608887425 -52.99039770277429 70.77835696732481 -44.006226383666785 131.7742503102899 0.06803115764467711 1.95159653528928
0.980346938 -0.007973018428480713 0.34266925084329947 -52.822543630863564 -42.67610844437583 -38.196622758666464 127.50631451039311 0.1452671211885837 1.2448472711869398
1.061959183 -0.04684392978792446 -0.22201793770712094 -53.85107469103518 53.19479228448468 -47.5859234657142 101.22849607369967 0.07772935191862815 0.5475625816870481
1.143571428 -0.05156578065831037 1.6083945759315563 -38.55750331643146 -109.22218817995467 -43.83482369210316 -41.71769645932533 0.11534613870672437 0.16215025172856695
1.225183673 0.15878947188419512 0.790673871348244 -43.25394211636529 36.13572527831074 -48.63086407307663 71.56277723847657 0.06248038399633612 2.6890555459806635
1.306795918 -0.08714526409161384 -0.7004754599494479 -50.50524449866094 -60.905579875300084 -48.356471967574294 -112.14389471008629 0.05134371583900618 1.9483779720763053
1.388408163 0.13527119920323735 -1.957164681736169 -36.75624697792946 86.42653121819654 -44.91987035284595 144.15479442054755 -0.06278012658308083 -0.028777751550005247
1.470020408 0.2033403467673693 -2.403983075506624 -44.803605109918614 68.31732960153512 -45.961215707902056 -44.21471329419188 0.059443791270689356 -0.2967666741186325
1.551632653 0.05974696175843375 -0.8549410208094292 -47.46051313237008 -174.49709549144222 -55.153917936924174 12.798554410457783 0.10942959028654291 -0.677782895482828
1.633244897 -0.09122557833027693 -0.6898050277057839 -36.019667629175096 -73.68340428298215 -53.438349676983634 80.05466765886646 -0.08701441175351333 1.9972864941567605
1.714857142 -0.3507214345619166 0.04081770524204655 -60.53506933814538 90.6224326375387 -37.008987614568696 -74.36209917440767 -0.09246916261964318 0.7434570226077196
1.796469387 -0.07405031632629938 1.165535064935191 -39.65966660464583 20.729992789384372 -46.38369262319625 42.77729387684054 -0.3426895183934783 1.4347109407670575
1.878081632 -0.3529098660957403 -2.029786651805787 -46.8981462716673 171.62289592371928 -52.48660946324197 -138.7433060504285 0.5661834478076196 0.4919415810904815
1.959693877 0.21345975939731182 -2.66588985197171 -53.93608171211707 -19.53327085327314 -43.666409181711856 -137.34932495944182 -0.33665076429510943 -1.0968783295518347
2.041306122 -0.003679700871105469 1.0786843749201263 -42.911860331075104 117.17751280854264 -36.7450548041118 -31.420300072894843 -0.1204267258429715 0.07456843878106804
2.122918367 -0.38112729587342825 -0.6493756447843484 -43.327825177446314 98.83614730562404 -37.10426005333023 79.63014871638285 0.4569373501028864 -1.9293674876661173
2.204530612 -0.3727993461679625 2.39766816952593 -37.78647255899528 -94.35771858220853 -39.58325087606302 137.65731109440136 0.05199410498196089 -0.11633608164188886
2.286142857 -0.7907878760095204 1.6161764800225302 -41.565077113573125 170.4376836087547 -54.844929768640085 -172.6541624422197 -0.07620711791624256 -0.3188113776965857
2.367755102 0.04031707635456956 1.7483181976634041 -41.250380039154 160.68580659568124 -38.562182948226706 146.0760971153995 -0.6112405506281 -0.07033951123287652
2.449367346 0.15758565941444105 -4.38319917613148 -40.38003411567419 -56.938637747982774 -42.94364677835223 -78.94794201124996 0.19780864235909312 -1.553048213606243
2.530979591 0.12850347283111163 0.3603770196295342 -43.33181007363507 4.337385769196045 -37.237436214538754 50.01347407514391 0.3249864397741909 1.670781191329753
2.612591836 0.3744634870618738 7.504962458147366 -57.092649654374114 163.55388415725105 -32.67643212461434 -127.02214600781257 -0.8954889748553889 0.7478459247357032
2.694204081 0.7114778299182278 4.417716262902012 -25.97183091904982 -52.44488477699971 -31.598899957718523 -57.65928176447337 0.6444344869789919 1.1078475209038214
2.775816326 -0.19801310280948853 -3.7081563963916593 -26.030810450845323 -67.631897212604 -36.12043811951563 -76.24440237209235 -0.0011553632492209427 -1.9539478588480004
2.857428571 0.19316362182409152 -1.3410238484711718 -34.89026084157586 -29.05795831412278 -31.481524760874713 -11.846914158793721 0.8126919210327882 -0.5211928209241349
2.939040816 0.009904555221617714 3.1538073248566145 -41.79613041553523 117.07521097991891 -37.08184212084315 -175.60645034965523 -0.1936598879893588 2.0153417119447674
3.020653061 -0.17476154811642908 0.833662714442256 -35.42772920656385 43.12959600587219 -32.16061096598489 160.9303113635265 0.3606120681577413 -2.547751854508867
3.102265306 0.3508892493472586 0.19878672085236718 -34.56844261615855 52.70739891494944 -24.101791763307755 136.6458513393156 -0.13768282339544397 0.5470594051223288
3.183877551 -0.02767659167327667 1.4226155734312997 -43.46654243454647 -57.06142519059093 -28.741933525672568 -124.7895441729693 -0.4400395603662108 1.3708237748250132
3.265489795 -0.24950121460477634 2.406272841750063 -41.70013116299997 -77.39611000158865 -25.703198102536007 9.18933237231923 0.09567115140564014 0.1333724594376862
3.34710204 -0.3455147511228731 1.5363766755261434 -58.13017890082217 -8.205053837909219 -28.214082402883747 87.57316833955242 0.05996604705054065 0.9092213576506496
3.428714285 0.9940706769608949 1.2835906529886913 -40.96531838510409 133.60281459871996 -25.2938511401921 -144.6621676648216 -0.10011699964411164 -1.0727837969009892
3.51032653 -0.005400624733575955 -1.5503567763683792 -40.852853510989135 -48.47071367250086 -24.284851393769085 -12.292148933688818 -0.06053069256044198 0.6424772108300456
3.591938775 0.08889289378543477 -2.2997750844837332 -32.31548986691537 86.893340094031 -23.918966490114137 102.08014202535091 -0.22409108960327132 -1.7074824786214227
3.67355102 -0.1421556664968916 1.015185644532413 -29.219798864964027 164.92266695664708 -21.291844081413892 -132.2042064132835 0.0879713679775097 -0.18661224489668995
3.755163265 -0.07561650998949584 0.4237417247555308 -35.76936874149601 -84.60164297855023 -19.20482002650705 -8.882895023653644 0.08694295824820428 0.6448219127406586
3.83677551 -0.057615555271482766 -0.5314874567276456 -28.294245354694723 81.91374089873071 -17.566471219582326 107.46109032717503 -0.48472791975199736 -2.0154474713199337
3.918387755 0.3100063331461207 -0.04306483202257012 -25.351696334003066 147.37819585998156 -19.212415051599702 -116.61662267120316 -0.18015335801483431 -0.5962240481137864
4.0 0.15043329665561442 0.6138482828859116 -27.386305627330806 -80.63543096246002 -14.466237673664706 19.848580765840996 -0.2788508504198657 -3.4692886697795373
