!Created with skrf (http://scikit-rf.org).
# GHz S DB R 50.0 
!freq dBS11 angS11 dBS21 angS21 dBS12 angS12 dBS22 angS22
0.001 -13.806391404129528 -137.1079712313988 -14.205650526417863 -28.19554070950252 -11.068157281532576 -82.58536839675912 -25.302452686242415 102.897545209872
0.082612244 -39.28283987906832 114.29282860062945 -57.59319568782105 81.87017261868479 -48.29472237583545 34.81538975299356 -32.24276288868503 67.7197124392742
0.164224489 -36.28360258223473 -98.0410131991529 -45.323675420737814 67.05348866533505 -46.0032174810454 -27.356016152711458 -40.13028566902409 49.320595229445196
0.245836734 -48.75534562403595 -173.0291802595745 -53.75733432127491 -20.40571301667445 -57.72300120763913 -58.970081596989694 -34.4922387846934 35.38345660311855
0.327448979 -44.62280860207228 -71.08626023152607 -46.24763336483216 91.66985548597621 -43.263781773067265 -36.01759707295219 -44.74119414744849 -150.65174151421795
0.409061224 -34.865066969828106 -121.0934432960144 -54.66494583736853 -114.57717552750951 -51.32407662650774 152.62391330150527 -39.32276645525798 -98.96859429268711
0.490673469 -38.82963179818125 -35.73238546100894 -48.82809060677006 -66.18281523425784 -45.04622507924851 -61.80036154341362 -35.76742761099018 65.76541110104627
0.572285714 -37.66945884577023 29.382195255594844 -48.22039446796383 -91.36897475525996 -51.5366708191529 -49.58348059572323 -39.11245421226859 -34.42302827427578
0.653897959 -40.6670285772407 157.96176304896497 -45.11302396794329 -166.9426298492081 -50.21135781052044 145.31296757080656 -35.09676516631239 143.06160082314238
0.735510204 -36.68998208918595 63.90186091738962 -49.97615610808279 49.59616208905153 -45.371474895572995 105.4298748070711 -37.17616982257316 -52.85969260968987
0.817122448 -40.79165683964278 0.8952204394078116 -64.064416157404 -25.485666140803115 -67.1696686168408 -139.73013290134705 -33.27400400518329 -3.0413628220960844
0.898734693 -36.85301797683032 -165.27859825879517 -47.570998641958575 -144.28395185043132 -41.28397020832361 20.8027519768556 -27.204463339763155 22.544054308419543
0.980346938 -36.87294163103939 -114.05693642722774 -52.665374945156046 129.5372029694206 -39.481573685197475 22.252260685996582 -29.25156713731832 129.93054904402965
1.061959183 -28.71837972189673 -148.3327927802282 -50.44066184765729 157.21041729976926 -48.089269509827986 -126.61647966838095 -42.0089773152689 -7.982057828417506
1.143571428 -35.82362401266204 35.103452949750235 -46.63279837469665 -166.48254517676716 -45.45155205295151 -8.839613554489802 -37.22790143613224 26.604295030572295
1.225183673 -31.45997143507763 69.73270268995036 -48.27386288189391 69.73893130531353 -50.317090062998915 123.14579977456751 -45.8739218138519 -133.4753878734811
1.306795918 -31.36833727367408 -149.10231511128683 -49.91472837300307 23.0211171279574 -55.51486301328027 158.3389558829539 -37.11207284365764 12.320895325470056
1.388408163 -33.22427684769672 -5.604265991805287 -41.76079359393589 13.988378512970547 -47.974294058865866 83.63483122213422 -35.63204954476706 -3.1726416161526094
1.470020408 -47.76382192232767 104.35630006573906 -40.7972368008074 1.949205292379296 -40.22828210876377 -147.4063976973799 -25.41514883088666 134.96182315836765
1.551632653 -32.26902371093337 62.357079349940136 -43.25298507017668 -160.17689991774492 -41.068120074359854 -12.444224684392573 -29.607898632855 57.80257834290356
1.633244897 -30.614962934930684 -104.3147723901671 -36.53943272477977 -70.75186826023618 -36.72119742324327 158.6184167404648 -34.168934349805596 67.19445388264631
1.714857142 -29.476218007013788 60.31876043970041 -42.3171636795021 117.49944325588291 -37.354263898229654 160.72820689336874 -27.68551927013725 51.012262001374516
1.796469387 -33.59617952571993 84.7502417650753 -49.22417118446454 -164.40996671783319 -43.19568220909427 -34.08722450691518 -31.6174220487651 -163.4568366260391
1.878081632 -32.550934514984824 174.49381226834612 -45.709952367930484 -144.98130347494046 -36.58444786407727 156.20447689267274 -31.52917453696372 14.712207178119751
1.959693877 -41.02562920637872 61.761593810265325 -37.954294946040235 60.57580322650267 -46.56944954708982 158.643071470168 -22.21939968730883 139.31149568538922
2.041306122 -31.416122280215074 -35.244673985018196 -44.004190902946036 168.52803617623294 -40.61761698286533 90.600002860103 -34.81911259869708 -46.083291164510904
2.122918367 -32.67814684735034 60.10402224590576 -41.005773178295215 -167.96314667223302 -42.844537751076636 168.5916393978671 -34.67071845075819 110.4531190465247
2.204530612 -35.54275336176386 119.0313858151197 -47.744289632572574 -2.4044898197326536 -38.12079525936513 -53.23747726713916 -31.997713482651985 54.910114613030224
2.286142857 -37.04014155460078 -80.44984489532581 -60.84698593383446 -31.83636877927566 -42.36355613293108 30.36639459833634 -41.00612973124566 -36.46137352348951
2.367755102 -18.097850127429933 111.48522613948332 -30.84178235953665 -88.29372283283924 -31.592789177087433 -165.66602119035718 -27.528024602007335 -133.79612247763015
2.449367346 -27.567296577953254 -96.85268520202429 -33.90650991167086 4.811391036106373 -29.270039065507206 -21.680785398116306 -34.38628028838244 10.200593614692982
2.530979591 -16.402250249736227 -179.82366298733692 -35.40282170938174 175.8001154208844 -32.705610825850464 52.77564271894354 -22.998716404752784 -126.24693332790345
2.612591836 -20.430959579940904 38.07873985566344 -37.617388785104616 -83.99450356903776 -33.214193075710256 -109.45665379369522 -32.918270986400444 -177.43390300731434
2.694204081 -21.505774555432847 51.066390447871306 -34.051593829494735 -121.17814607355284 -37.04701115746127 -101.31766570704116 -22.49305158567371 153.06451360893263
2.775816326 -22.259272255083722 -142.4823203209213 -38.30218926333246 -112.45217322171408 -47.218971284586274 102.6150027183318 -38.15519085301069 176.1803891410801
2.857428571 -21.588879855627212 -119.2598163010038 -40.39922561633751 -81.910162563253 -36.03716393743855 -125.33434989849056 -29.80579798693534 37.04656288799175
2.939040816 -25.949558450545695 134.31405513720273 -31.705409691214253 -19.67125504147197 -32.31352341862361 -30.015057866383827 -24.61443474045353 112.50425875971808
3.020653061 -30.114808885820686 81.54822134911134 -37.19731748713633 106.47214207791077 -27.778962481961116 114.02741586471073 -22.378030011405777 145.0296839400773
3.102265306 -32.033202706109016 67.61499638924329 -35.718472020701896 105.45767048083233 -23.79069739044227 -174.47001763380806 -26.923732110416758 -138.56631611826944
3.183877551 -44.15718042119411 -89.91094034434003 -44.26529873542867 133.03155954843197 -30.54522273389285 -62.0069763821892 -24.526898938228413 115.70231968988479
3.265489795 -37.67293241966807 -86.12075044465136 -50.2203146340246 -171.22476593643665 -29.24731813781323 74.34198413177967 -25.9389518957569 95.5827177774032
3.34710204 -30.377900622654405 -103.92893138804946 -35.60942267541088 -117.34957659907127 -21.917526133296498 -137.3205735069051 -25.749705342582153 -37.390239802059796
3.428714285 -26.605874810161787 97.42909900169276 -31.1243616605015 -15.647695813593424 -21.7635502188968 -50.2074493324815 -32.87558393632534 -97.60025680549735
3.51032653 -32.33167571518156 178.95899178132595 -38.60451275884185 27.963347151940056 -22.876734426023564 54.183564770446836 -31.078354129630853 -2.504028489474221
3.591938775 -30.25853694142492 -165.1358111043878 -34.475079926811915 119.41836962184034 -21.655316822887247 178.93828367274435 -52.18136457679427 136.15844017389986
3.67355102 -33.00359059160737 -165.85827395945478 -34.44763663862885 -167.4772688242659 -22.880134248609014 -57.414966621876744 -28.695087733993834 -1.7460974965453095
3.755163265 -34.00641072323223 25.368589317356193 -43.163580506055695 -4.5366364722880625 -22.3294248977512 69.92867736133101 -24.751789606136917 -76.93451179831908
3.83677551 -25.166099264178598 -73.70907166585656 -35.270641555553624 -118.97469142740671 -16.1681053410446 -143.92141259947502 -23.413058534352743 48.38392810200686
3.918387755 -21.053701983661533 121.63762330970992 -36.40000432138533 -90.31196330068587 -16.466618795657265 -39.00063705971551 -28.402308522428523 102.84709217551939
4.0 -24.798610783076164 28.861619293164587 -36.98433742802529 -16.812011001822555 -19.44783865738942 72.11716535237959 -17.204256455867597 -35.468482479914954
