!Created with skrf (http://scikit-rf.org).
# GHz S DB R 50.0 
!freq dBS11 angS11 dBS21 angS21 dBS12 angS12 dBS22 angS22
0.001 2.904403864040388 159.15692407720178 -13.24156127911133 109.26898725276027 -2.0641230359088816 -35.370109166868495 -18.12326879986737 -93.16592028252228
0.082612244 -41.0748668875674 42.715321967460845 -47.21299858591601 67.58321796882619 -45.737932329747494 78.96537927319866 -39.29798582985313 173.54152280683087
0.164224489 -35.549262440015646 -134.19997995993245 -50.7103938542905 -83.25451120955167 -52.97750783843776 -94.20945444318598 -38.23149587664965 17.021523042443608
0.245836734 -44.27023922391102 106.36830295154023 -61.21702105547462 -28.439815172633143 -41.4688866728188 -144.47409727884494 -39.73523106773967 42.15475163551661
0.327448979 -49.5329721303969 169.01264039444735 -49.72392177248646 138.6363555357158 -50.55886442379767 82.35166595075535 -39.099386670091434 165.5157626209345
0.409061224 -47.39045345786877 -25.853756660964123 -54.217227818045416 75.8498484121104 -44.65238020374234 118.83141353577444 -36.0397970369586 -80.10971640396707
0.490673469 -43.8737805335618 -9.16293692156622 -51.17154290158367 -0.4245018431068677 -47.164444291403825 28.247323197160693 -48.763571744770346 12.98562662381849
0.572285714 -39.76537049711076 -154.42747787314764 -41.34436909976272 -85.14712589921709 -41.33396772653671 -12.280521991853089 -36.267064780132834 -54.8405044892046
0.653897959 -35.523688500676585 -142.9877725448317 -42.85950777859337 -148.12785320708062 -50.64791163977398 -94.41551315218857 -37.19120822635867 149.14197602631023
0.735510204 -47.01274408338157 38.76973183171243 -43.17698815478355 40.18200805791458 -58.84112021300945 137.39338379143865 -42.79996221237282 -77.5676041733194
0.817122448 -51.951252827970826 -122.40368360403787 -43.154639926326524 -101.49975211721244 -47.6784003459931 -81.44816125162463 -36.227175246601504 -41.09076194936345
0.898734693 -35.678341780742855 104.03712591947166 -48.83684777666077 135.73196163527848 -47.99837385649609 112.7784565610327 -29.92487397054038 61.75171182560431
0.980346938 -44.47299877396609 -123.06378305733912 -57.35160450630693 -162.53972428111197 -41.4160857685038 171.05120990427199 -31.707727545123838 164.92331357057546
1.061959183 -37.567907960802685 6.033660311480992 -43.43481090014719 -156.14637539273127 -53.20899066600938 164.6227806430073 -44.74029186930547 113.01281585960437
1.143571428 -37.36910323911917 -8.527845454737868 -41.592991412331514 -62.27781527658876 -45.37919006826559 -59.870867852902364 -29.413257561565658 67.48734204951192
1.225183673 -41.5164941448516 90.87132258546823 -43.53421753540728 61.59703746822308 -48.45740205336295 55.09795510916542 -40.56481071810201 -145.9640389691024
1.306795918 -45.69691663682616 163.926271681194 -42.99972953747823 19.291586157370723 -41.38585939245761 82.59245280195606 -34.492284595379395 -117.7278031036289
1.388408163 -33.15879472693756 29.95490324612443 -46.738484416320475 18.19575452366576 -42.34749282778549 -88.84894465390602 -43.324909640959845 -69.96542346383426
1.470020408 -34.60452745068685 -127.39837036849846 -43.14157540999709 -8.250967213021022 -46.4043507714721 -137.2713704530584 -26.357944110973254 99.56955860306941
1.551632653 -33.894856236684404 -134.32803664058972 -41.39020733553324 137.34697377282097 -37.578429182572464 42.45825012159763 -27.67203146605327 110.0486879932038
1.633244897 -42.86077613896083 -177.80236982715127 -45.47344386680534 -66.81720508216856 -43.959450914402034 -169.20852845465433 -26.71588497268118 74.23672796929698
1.714857142 -34.71468460323691 -161.9931282581268 -46.130012604954764 -91.05944842129082 -34.96345957203554 -121.04295223415765 -49.00586874385815 51.31733855957318
1.796469387 -33.77227508732747 66.76072548316198 -45.246136615263914 99.63303923598328 -43.96114198482519 72.02183562030665 -30.515039408250612 -78.25020063836962
1.878081632 -34.19245488936887 119.87654698879263 -40.28455463623254 -30.55625785766427 -40.56222106785921 89.32148439492252 -36.892379965177035 47.51511018709449
1.959693877 -31.71504643513787 -66.51457104014322 -36.67711952798124 43.77674365203116 -41.0266511112214 -128.39540776767674 -36.878422607437535 178.3613065379194
2.041306122 -29.401598583126418 -19.56034291143078 -41.66656654511918 -35.9709194966136 -39.342848796113316 1.4790422800686864 -53.860818244578496 -109.37334200066655
2.122918367 -28.77517608381904 9.216270187848508 -44.49515862788313 -98.22095978158696 -55.19131739427471 2.5386150055430776 -37.72377118381553 65.20453588107527
2.204530612 -33.58543060840958 -159.79673890123175 -43.86980644371508 69.22271612205594 -46.680274218802786 -50.729901587549406 -27.126131950516232 99.58911794506179
2.286142857 -36.41791108722303 -59.03694134639471 -42.48545199980904 133.5821128994331 -31.51665368100105 117.88747037648426 -36.33228566752395 13.22752640597744
2.367755102 -20.380843270292353 93.32952193783768 -41.05032873146704 -51.11501452013293 -29.11066582182109 -161.42758398095643 -21.653663129801757 -85.46246172381585
2.449367346 -26.256584453038062 73.5232939432348 -42.6495251673311 -164.92625108044177 -26.874183223894946 -47.441619405341974 -26.892895391572917 157.85558264185576
2.530979591 -17.144312652705317 147.73638521257104 -44.208655838711024 -162.01192996633026 -31.526724058786115 81.41312138331175 -22.65918675990845 -157.14946946127318
2.612591836 -24.8347359743145 54.763607096405664 -28.711704133748135 -113.90039990810328 -34.3212101261506 -103.52263939444451 -20.68531802630475 137.6612371189189
2.694204081 -17.77417097426705 55.18629200772272 -47.53247743884232 21.520351452765034 -44.88685230853591 -56.491645569534136 -28.05541556787219 -106.23831521368962
2.775816326 -20.83096952766803 -122.07660723292358 -49.0406412526704 -127.96616180124106 -37.220996056946746 30.958635429353496 -24.214328694398123 128.94804887894136
2.857428571 -25.406021354937252 -139.50632865877753 -50.87118676139291 -25.584133187060015 -44.47391692402149 -126.0687175318386 -21.248721203181596 6.233165831447808
2.939040816 -35.00550008408328 146.66461317256096 -39.56904971579206 22.921239018401117 -28.397502113207565 -43.123792412604026 -29.640094698230254 73.86237821179861
3.020653061 -30.131929373555217 -19.762944697954318 -33.230286000779394 90.94625345841948 -29.492245980957502 108.5267898297717 -27.363322838698025 88.93715916603875
3.102265306 -27.891767422713 127.66004914242727 -39.417275831232644 136.32882829999195 -23.29592137342566 -176.59768410915228 -30.580780661613275 -89.92311780968355
3.183877551 -30.467180019578727 24.678370211883106 -52.09504393880866 -45.45988284662359 -27.86559211979542 -65.06722030545848 -27.957885428953126 112.59368263982171
3.265489795 -38.11378177763296 -78.56315252577383 -37.87104134134332 149.12174158461343 -26.70504143348078 69.56735641077762 -23.943142283171355 80.44608435896606
3.34710204 -28.330628461708987 -44.8668809485287 -41.082129879722714 -76.00332219473866 -20.15189493960826 -152.14587560937932 -19.9988902891514 22.348963478697094
3.428714285 -28.593886036717926 28.802553976263493 -34.941478756061144 3.8080434349123933 -20.301685937678506 -41.216999184614274 -33.44808264966378 166.35423398765542
3.51032653 -25.90823589016616 -149.54132140852576 -34.25774109755399 18.645907417679393 -24.136541376849394 55.60760080753328 -30.675693261026513 83.29457153228999
3.591938775 -30.30905701365382 -136.51287915484917 -33.68535790737388 111.50924998962526 -21.678032508604552 176.67730507340056 -34.155949515543746 55.332240580516846
3.67355102 -33.83780541028863 -168.49486402102536 -35.22073549971657 -166.81886699005634 -22.74035062214539 -61.444449440213404 -24.911448786876914 23.004054830105574
3.755163265 -32.817795318943254 68.12875355305513 -45.5101827213842 -17.690827162517913 -22.2621297340105 68.67835085517565 -22.672438637586787 -85.05961560134678
3.83677551 -27.811222898259164 9.516916234097447 -31.58129302141036 172.46657718402778 -17.40868816159821 -141.5129180763291 -28.714824752382576 9.193062414818169
3.918387755 -19.864631977565274 173.45576483760243 -50.29482615794153 -87.04928276212014 -16.900979401646524 -41.21030260269685 -20.37151289765938 151.48616805793046
4.0 -25.912365427396974 59.19089252552946 -34.828932734818075 29.890491132418564 -19.189879265978554 72.72691497238968 -18.21768171985934 -11.08479458579667
