!Created with skrf (http://scikit-rf.org).
# GHz S DB R 50.0 
!freq dBS11 angS11 dBS21 angS21 dBS12 angS12 dBS22 angS22
0.001 -4.521198614042304 -106.41046043115509 -17.49466610157213 -0.5090564873305083 -6.438460568215794 -55.543581164459404 -20.52560892421124 -156.7632643073488
0.082612244 0.07014008510588216 -0.7533535385688694 -56.59625504732131 -62.24976774477128 -53.24557173924912 134.65492406186286 0.065358016291922 -0.0704049005848596
0.164224489 0.0019314484072907576 0.3125141561723774 -52.80810557446455 -22.756317451017647 -48.769869127271804 66.45956946253403 -0.024207597448150913 -0.09590366524752202
0.245836734 0.05491397511546635 1.2987946880069399 -43.4485466698781 -90.37572731095914 -55.0864787959269 -159.2026260797703 -0.1335582417298187 -0.4333766864709441
0.327448979 0.07380023889419483 0.16612438815694433 -49.37512478044678 -34.07475199794062 -49.17895073646697 0.9468484806406716 -0.1964508054902443 0.4301209256035302
0.409061224 0.037432477749432765 0.08041976440128665 -49.479037311094665 173.582507183416 -45.44500138385903 -108.68041627635795 -0.0020270157453034865 0.22847181260263114
0.490673469 -0.02221038109105986 0.41492110153051787 -50.439916524102 -87.42952300856474 -38.98514582260727 48.51484300022964 0.08606877681299696 -0.19199229732445716
0.572285714 -0.059797681070770874 0.37931078973761917 -51.28602785142408 -110.888359899814 -53.042273276924014 -28.81206349722173 0.08830669983418091 0.22318784611663706
0.653897959 -0.06332351988358259 0.3844898628304891 -48.460810371400754 94.82651734353034 -61.0970282621694 121.57128305319814 -0.1900761874866968 1.8315547533647165
0.735510204 0.36404206601305755 0.22983405628166523 -43.00307860834749 74.15567241230916 -39.67756570218469 54.54336640891577 0.055479527139527626 -2.348530216458512
0.817122448 0.06398334935428267 0.6568330567727466 -49.332636234608415 67.78340784168799 -42.52281221273936 -24.122494972852646 -0.05664842921931748 -0.7174895824958802
0.898734693 -0.014724913696958754 -0.030982413887754124 -56.07829072454387 -46.61222523124883 -50.8290637056566 -164.37505725792147 0.10975509198453486 -1.3576740612552387
0.980346938 -0.03811945942903385 0.5064822304670071 -52.26547480798164 73.84878137211204 -46.08175023367842 -29.36516200630868 -7.647127121729696e-05 0.41464416698794004
1.061959183 -0.06943612437383338 0.4084823375722767 -47.16905784810629 -172.9466584909662 -50.375406572535994 -35.62636607243892 0.14553402206448154 -0.4015104719579251
1.143571428 0.05938214995388631 0.6501606328293141 -51.64359970148807 -40.89182812736643 -53.557383550809014 95.99245195265966 0.03270643184585694 -0.8515230354821953
1.225183673 -0.31207723277159566 1.411646340573171 -38.73117583575486 -54.18963588064101 -50.96839880622218 -150.49850867317807 0.202246120156753 -0.11427978645221157
1.306795918 0.01703699660209282 -1.834096985189265 -41.0153092589167 37.306145841318425 -51.82263748867104 23.059417222693657 -0.3814805149561565 -2.441873004414812
1.388408163 -0.01924786351871548 1.6341772115888302 -52.61101397685312 -15.510428020901918 -40.29386827660822 -120.90293850085823 -0.016497466091456393 -1.1299783132475945
1.470020408 -0.09128560094782562 -0.6462116384287094 -50.09773833169409 -28.273851022735347 -44.710903702268546 -159.19992179155213 0.30450145791557204 -0.576431975022887
1.551632653 0.04672938756180919 0.45839045746533197 -44.455514617567204 149.17941078540935 -46.373990637040706 52.33316749595086 -0.2510284662355647 0.19680467135420696
1.633244897 0.019251145821221737 0.6277454510597671 -52.441549004715526 -1.6581007926273768 -45.03116737101334 168.17115186287674 -0.22058104962495428 -1.3633873722227015
1.714857142 0.5194732228743446 -1.8300364969222793 -62.228319322264 139.2710383971862 -33.515133453538695 -123.53867669519909 -0.3554842179352111 0.5492782817002342
1.796469387 0.034745596974178075 -0.6435583987619496 -51.85622784889681 26.525052006217077 -45.386862792513575 -49.40880717648979 0.26541458934382206 0.7184185247969999
1.878081632 -0.24493150816581677 -0.8047075091005521 -47.22752497791756 -99.09726601093321 -52.77120149993955 -71.17670807877191 -0.4427742045760358 -0.16736218483461565
1.959693877 -0.3374993447248731 -1.8139550422346242 -44.777898543197985 30.520479786463202 -38.39584661409204 -102.76933482047656 0.25434804014672635 1.393520505837659
2.041306122 -0.5268608770813936 -1.3786950860365086 -49.46979648081397 -156.30057095840277 -37.57626734088572 19.820971093271684 0.3836171863175184 2.0867652904429845
2.122918367 0.20936905709923925 2.870416994534329 -53.95642900050209 68.39007160602581 -37.08513371354727 104.42683135279955 0.25687363180041 -1.431923584851809
2.204530612 -0.004394255383356749 -1.9682562934104066 -49.073179825045266 -23.28393754589422 -34.460862502957795 -77.72007527599901 -0.5317416961098003 0.18004729861866758
2.286142857 0.6643930959698912 -4.237050218201878 -36.99803621398574 62.73561574478069 -40.01193521535895 -7.91710095674737 0.13126142898460783 -3.163392592034192
2.367755102 -0.2291323778879944 -0.6037746832435277 -39.485759908371286 -172.50865388655652 -33.312899342964215 171.07525277384482 -0.4391501941871149 -2.1982353005310387
2.449367346 1.6675951957374122 -0.6716821456261698 -32.00135179094983 24.275769723802934 -30.850214859291132 -76.94582033500919 -0.10038260121212005 -0.9915540423610403
2.530979591 -0.18045874488048996 -2.714699179091405 -29.62838333304843 101.66535206525948 -30.47150082916774 65.70090113239026 0.24808054446919622 -0.38694866475003314
2.612591836 -0.25164882397638494 -0.651758228968662 -33.50024655807012 -96.55269060480227 -35.728530816601356 164.76657355702378 -0.6996303779658657 -2.8978832045463854
2.694204081 0.9237657445567129 14.321412904141203 -30.8976701538322 25.90527452406573 -24.962834524857694 -10.973331744662898 -0.5610568078858093 18.095824678389366
2.775816326 0.6005316592441541 -5.120319796300146 -35.80451446051576 -121.47324513275507 -32.14513639389502 -21.599756790422372 0.15651460938155332 -3.580494492619713
2.857428571 -0.866183340779149 3.3026758921847 -38.78313148383638 -17.519958370274562 -47.74231124573683 -131.10253247368178 -0.2466303397084568 0.7851159203473282
2.939040816 0.029087587120586587 0.16092440428017846 -39.9139699466982 36.26615713944605 -30.32444506571373 -53.15302348843166 0.016812578923372342 -4.645140272531057
3.020653061 -0.43937575950946245 -0.6507690244153317 -37.728999919185846 70.13127169947427 -29.46028368170505 61.311589468368624 -0.7892121712035858 5.412114097419924
3.102265306 0.2689443395850948 -0.32510123916813455 -46.760572748283664 71.5356369152549 -25.016101415795518 155.81184487415436 -0.11325152160553721 0.9137409858696571
3.183877551 0.013354930356820451 -0.18724576203179838 -43.57145782444108 30.78108500662973 -23.88322943577044 -96.09508551384702 -0.4093131869900243 1.567549526253688
3.265489795 -0.7030909090387804 -0.5164894568198217 -42.00922876304791 68.11535906831598 -21.909529225006565 14.075052379723195 -0.050163437765487734 -0.07958256251018418
3.34710204 0.11167060609014297 -1.3382562726418272 -41.00836479504021 -95.86996659650195 -24.76534354352355 163.8265688705822 -0.17963861774776743 -3.5641886244655954
3.428714285 0.07449790087863131 1.603923652997284 -36.85328599066972 5.4636757178560496 -19.52315899859293 -66.62522388150241 -0.48158475341029133 -0.13499004681525983
3.51032653 0.016361219436791544 -0.2526487867760703 -29.060440384674052 0.4919997216075691 -20.073828982004738 -9.116244263868767 0.2523507663475756 -4.258170037127238
3.591938775 0.09232627596030744 -0.8707088676487325 -35.14249396367935 95.00169918503425 -24.229336632572824 117.41282569178746 0.04400204636513555 0.3189560065154342
3.67355102 -0.25558454242513506 -0.028666664165238023 -33.832203120824815 -169.5193253780677 -18.420634881807185 -70.81764866358355 -0.32296509542810525 -3.156248745844275
3.755163265 -0.038034424066885286 -0.2218280681852632 -35.92828266535293 -88.45490752719712 -20.23841562064269 10.63913104608611 -0.7086816742882633 -2.3813734214925275
3.83677551 -0.14008790996956155 -0.23121711352107743 -37.024747154715456 139.36731445768044 -18.041501055979836 175.30753558495843 -0.10025958016557726 -4.270151852716164
3.918387755 0.5008081966203399 5.853847743331699 -31.64225849527696 -147.40657099922944 -15.37441005000732 -58.839979119502345 0.15957406769699778 0.7703515944000688
4.0 1.6699424732478796 -1.7546599854784215 -34.358496328743115 -92.65920557347725 -17.440802300572106 1.274230979567445 0.24388493702073202 0.29368390040862913
