!Created with skrf (http://scikit-rf.org).
# GHz S DB R 50.0 
!freq dBS11 angS11 dBS21 angS21 dBS12 angS12 dBS22 angS22
0.001 -14.179351685982624 -126.12666310572455 -7.2937878963192 4.133728652107186 -15.603381626052208 -8.952435075822647 -10.552501217178085 -176.35454160866595
0.082612244 -0.028903070400765844 -1.2140055610411349 -52.65421281887677 9.23294457497983 -59.049405643611415 -76.46872421176015 -0.05891036370021047 0.6001883423108353
0.164224489 -0.08617580509404892 0.45722457213828815 -47.68029203119575 -89.93390916953899 -48.995370834669544 -120.17842810141568 -0.07621308510543398 -0.3367497562761063
0.245836734 0.0943986762359756 1.3427432831174086 -52.68366916681096 -121.31954924466494 -62.011536585136824 47.321310052977665 -3.373912467397782e-05 -0.40435233092999373
0.327448979 -0.04174142255492363 -0.6140494921448468 -53.37877504959816 113.98318744372129 -51.815819069512735 -20.711787331622883 -0.17462436924520205 0.21421830375541054
0.409061224 0.05877724018161099 0.12118353954784093 -56.73748021136744 178.2291802302469 -51.44489799722428 24.015020484120868 0.10764249146165708 -0.7758064969695491
0.490673469 0.05137199554264779 0.4215079467842824 -40.33256154992684 2.5646803490220127 -43.12836182118649 -50.630242758759536 -0.04253571193858054 -0.48985282896097687
0.572285714 -0.03544811284146314 0.523823359056424 -63.09966712920266 -53.41000269369188 -46.63637337088637 60.001920053728696 0.009306404278549668 0.11850941985588379
0.653897959 0.01675376314930871 0.6099701003439273 -49.30162589287002 136.11266973689575 -45.5003815534753 -147.84107306395296 0.07754192224135795 0.9639381597092482
0.735510204 0.2655856284701489 -0.6836240068285524 -44.35588594999038 -4.4484741802252055 -47.04645790008403 -126.72171668201527 -0.01761136417355221 1.4941185779102142
0.817122448 0.14059922309750214 0.22114602631906538 -49.40579855206608 50.16598743733147 -49.30452325984656 26.00885332197008 0.07844405405938774 -1.8124609101798943
0.898734693 0.015807559083639233 -0.5216172939840089 -69.055951172041 159.83347476121529 -44.49649988119895 158.90412298733608 -0.038298984849801196 -0.24605028547927263
0.980346938 -0.1404501649222935 0.6149380089102979 -49.24230517163289 29.21463313649305 -58.61598538112143 55.51863448579468 -0.20229802670579275 -0.39442064485110573
1.061959183 -0.0888535654433596 0.29674594721774367 -54.584994616310844 172.55223575284995 -46.06651064180362 -101.83254187863352 0.24588726099088426 0.027529595182182492
1.143571428 0.04428583850864867 0.2507485050981657 -54.37290051796659 -144.62151401595167 -51.99723031235065 -30.928344467361093 0.22976015274986566 -2.016313817995107
1.225183673 -0.09545657106592596 0.5054918688090545 -41.44711192120177 10.279671793484125 -40.1555468178792 68.44349457004407 -0.10435609528790707 0.5189601475595833
1.306795918 -0.014206308594274374 -1.6066489083119653 -44.047292597073394 -48.236949160435415 -38.48287231280559 102.294699590149 -0.4672739600903969 -2.698026834505304
1.388408163 -0.11234361626994523 0.5614295541692766 -46.13880865574359 -30.038142389014283 -47.76496249031241 -172.27493046105926 0.027429330226370924 -1.1947779707459951
1.470020408 -0.13248063772188934 -0.1530974305982826 -40.630985775873285 87.37063302201148 -43.27876494320777 -148.80428808722246 -0.08579058065160641 -1.1484481972716343
1.551632653 -0.012177748012089961 0.42342033982801514 -40.24999341060124 157.56274602263136 -44.37034570187259 -14.810799919806144 -0.4769004160233161 1.7155909174161517
1.633244897 0.113560396658441 0.49797577940446824 -44.308119305914744 -90.52929646753992 -43.82670836300508 143.64480129947603 -0.08857931200628183 -0.6221407683864696
1.714857142 0.17938466448306378 -0.10665025165656773 -42.642855228219794 -58.49831559743967 -34.974373369854 -86.11505394895373 0.1998915192302445 -0.5891534141230401
1.796469387 0.43167845500846447 0.5572859931410971 -41.32541309117792 -174.8015415124395 -46.02029633338604 -6.775904337026389 0.1507887763758427 2.0446779728732243
1.878081632 0.006971683957489431 -1.3156960346361875 -50.12796130672526 -104.34105837612601 -62.27256424085442 -162.32898304403213 -0.05862137939786554 0.3778318128010942
1.959693877 -0.0019351047794984163 -0.6014736348633981 -40.27155310256029 24.83228137238853 -39.5406166471684 -80.38780417763179 -0.08924516247295108 0.5299259647229264
2.041306122 -0.4322072301751161 -0.11848329058747548 -34.42697243255496 85.74995373307041 -49.08385177630271 -53.99942291558572 0.5617760461102451 0.3052902316782186
2.122918367 -0.09881992624326627 0.6446063449733248 -46.53335055082686 -52.845693613535154 -41.24786793726416 119.6363922847504 0.028349611522078315 -0.9618602702677252
2.204530612 -0.13438379791605984 -1.6124078255219596 -40.697730166633605 59.62931680505919 -37.27916020597511 -60.17988606242977 -0.09159826968372933 1.6547048663565511
2.286142857 0.568912878424075 -2.860520570715476 -36.70154593075178 26.552961302673516 -44.51505640613629 -36.340706188711366 -0.2475355310531688 -1.2151989309717586
2.367755102 -0.5011347231837464 -1.9446528363569773 -42.5947222153945 -66.47910541133218 -32.17604326280322 154.77595695784365 -0.39460317293005487 -2.6480446116851777
2.449367346 1.3800922323609641 2.5965663122963583 -32.75642002429417 3.9258001325764016 -28.82462063632773 -29.003814401020975 0.5032023018704581 1.6507598354656958
2.530979591 -0.35008016227590266 8.185715383784569 -30.01098616685395 161.99173858841078 -25.18640677790036 70.95179052902607 -0.8444622115122193 0.19631785760845324
2.612591836 0.2944344850859399 4.317241468359871 -40.06991218556597 -17.661914700454002 -29.135887682562164 -146.93986025587208 -0.4434998387988174 -3.026361574061104
2.694204081 0.9592870228658568 7.222973794035739 -30.050432644921653 136.32469360334966 -26.51778618582249 -27.747741563556374 -0.803388979659976 12.387696229702632
2.775816326 0.4939135601990771 -2.9697005753206005 -40.51358129775955 102.95376798111181 -40.124073353169145 137.19771148281058 -0.9850123373641604 -5.726589167753527
2.857428571 -0.05945056144252314 1.3321411073262868 -50.9823507702133 103.20828945214272 -35.14651132764098 156.6672841002452 0.005486622605703314 3.36568679095953
2.939040816 -0.16533418778864484 1.72350032677311 -29.693580810524285 7.408302842949476 -29.079158320534916 -37.52754093080316 0.057963178422453666 -3.1618967566661986
3.020653061 -0.27277374437990015 -0.6942430587938211 -33.86519407507591 90.69851041327745 -27.83612831183494 38.403964442295134 -1.1853791976085346 -1.1679237270776979
3.102265306 0.42392610580114093 -1.2446236502038173 -41.265745089790485 80.30633022380478 -25.403455969508958 158.52049867718733 -0.09116870839517997 0.07842093483586095
3.183877551 -0.06252985459857135 0.9284930911698782 -38.9130997829787 33.54014894291877 -26.272161067368106 -72.60371884774932 0.3228835177052008 -2.0390323096231753
3.265489795 0.17246116746706894 -2.203598130975493 -38.87576772514053 57.40242462193337 -23.49499441361533 16.82365046293616 -0.15060778634446384 -3.094643913658234
3.34710204 0.06769375149886987 -0.9963345195178527 -42.240356933618045 -116.74948077755849 -23.092003337257843 154.9614996795605 0.2128302868469113 -3.398080234960563
3.428714285 0.18691900434803077 0.9445284588722898 -35.55597671212211 -67.42894296763028 -20.615870467377512 -66.3189825721748 -0.13468509072134077 -1.2444738662530015
3.51032653 -0.005073791157989178 -1.6247913816638864 -34.23461509934248 15.007024005900272 -19.294550283525883 -10.470824116417454 -0.025772483604635715 -1.3297530766669639
3.591938775 0.029315031959033507 0.9967793194044675 -33.47648755933371 88.89152939822552 -25.244724435467432 116.94310136029145 0.0367023548239767 -0.7038668379941813
3.67355102 -0.3900612627259571 0.18785479025072593 -33.32739405953211 -175.3761393031499 -19.484458856671615 -73.97688919856786 0.1501348120427894 -1.5870654550023706
3.755163265 0.5343360322265305 -0.5370581640746624 -34.48314668980429 -88.42975051140279 -18.542534866459462 14.24446170447665 -0.7890604872774477 5.275616465358499
3.83677551 -0.525163302034657 0.5365017329949232 -33.35511490037587 77.2820156032349 -17.37450689332189 179.08789564454162 0.8254831857308491 -3.4140858975090236
3.918387755 -0.20597213798938888 1.6876936126985491 -31.59052468614565 -141.673663492057 -16.220211129699223 -58.44215296158541 -0.47537940700019404 5.307308413873659
4.0 1.074799725210928 0.6724101896646174 -29.90242279581849 -74.26723740727643 -18.57218042190447 5.3000825553497455 -0.19558546868682913 4.4108420628832405
