!Created with skrf (http://scikit-rf.org).
# GHz S DB R 50.0 
!freq dBS11 angS11 dBS21 angS21 dBS12 angS12 dBS22 angS22
0.001 -274.78192700027256 11.95298276388104 3.085847892970513e-14 -3.9645779306420795e-13 -3.857309866213149e-15 -1.3684837527089467e-13 -310.1954383205423 -126.56647027161434
0.082612244 -302.71501426399544 162.7061624700643 -1.9286549331065747e-15 4.336051541484318e-15 3.857309866213148e-15 3.941865037713014e-16 -303.4755889921986 69.91669477828837
0.164224489 -313.9387127182357 -15.68638977455983 -9.643274665532871e-16 1.2804386638768372e-15 -9.643274665532871e-16 4.0547224356099844e-15 -311.4476914951893 -127.2117995819531
0.245836734 -299.79222181736463 47.174425517631015 3.857309866213148e-15 1.9728460382042996e-14 5.785964799319721e-15 1.7097998997770592e-14 -302.3092062438019 19.41274152178223
0.327448979 -310.3702113081969 -109.63255210453963 0.0 -1.0760285102850139e-14 0.0 -4.120960252155372e-15 -305.87134844394535 -31.5684616730715
0.409061224 -312.7627977833802 -62.01615625888929 0.0 3.8770670025077354e-15 0.0 -9.934984193926074e-16 -304.024098237358 -8.436599173995385
0.490673469 -305.4795170127396 78.07422168393052 0.0 -6.03174234390108e-16 -9.643274665532871e-16 5.0264519532509004e-15 -316.1442025534001 -120.54096116712918
0.572285714 -299.8649883520832 -24.557394978079834 -3.857309866213149e-15 0.0 -3.857309866213149e-15 -2.2648039006414596e-15 -302.5519727753606 -11.126366107398166
0.653897959 -316.84940310113757 -155.6471706028007 -1.9286549331065747e-15 -3.4722643555069088e-15 1.928654933106574e-15 -4.493518577714821e-15 -301.9459711481578 93.26843335479487
0.735510204 -299.18665744178963 28.372703235843588 3.857309866213148e-15 1.9262540814999078e-14 3.857309866213148e-15 2.2014332359998945e-14 -298.8347219215385 49.897740891536436
0.817122448 -310.3321845438721 -66.57372118001093 1.928654933106574e-15 8.718860172161862e-15 -2.8929823996598616e-15 2.428037009969127e-15 -304.4640340076489 164.20097403926644
0.898734693 -298.56961630576893 120.9332543227777 1.928654933106574e-15 -9.330352040894621e-15 0.0 -1.788317474504803e-14 -300.53189635038945 82.3660977573851
0.980346938 -307.15007716273544 -104.01780011133918 -9.643274665532871e-16 9.185155722324702e-16 0.0 -5.511093433394821e-15 -316.30632994639154 -28.642318406002882
1.061959183 -307.0502458147974 139.50371793464535 -1.9286549331065747e-15 -5.469587376245572e-15 -1.9286549331065747e-15 -1.1720544377669081e-14 -300.32959530610793 30.965904267999303
1.143571428 -309.1269577655131 -170.4093368983672 1.928654933106574e-15 3.52197490811668e-15 0.0 1.2374506433923471e-15 -298.01898742417615 -83.2337617006957
1.225183673 -314.41606458389606 166.12659964285223 -2.8929823996598616e-15 6.610049738918635e-15 -9.643274665532871e-16 -2.2033499129728778e-15 -305.6359536006907 94.86794008804495
1.306795918 -310.6382315031436 -156.2881951375288 -3.857309866213149e-15 9.596459245877673e-15 -3.857309866213149e-15 1.0042806187546401e-14 -301.524087417101 -123.25604065967349
1.388408163 -315.5680368037502 -45.77410275611213 -1.9286549331065747e-15 9.411220848949927e-15 -2.8929823996598616e-15 5.7915205224307256e-15 -308.2168706221658 -84.09963370899455
1.470020408 -304.7714160164957 131.4508375687657 3.857309866213148e-15 -1.0626978589772414e-14 1.928654933106574e-15 1.3307657873678972e-14 -299.06065876159187 167.18964244835587
1.551632653 -305.03262117176394 -75.79940076606378 -1.9286549331065747e-15 2.2511578386755882e-15 -1.9286549331065747e-15 1.7258876763179508e-14 -307.05392827000264 -157.65451749052795
1.633244897 -321.71876992026364 109.87019255772594 1.928654933106574e-15 -1.2446082641804164e-14 3.857309866213148e-15 -4.27253583226113e-15 -299.7589846666131 112.4143625241156
1.714857142 -309.5263020288592 46.95665004582955 1.928654933106574e-15 5.468678876941706e-15 1.928654933106574e-15 1.1718597593446514e-14 -302.9733870707081 110.08844942503744
1.796469387 -310.3474474522709 -80.28179396832293 -7.7146197324263e-15 1.3739975985746867e-14 -8.678947198979589e-15 1.7308800917109695e-14 -296.0923464543894 -108.08785551006856
1.878081632 -307.39874286558666 -161.87789460666227 1.928654933106574e-15 1.3639176787582126e-14 1.928654933106574e-15 1.0608248612563873e-14 -305.99171787983744 -125.42090191217439
1.959693877 -309.0294536833976 -50.02136201455298 0.0 -1.099880116817533e-14 -3.857309866213149e-15 4.105254295665443e-14 -293.4988425917947 -148.3418085592346
2.041306122 -308.61144628313957 80.3617722385926 1.928654933106574e-15 -2.3174812774518287e-15 0.0 1.9312343978765245e-15 -304.049186028475 115.03780687829438
2.122918367 -300.48628436170225 134.18070627241443 1.928654933106574e-15 -1.2526718072963017e-15 0.0 -1.8969030224772575e-14 -311.8731059655541 9.955179760870104
2.204530612 -310.0385432986585 -82.12724548735814 1.928654933106574e-15 -6.731072250881024e-15 -1.9286549331065747e-15 -1.8697422919113964e-15 -303.47120210249045 -80.73571883481031
2.286142857 -311.9566195701934 67.39617039166824 0.0 8.486665254814651e-15 -5.785964799319724e-15 1.1498062603297275e-14 -302.74793358641125 -126.053046696159
2.367755102 -307.36288750530844 -62.668773919444355 -1.9286549331065747e-15 -2.8958636022483213e-15 1.928654933106574e-15 -1.1583454408993279e-14 -309.9013966849936 36.17304064074731
2.449367346 -302.5001767443946 -120.43243483399779 -1.9286549331065747e-15 -2.3588508168492753e-15 0.0 1.1695968633544322e-14 -303.27631306733116 -124.20953670320307
2.530979591 -302.77554298534653 28.59579540639563 0.0 -1.4741830947818723e-14 0.0 -7.594276548876311e-15 -312.72243515322435 -71.18802553305675
2.612591836 -303.4336099871593 168.02993199261965 3.857309866213148e-15 9.050447398355597e-15 0.0 5.115470268635774e-15 -316.80672268137863 -59.06280663838084
2.694204081 -298.8004726466202 -97.92660104128878 -9.643274665532871e-16 3.384482137592928e-14 3.857309866213148e-15 2.6034477981484044e-15 -295.9618091618855 35.82270019687389
2.775816326 -310.7619166421276 -108.23117463079404 1.928654933106574e-15 -1.150206471793674e-14 3.857309866213148e-15 -9.20165177434939e-15 -307.55157480228706 56.63157700194935
2.857428571 -304.222850686504 171.8826419947095 0.0 0.0 9.643274665532866e-15 8.354116603860732e-15 -302.5748482328539 140.50784520171655
2.939040816 -297.96781970171827 176.63370878500209 1.928654933106574e-15 4.064308048535361e-14 3.857309866213148e-15 -3.1860041905891596e-14 -302.6034978291198 47.10459286704537
3.020653061 -295.9338352272023 65.13044385064306 0.0 3.229727775554946e-14 -2.217953173072563e-14 5.774361780537646e-14 -290.5908542948756 -111.21231200171916
3.102265306 -297.1097221561515 152.65874429872966 5.785964799319721e-15 3.42880164665968e-15 1.928654933106574e-15 2.057280987995809e-15 -305.33632178744506 -128.36639450871473
3.183877551 -301.10349848959754 9.46825010969233 5.785964799319721e-15 -1.9107530469038266e-14 -1.9286549331065747e-15 -2.4986770613357757e-14 -295.81615801526914 -65.48427398040926
3.265489795 -299.0154602628741 -61.1165955677375 -9.643274665532876e-15 -6.469197550318257e-15 -1.0607602132086164e-14 9.056876570445562e-15 -302.5405014491185 174.43172692923193
3.34710204 -302.5086088348598 140.06507639294455 5.785964799319721e-15 7.580375086666906e-15 3.857309866213148e-15 2.5267916955556358e-14 -299.93911718923124 168.68108889022244
3.428714285 -298.8994227661651 54.81063029813727 5.785964799319721e-15 -3.9531346677891855e-14 1.928654933106574e-15 4.3125105466791135e-14 -299.60082298835243 -157.44455215238887
3.51032653 -304.3260417395535 46.9745222744139 1.928654933106574e-15 1.3659168524976793e-15 0.0 5.02905750237782e-14 -300.59455511297443 -168.04174576219418
3.591938775 -291.52340027676615 -37.957998173720426 -5.785964799319724e-15 -3.870748697004675e-14 -4.821637332766436e-15 6.082605095293059e-14 -301.00481741037447 -119.59521513331867
3.67355102 -298.56162630129654 -109.41167591480138 1.928654933106574e-15 1.8668368914459803e-14 5.785964799319721e-15 -2.5848510804636636e-14 -300.62898246480614 34.67203673402245
3.755163265 -295.4736479898696 27.276493485577447 1.735789439795915e-14 -7.581874327709213e-14 3.857309866213148e-15 -1.6585350091863928e-14 -303.9252968350059 -138.47677251839372
3.83677551 -295.7477094996337 -19.16449896233222 -1.0607602132086164e-14 -4.7806562075553905e-14 -9.643274665532876e-15 4.78065620755539e-14 -302.9557470293394 -83.36613386458815
3.918387755 -287.14389347639644 135.19362066816396 1.350058453174601e-14 7.35466479372333e-14 -1.1571929598639454e-14 4.41279887623401e-14 -290.3530526608943 -167.369904285402
4.0 -297.95064040193125 43.019015457019485 7.714619732426294e-15 8.538508060714566e-14 0.0 7.820986374940239e-14 -293.4221462929627 -149.78525060826726
