!Created with skrf (http://scikit-rf.org).
# GHz S DB R 50.0 
!freq dBS11 angS11 dBS21 angS21 dBS12 angS12 dBS22 angS22
0.001 -71.07089503608402 -88.95848436490478 -85.65509117294313 2.7925029463361133 -85.56255453525037 -15.378008332933428 -72.16629835444094 -78.3992526469613
0.082612244 -51.80857643400966 -72.34495766516864 -46.15518535706178 19.711551129284498 -47.114289720710474 10.931046616066084 -51.97545851068176 -83.2513041977039
0.164224489 -54.61497909772562 -174.74542183036107 -46.97873849349531 151.5879859947147 -47.750225738368634 132.98963757282263 -54.66667561629049 166.96680413859215
0.245836734 -50.723036311713834 104.12726430542169 -45.38895923322242 -52.52635318619313 -45.74813293720545 -80.64662022988091 -50.49690869441241 75.71542604841281
0.327448979 -58.05274823860975 59.08638430502989 -49.20261928094823 127.5544455460104 -49.54774031241308 90.52450251561292 -58.155353858689374 18.509617192272604
0.409061224 -58.744459682209026 -1.9532013341830425 -49.03923267461114 -38.69198979692337 -49.60249576550843 -85.33325441780045 -58.79919763216529 -58.666764584184115
0.490673469 -59.210992608508434 -45.04741064661654 -49.756929818402185 141.59899264138613 -50.19232281250726 86.49123917856078 -59.35476555390939 -108.28530601536629
0.572285714 -54.179074726789445 -108.61148268498224 -48.64359195937326 -44.76320278850351 -48.70209288127191 -110.79270894432744 -55.4933381554937 -170.68721949249567
0.653897959 -57.361917461746906 -172.781543891402 -49.43237898675121 128.41403421700053 -49.81684983729309 55.578523930226886 -59.19521641283376 95.18223986058885
0.735510204 -52.7064239297969 74.92677410253664 -46.228745404910114 -78.3332944100532 -47.59179912991563 -153.45050477606048 -53.81139631499268 -10.51876418927674
0.817122448 -56.96822004461418 13.949265106996725 -49.10611482623753 74.61379341688799 -50.535058478103856 -6.353668263326767 -59.629535850045684 -98.68240635369922
0.898734693 -59.955467964204544 -40.23216847899611 -50.168979027780196 -104.05894452937441 -51.529722506873874 167.042343543227 -62.91046270223202 -179.59237552554592
0.980346938 -60.01209871523065 -89.56268181623199 -51.03140731720393 84.44416056243433 -52.084280148815864 -11.60827886280343 -62.69467549151307 109.21941030989218
1.061959183 -53.95289829149466 -136.79627415733688 -49.38808573576388 -72.70480134926603 -50.2867951741215 -175.26008834935652 -56.722706824998795 78.2886776736309
1.143571428 -57.03440129292594 -108.20582603023952 -50.65382013298192 -172.15761470681744 -51.06801307849676 66.8594188374763 -60.301382407779386 63.097953591876475
1.225183673 -60.42010441478023 166.42678721531726 -49.418438360112695 10.718879633323567 -49.34587100087147 -118.92396315236343 -55.79572395308904 -15.113511991877079
1.306795918 -61.333142293505844 137.28110149038088 -50.791257976009724 -163.4311567646644 -50.85665821017257 55.60526256821565 -57.37713629549983 -77.41292568342519
1.388408163 -59.51666362103115 75.59651168457236 -51.3447657113715 0.42993170853364315 -51.401417783902794 -149.28217484647783 -58.169190090063864 -156.91745260812334
1.470020408 -60.44271688156664 0.07636557805339489 -51.744751086332634 159.89184885557356 -51.91377479032361 3.0715203115322245 -56.59136567895649 109.13456045826514
1.551632653 -62.10040812939022 -102.23726376201164 -50.60408770666554 -22.69949227690353 -51.50477951428924 171.2891216545225 -52.91617501811462 49.90163182028403
1.633244897 -63.228014977838754 -111.50782216749766 -52.13260088728693 -179.20550342977742 -53.319529031064825 8.90786433567215 -55.25115946104651 10.037266353102744
1.714857142 -73.84855564380138 -81.36381583049659 -53.75065305136991 12.651769950328859 -54.631236587814136 -166.65834160412192 -57.06995082511643 -50.334075013686764
1.796469387 -72.95444274790208 -138.6615072418157 -53.638013981168186 -138.168939450596 -54.83957339965686 35.206165799454304 -55.62921770799878 -80.22649482764011
1.878081632 -73.45163865230441 154.5075527282052 -53.382348144240915 60.94218308892961 -54.39190649041298 -132.4893829292935 -54.83334702184011 -115.57713645769572
1.959693877 -77.41298637236456 144.2121624994306 -52.989595919337006 -108.30154549357592 -53.4574946024629 51.7042903573422 -54.87627785934497 -164.93586257758116
2.041306122 -64.8403511818496 -154.2305797991263 -53.7074847499576 66.44929714678416 -52.89543398171074 -145.11591301293865 -55.60230151549773 118.19389901226079
2.122918367 -67.03848480901 135.57899980171428 -54.40999500932747 -111.16923515007358 -53.892666354608906 28.67670691016443 -55.61874974001392 67.58657810367914
2.204530612 -63.15752637905077 42.259686923531206 -55.996369639016606 49.71240143112036 -56.385387342210215 174.08390182171144 -58.64800658232632 12.751716521568206
2.286142857 -65.13604966594025 5.13473891710337 -56.451631299732696 -124.92466057344741 -56.052120454553325 -10.313110998494297 -58.33773638236032 -60.799563258543486
2.367755102 -62.39987487436059 -41.6735426801294 -56.439730857812584 59.0445526054267 -56.117849108242964 162.69866514445783 -58.98577654908607 -120.65270121624094
2.449367346 -60.17293222929123 -108.43508653098229 -55.92245685197777 -133.03608589682267 -56.12257933751512 -40.87895884673418 -62.64540646507256 175.94972844978562
2.530979591 -58.04232561145465 153.4351012085566 -56.521297118970075 2.146417193274599 -57.7757760913779 84.4125451256206 -62.11120846546682 140.45585975256785
2.612591836 -58.28347064868539 76.862088323406 -57.963297656953266 169.05143394444283 -59.61216815563552 -114.32303238266037 -62.05834203997158 65.25044184995282
2.694204081 -59.89278498562756 28.39805201427656 -61.31815022962649 -8.417976756929518 -62.63102427718114 62.773815360621505 -60.8519418697384 13.45196020578271
2.775816326 -55.82046506019857 57.40792140996778 -55.646729651603046 -101.09356875322486 -56.31201770140498 -34.23142946933966 -58.024247620175764 48.40497793648787
2.857428571 -50.45502812533469 -8.34966788696357 -52.89353587679624 71.83916934114771 -53.575906397858056 128.25287571354656 -52.751477974097355 -10.48572062502106
2.939040816 -48.83558855102686 -14.050846327104908 -50.891358257424216 -57.28624495856531 -51.865784153926015 -13.184877761456525 -50.41466934109791 -15.922114857327083
3.020653061 -47.72942444654541 -68.70542810703206 -50.422656948326775 114.22988427002245 -51.193953769306226 154.55700497331227 -48.31078217550413 -68.70538727707041
3.102265306 -47.290349947241246 -117.65021038697387 -50.17965048503383 -67.04215865224225 -51.71261716528313 -32.53145605539988 -47.469152427180404 -117.1880956576301
3.183877551 -45.158914421983525 179.80230756061434 -51.181528508718856 108.18477826741928 -52.23485991671926 126.84622125790992 -45.44627272982093 177.6282551375112
3.265489795 -45.35638336016043 115.23197607063337 -50.26638156962801 -77.53560080903593 -50.62749831353452 -66.96707948163606 -45.42410645622924 111.50103204187923
3.34710204 -44.845149865709345 62.451066127335885 -48.92472062115836 93.09298615034145 -50.078186050855926 101.05494858287739 -44.77385479937473 57.22986678454479
3.428714285 -42.0695119896334 -0.6835797282911733 -48.98874143417551 -86.78145884527672 -50.42128281813284 -95.32361828761792 -42.25164576717251 -6.390220425185861
3.51032653 -41.9347481119073 -61.1768489811262 -49.03074771321559 84.26689253153707 -49.96580873602632 66.81034335798714 -42.720554406487906 -68.36126526950207
3.591938775 -41.26938539542655 -123.50314685883924 -49.100206224302276 -106.86629813338487 -50.875577015997216 -131.93802529388822 -41.92642155441864 -129.6206429306263
3.67355102 -39.895404470356574 171.21283351095744 -48.85909529235924 63.39884385900253 -50.120116640468794 25.970125154950658 -40.55407844198288 165.9562413531639
3.755163265 -39.23397787549405 110.77289862145886 -48.2998931597992 -127.5512738763139 -48.67574819106608 -168.41870699322607 -40.089489066523825 102.76256341474537
3.83677551 -39.4093435983868 39.30663355432845 -47.9772714982891 38.43484019323871 -49.529336466354685 -19.821023810518284 -41.92969020006607 30.890480584030318
3.918387755 -39.76187023775899 -21.500257444535332 -49.89018262033932 -166.39383835646245 -50.90162101321028 133.5552161664239 -42.21262624620828 -19.106152669504986
4.0 -41.291379767024225 -73.13570747387254 -51.58716420298174 17.16780737169954 -53.52515462337129 -39.00505161484394 -42.639015559958715 -65.67196403487786
