!Created with skrf (http://scikit-rf.org).
# GHz S DB R 50.0 
!freq dBS11 angS11 dBS21 angS21 dBS12 angS12 dBS22 angS22
0.001 1.9583895451979751 175.93056857875595 -17.11404589757727 70.08866865045357 -9.121316444075669 -3.5648825118472396 -31.908916677096194 16.153269875661792
0.082612244 -0.005613043676778845 179.9753289557288 -54.83033324310757 -146.01020036291283 -50.177628032316576 86.27518729971659 0.06841150941567115 179.9499162954874
0.164224489 -0.18984092377285058 179.33922689722132 -52.30135082736943 -75.59492934092515 -48.44622570582775 128.0056813889715 0.09030425108612664 179.84442218597553
0.245836734 0.012487089541208245 -179.85735323618687 -61.44739670231455 -156.82739427682824 -54.86344236859533 -47.69888029762107 -0.04451580093319565 179.96879448829463
0.327448979 -0.07567700604189805 -179.33604101396776 -62.90967051274566 106.54616433097237 -44.12125151213981 -174.66410350907256 -0.037194499437319305 178.74777147128304
0.409061224 0.00036442200505044323 -179.53479582127048 -45.08330787448712 96.62228954259975 -44.12607520655662 106.9318413879704 -0.04656783435295956 179.7261913041827
0.490673469 0.03309368003210486 179.66918859839507 -46.65914419231876 -88.16230122036785 -56.121727911850215 -47.35282063307868 -0.02845834811109468 -179.6484151423886
0.572285714 -0.08129499938471714 -179.5971006799797 -38.6235258817603 6.144765230821811 -39.3324066395991 28.85913645782531 -0.20007292488131329 179.56939519977408
0.653897959 0.2069763723095219 -179.92576344481276 -47.73713185974755 146.8516771390409 -40.027101441376345 134.72595657292294 -0.07325895594774423 179.88978072039308
0.735510204 -0.004625614052329615 -179.6813127728818 -50.45619730120543 24.15013428152966 -44.697440922979 -15.562630879753206 -0.08054121603425737 -179.84645038505096
0.817122448 -0.11240406625583621 -178.79199181289013 -43.494975109343 -79.1323022040795 -46.599959177687246 -18.152180499076188 0.26091605933410605 -179.4751577702756
0.898734693 0.28049014462610106 179.30966109535714 -46.63076989416277 144.67948683685222 -42.85837593046682 -19.672108161279276 -0.031108175905752888 -179.59506577118822
0.980346938 0.1677946845657331 179.5187571509062 -53.42397773969694 2.855953988262887 -43.90178704259072 -1.5726429862146258 -0.07712039052075721 178.3890758789145
1.061959183 0.07170290592084452 179.60052924507065 -49.22891189739926 -31.462503919350553 -36.59702670018824 125.93589891446966 0.32640736209859167 -179.27182139918796
1.143571428 -0.07501858630921045 179.3346165288927 -39.53914108756409 -105.37929646133604 -38.39901001025791 -64.00289292420001 -0.20001654547096373 -179.78003069063615
1.225183673 -0.05912855805428084 179.5435636060649 -51.745176255649675 -17.754859926301993 -56.223651237705496 64.85390238988423 -0.019028762414459326 -178.713135020789
1.306795918 -0.31636725244257086 -179.97840846473997 -57.022823050582694 31.98199405614684 -50.874626141791325 -133.71393271293803 0.07577433094443528 -179.2865269730371
1.388408163 -0.0834171569811798 -179.2516820725414 -40.76725787557818 81.12353943235286 -49.34954027254298 -126.935306758332 0.09812110703137812 176.75053493175457
1.470020408 0.11306077674296655 -177.88061139496003 -39.456370617871805 29.262325652636953 -36.225275207548606 -104.66788165703757 0.38150927036377247 -178.19928830991608
1.551632653 0.15676319170089592 -179.97088829189852 -49.60717860669371 -110.68317965937145 -42.12423498324686 162.40466579284765 0.24501268772838605 -177.02397771578222
1.633244897 0.18196898294573896 178.96625340959002 -36.489430714276104 -84.40160124855039 -43.99788079758451 75.0723586228793 0.07700448861312323 -178.57154044376318
1.714857142 -0.043496728984270025 -179.16154266507894 -47.26112302411843 -10.26614069808089 -41.28087141701607 -67.00963407849723 -0.25494685728832833 -179.50579754443777
1.796469387 -0.2216067802348317 179.5062537519923 -45.58535105792509 98.92770093753413 -42.08617107677949 8.755841960503744 0.06300748841028352 179.71304370891312
1.878081632 -0.1391987131701232 -178.1381463413658 -38.306079270706526 -39.533121292080445 -32.37025055283043 138.06925800231753 0.058981029854473704 179.38255800051078
1.959693877 0.8905865568606043 179.41781764071598 -42.09780373511174 74.19619182015133 -31.034813945612672 -65.67164112935073 0.1309535364905186 179.12082708898578
2.041306122 0.266088406015222 176.91166729182055 -34.37496969126814 -164.45842513670087 -36.247297580714005 86.42898137662566 -0.47121901445978914 -179.65306810186965
2.122918367 0.11182648719529524 175.13071212467278 -38.32574776765396 -74.57731449074514 -33.6672998618173 128.55589073787644 -0.049476955266459406 -177.04391855239035
2.204530612 -0.15163157865046903 178.75160053540174 -39.43807439641064 -62.52671290163617 -35.401257005680485 -15.441250146876985 0.309627258874879 -179.5497293802689
2.286142857 -0.4009444505073429 -175.5084423498959 -43.90293495385063 -172.2309560467056 -32.78840973298264 152.2331126774799 -0.5160680767165431 -178.70233906630708
2.367755102 0.1906549602806734 178.26197649827523 -32.57925871160402 -110.69261381096234 -26.200518993484515 -176.02021926343804 1.1886550569171548 -175.6897021792632
2.449367346 -0.4899393808243927 177.39846693779918 -39.75496769598597 34.25517847946274 -29.852728296732757 -5.519543112036533 -0.4961802838396395 174.20287951139528
2.530979591 -0.16427288283759361 179.38148153466807 -41.58533323017142 -125.68097709928932 -34.612410158890675 113.86684167293447 -0.1597354341378351 179.61095437075602
2.612591836 -0.696509891268033 174.00661762874702 -32.54568525693496 -63.275406880555146 -26.824918159650515 -158.66322061772422 0.9064921507601877 171.78370125885027
2.694204081 -0.12688130733962888 -174.91099613194245 -36.5261894560857 10.052042348970845 -35.37833871022632 -17.53809504461198 -0.0190660776781629 179.59326264031796
2.775816326 -0.20391077344778544 -178.24369344089357 -37.73570739328876 -62.56957402808586 -37.82092105414466 112.25822401200622 0.17736067109092524 178.38629703450903
2.857428571 0.6765895239155426 -177.13874379983602 -41.864207122159165 -160.54657402772827 -26.751415284490058 -122.84694695972291 1.667020794974035 -174.21781895600043
2.939040816 -0.24753484791179628 -177.77124918295587 -42.400790576958244 -18.372107670718577 -25.42002744026675 16.86142884123782 1.3063401490882915 178.92814687626748
3.020653061 -0.7660906062668361 178.8589610186269 -30.476449149394163 160.3243031076564 -23.608983016228052 140.77440634964708 -0.6297893442106879 172.23598583016138
3.102265306 -0.47451066526488683 179.62339284409828 -33.29220389994457 107.92509296020727 -19.813498180511996 -162.25252861911503 -0.25372374125598435 179.53717662052927
3.183877551 -0.09462141935448677 177.80094790932455 -47.0628365298981 110.76525891492433 -32.74783236864748 -55.646617741170594 -0.05335374867687008 -178.65436432486143
3.265489795 0.05651040421352755 178.72584043011344 -38.38261280257528 -169.7819392429908 -26.07530996710222 165.29570762392694 0.13577276472785413 178.95371224579372
3.34710204 0.15311148967603386 179.0627394679002 -27.963816818064835 -54.96990178268411 -15.258082882437925 -127.98155571231183 1.0897354187290884 174.8701170088892
3.428714285 -0.12747244862280868 179.18124537572535 -38.159442791953765 -1.8708041117041136 -18.152371183760884 -34.10181925094253 0.09754433969055609 178.25830194811078
3.51032653 -0.04522684670787689 179.94162935021575 -34.8359705055502 73.6810104590965 -17.986456372860825 109.72134648926534 -0.41974937533023443 177.16496111946614
3.591938775 -0.14292847874825484 -172.69278180392683 -29.77169619099267 151.2936946015833 -15.234756199263364 -151.93435378519882 1.2115366266368743 -176.10822362261
3.67355102 -0.052327049848083985 178.4857236704417 -37.34748976167727 172.54955886569184 -29.362839763315122 -28.474424693072258 -0.02293703756632015 -179.48668975176105
3.755163265 0.046761205708165006 178.18093858161643 -34.87236017116657 102.58171278808399 -17.7471588245709 142.50617536614223 0.42552020048064054 -179.49070262427978
3.83677551 1.153073504703432 -166.05210859430716 -28.3896145511859 -134.58566299146358 -11.626634690677257 -99.14581358775145 -0.4357809724331073 -175.46283170820305
3.918387755 -0.5931682603270548 -176.3814175241163 -48.667065840840486 -150.57641812154486 -17.02289182813721 -27.865423457769044 -0.41232665520918027 -179.73570458109336
4.0 -0.7463611705597596 177.17324973916197 -32.276655059340996 118.09635792136137 -15.219970621326532 117.09060630680872 -0.8197260979085719 -177.98916744483523
