!Created with skrf (http://scikit-rf.org).
# GHz S DB R 50.0 
!freq dBS11 angS11 dBS21 angS21 dBS12 angS12 dBS22 angS22
0.001 1.421343995923277 176.21094794149204 -19.625509572074126 53.3615918177056 -14.101681180081236 -29.02400190932461 -25.610000687813795 73.81740783014844
0.082612244 0.037268619310554474 -179.88877860187395 -52.206189086376355 -141.52982927485874 -52.04256745063776 -151.38172293299343 0.16409606574539534 179.73392240459185
0.164224489 -0.093138723823417 179.80647314894878 -50.13173667606075 36.369455298723686 -52.1054779045093 156.49516030563896 0.060549188477578175 -179.6154804343875
0.245836734 -0.0016139741622768775 -179.8787827163261 -67.02693520061901 -138.5323023750284 -65.15624613887307 88.22419017535948 -0.012297662071096059 -179.83794798911262
0.327448979 0.055019678248057674 179.85630966402013 -50.717210663128185 -170.23488570727056 -44.38339060996947 65.42003059246132 0.04646403146061275 178.73293982797568
0.409061224 0.06101242128648054 -178.6881494807134 -38.98698153718175 170.53277314861757 -44.56889022930031 54.89659379937024 -0.1350205474336776 179.32044259345844
0.490673469 0.004810170446030352 179.90894760221786 -50.194533050076934 -51.30401195541535 -48.01034991850589 31.401845860531814 0.014264599899456935 -178.87486204009733
0.572285714 -0.14105354887085528 -178.45092582318412 -44.633875838393394 -48.90681191701568 -38.16245940922533 0.16075671196327793 -0.1925315155872142 -178.95068959544568
0.653897959 0.0705088558772657 179.6816476489296 -45.887414074087346 -153.1639456306646 -39.18191031595195 -164.3199264494026 0.104290385634486 179.46514585836107
0.735510204 -0.033903611182560425 179.91499306650456 -48.683411412761586 24.8345625235319 -61.666561082382536 -178.96991515945282 -0.09882044157052822 -179.41849535852154
0.817122448 -0.09477603556052949 179.72231862379434 -53.28950747274705 -1.7081821604785716 -40.84799456378184 80.2514585984135 0.04749505654892273 179.7316185336656
0.898734693 0.08403543386506938 -179.39959842076956 -42.61445430223702 160.96023928395377 -39.69381330784571 -59.27458933679582 -0.19820105806347935 -179.55182131401142
0.980346938 0.1618054392919788 179.57023043933472 -47.534786274588086 164.43816501886698 -39.80299741205103 132.49286843833232 -0.17674448562712897 179.91847094487701
1.061959183 -0.1510541823191043 -178.9006083960255 -43.30005727233317 161.47789617260483 -44.941359065016556 -85.19175111640044 0.21790609064137317 -178.88221586399774
1.143571428 -0.010173199670163849 178.231068478748 -49.92449795087207 -110.45859771068346 -42.9998188692218 -0.6268623729916708 0.1478242871181627 -178.51354342223598
1.225183673 0.012373407393711422 179.11381076279534 -47.02216192831493 15.010547673217118 -55.14636998638926 57.10393394416676 -0.05306806181540078 -179.6294406305922
1.306795918 -0.08461161665599601 179.3075674746745 -47.42838461618449 60.731308350054846 -43.62351095385654 -147.9509596552828 0.30242000251355716 -179.67616925856208
1.388408163 -0.2582926463536292 179.304999152136 -39.63893164261696 48.05394768797839 -42.81870184902378 44.736813899899694 0.1591339966943785 175.65690254792597
1.470020408 0.5612150979188109 179.94367845023925 -45.249999407176524 76.20416598812568 -41.47210326658022 -99.04946702954409 0.2431547580367256 -178.70177669542468
1.551632653 0.1287053053904316 179.40365179944854 -39.63076929358087 121.6749709002578 -50.42715492510485 75.16370277516603 -0.257370468499772 179.2296920869896
1.633244897 0.09651099680114829 178.99285152746685 -35.457529965061525 -104.96783472648589 -41.654436196370895 85.80077322536606 -0.14196742236597243 -177.60770489566255
1.714857142 -0.07497435316757636 -179.86624617066605 -47.261610326511 33.999714534113984 -43.89735083039396 79.94302493316319 -0.1321587001520234 -178.42242546363676
1.796469387 -0.14858751696279512 -177.261774883831 -42.288657893998874 -94.13974451595499 -43.56398268532693 10.537042313327488 0.005855482113617968 -178.9412461218639
1.878081632 -0.4292253281790208 -176.29729165942712 -35.55920910760155 -2.516510806485467 -32.9224315809532 159.2514179022996 0.1195339176692646 179.16953296827603
1.959693877 0.9691509607363774 178.873004106215 -47.59725208855567 -33.87959138693642 -42.2489110115636 -155.56200205443344 -0.222297082041478 -177.0364586497353
2.041306122 0.1928061680911537 -178.57332618484725 -44.7720196940802 -86.53742710335938 -35.70153880449587 48.79655641002876 -0.24363377915053075 179.13446100609846
2.122918367 -0.11797555783283217 178.33417431264672 -42.31321302384481 148.94804502870164 -34.31797146809135 160.38901837439477 -0.03531706293619316 -174.87158155734463
2.204530612 0.023174859254107803 -179.23101209210373 -41.39030233552367 -1.128658947426244 -43.23800987795414 -79.66879944042738 0.060817729674043926 -178.1462904071669
2.286142857 -0.6021667852080365 -176.72254743046943 -35.66412561226467 171.12898833132832 -31.646928970360968 122.16692538016818 -0.3767508126202876 -179.64315962760764
2.367755102 0.7842818577112219 175.22701581495042 -28.614852241555397 -72.39735511929975 -21.7486514206289 -134.05196507485417 -0.3952317323519155 175.6384366956727
2.449367346 0.029231011554879848 174.0685686247907 -33.40764729346308 73.95718543006654 -31.663040183380282 -71.31731900602418 -1.3343572434358044 174.47669317109793
2.530979591 -0.2291574798684161 178.6140799751495 -60.75666807558157 -86.49567131959073 -29.25654342706594 123.26310684406589 -0.6767781816097587 177.2755801962232
2.612591836 -1.188090488321642 -169.5222862574995 -31.324588065015803 -130.3996590758514 -25.896387710198162 -123.09527812509158 -0.8202077349946097 -178.43646937307085
2.694204081 -0.016081266216965703 -178.14577730771177 -35.33244067738169 -170.59401214826227 -41.53390358922793 103.440646221195 -0.0016202730612964646 -179.33656126914948
2.775816326 -0.5660099832160754 -177.7263681465003 -39.32489191743616 -15.254137993900518 -34.70682242670836 -137.16202374567047 0.6188470817924381 173.88837192146687
2.857428571 0.6907619344889747 -175.2294315996625 -30.08232637802997 -118.03365527766091 -27.416533656352176 -91.31235987799298 2.893779906943621 172.57713162653238
2.939040816 0.10339008725248164 -179.96984169071715 -44.01007343050763 50.06301744750523 -28.731078971771513 27.570678573928497 0.7311934254140524 173.6039548565714
3.020653061 -0.09255433343209747 179.13225430701485 -33.54191535857788 -178.90563963138322 -22.738493108702002 171.46335200970555 0.5340089326209069 -174.4523731987518
3.102265306 -0.1756409947253158 -178.6248449698583 -30.734676673191505 142.48335979240355 -19.0313886930361 -170.8843339437288 0.3451116089378583 176.15510511638448
3.183877551 -0.35060330933330613 179.31833462465144 -44.45339288184527 86.16291861002082 -33.57432605734316 -69.40390582967568 -0.1742683260828739 179.1567732260499
3.265489795 -0.023919924661719855 177.48133449398046 -44.860056647317485 -103.36928868531015 -26.59691440274516 164.23072765933858 0.3250447485677044 -178.40805447746186
3.34710204 0.7126792390865697 176.05067453036847 -32.07447712374914 -49.94834790542591 -15.510007262954272 -120.82954745587688 0.23283034577768186 176.1552523192766
3.428714285 0.042842324978039165 177.10799135223724 -32.53667324060385 5.15416902491457 -17.441291166545405 -40.842859916137186 0.13084102231324943 177.66730709829676
3.51032653 -0.27742401981109505 -175.45393048951723 -43.052948397852404 87.09031471200531 -19.303286533734717 113.02375119828429 -0.6082965869906631 178.38288101190184
3.591938775 0.06767018560144362 -178.5418677195665 -25.790805135404803 132.70545276229794 -15.102762340994724 -148.03472595768125 1.1737498767076842 -177.1950611172285
3.67355102 0.026951364203354172 179.38750741401665 -34.223865807932555 -178.53408562791876 -28.56240007433673 -31.85385104540339 0.19091101329745402 179.16376495404464
3.755163265 -0.4640804579952855 179.4652781282178 -44.13762876207849 117.09760399885387 -19.031316138626707 140.03487309904463 0.3606706825878384 -179.8010213864689
3.83677551 0.8735573560267071 -160.18847611621197 -29.34548691365591 7.349251511287404 -11.290326436923033 -98.37835101543342 0.4754490124663244 -177.19830859432093
3.918387755 -0.015738112845515483 -176.3806017751146 -33.249440486570414 -40.92747453696436 -19.082186781415608 -24.8530117211869 -0.41816638417398083 174.05211916582746
4.0 -0.8088821212492063 177.0566419706818 -30.537718177810007 75.23559933663985 -16.069693308580014 128.58094575182795 -0.31981320570191685 -175.07161496160654
