!Created with skrf (http://scikit-rf.org).
# GHz S DB R 50.0 
!freq dBS11 angS11 dBS21 angS21 dBS12 angS12 dBS22 angS22
0.001 -6.332758315460087 -173.34901999930264 -10.360730219539251 -173.00291169695438 -8.625183713309427 117.1212042744456 3.1483901772899237 2.395854607992961
0.082612244 -7.678365920582242 -175.974900598729 -34.262060811146206 64.45685981764773 -37.70260609420717 69.70449601155974 0.39037646006090865 39.830197507464
0.164224489 -2.9310321858896997 167.80675247559464 -26.09965074099007 66.52995316982297 -24.70974937475646 63.93414892106574 0.7198473977848567 86.9784059005522
0.245836734 -1.733766278618678 100.56424499785457 -19.92150466948229 -2.279825086945898 -19.54743347605082 1.7954848397896999 -0.0699958980848073 136.15937247223133
0.327448979 -10.274727447970687 72.97861518191087 -23.00662643058848 -32.08779722125962 -22.6322589856779 -24.725086459532392 0.442443884874673 179.2893698419064
0.409061224 -14.03409385323858 90.25885126713092 -22.214320060657524 -27.07289005577128 -23.17624838887553 -18.81347327047904 -1.0837473478731745 -135.46601127156708
0.490673469 -11.135800912033202 92.265573028844 -20.07558426851287 -33.63514819530344 -19.557710175492375 -37.34387131045855 -1.1642463487818857 -95.30601660290976
0.572285714 -5.558876947659575 64.27017800285 -13.832453234008902 -63.80782108734068 -16.53875464025198 -58.71375161834245 -1.7593596199107893 -57.118748573790874
0.653897959 -5.459755119529164 -12.87782689918901 -13.31307500220114 -109.24931895695033 -13.529637827264626 -111.00348605842636 -0.7885035735921071 -17.893038652292006
0.735510204 -7.969567033716452 -92.12360994189503 -15.055887781946296 -119.18503762141427 -13.708979496758904 -133.42625714619825 0.37908121597293126 23.22711565050627
0.817122448 -4.411112047713107 178.9306934604304 -11.853217813556364 -135.1761346151664 -9.088386250022001 -145.3945024334675 1.3468793499670269 72.6455761853729
0.898734693 -3.286466132199788 45.12718943180721 -8.710217739730165 168.23412754538904 -7.983646289087312 -179.36262819998268 0.9453359799031398 127.40458315468523
0.980346938 -6.822816645633819 -34.29992985019908 -10.96277164502462 151.12744221918072 -11.089965970293791 156.4966529178324 -0.2829606249416123 176.0588544768594
1.061959183 -14.120770467682014 -115.56129949445804 -8.875170505403887 139.8221910031895 -10.912330672094342 141.25308772345022 -2.501170566256685 -141.12856548309173
1.143571428 -5.718199468632733 73.67231907280268 -7.512151194076424 91.19307608327081 -8.88951128731717 112.5416909682245 -2.698378915375379 -106.8127725234131
1.225183673 -5.404298242556628 -15.613998537108488 -10.343993368501971 45.10483822499544 -11.523037094438543 53.55116059933343 -3.528594600952957 -69.5663518833022
1.306795918 -8.022446071221143 -93.66079319127209 -10.899536787048119 51.07908543389069 -11.065991672268161 30.311175011687368 -2.910931917053958 -33.66375063116188
1.388408163 -6.64574822788354 -150.51375031999856 -9.651154002285793 37.18158942540042 -8.808423424092002 6.685640700428564 -1.141458161402792 0.41171035936524675
1.470020408 -8.113982581204652 161.68126672324553 -8.332982303038873 12.915424031605644 -6.190533062965616 3.8115637252134666 -0.7415316456615167 52.939696683303005
1.551632653 -12.76681246502423 -33.94144326438414 -7.312299656426255 -31.082964575711436 -4.3187663083703125 -13.801795683816755 -3.0024124986225793 117.63621611458285
1.633244897 -10.097156389172108 -116.15949798216475 -6.791523443266428 -53.04742371532617 -6.326653584373556 -46.2816948635168 -1.7287075930097118 178.25249859413222
1.714857142 -6.300686598570982 134.22198560986993 -4.943937899733947 -69.19675717178995 -7.125251109638211 -68.22332504103187 -2.499637204279332 -144.930467928912
1.796469387 -1.8551275280981205 65.52162490994439 -5.785417717754527 -99.87634961541175 -9.52064325988636 -93.82962226950504 -4.38940423583823 -105.70349234720413
1.878081632 -5.375397548554749 -7.043330612542567 -6.069836383896902 -136.34496232325756 -6.168639041611296 -125.56069735135958 -5.693791065137825 -78.198902285348
1.959693877 -8.521310361406178 -152.99586351544696 -6.079691300477337 -140.30036396584052 -6.4080270165839925 -174.09323390542514 -4.691730910314565 -40.770821750926586
2.041306122 -5.55919666838926 148.52266563834743 -1.8689045097732517 -169.6822174385916 -5.074133814786932 162.46655011253077 -4.1596755894598 -5.8787454441901765
2.122918367 -15.718435318629972 2.9023508109967198 -3.0305765652446155 134.24588615490126 -1.1574377537251053 119.93820860270057 -4.1367782186242446 56.96132437696088
2.204530612 -16.710600350961556 -118.52982081970518 -8.104408670524247 102.5881518671121 -4.842028143665406 108.33631396237057 -1.4473223239762965 120.17771157233459
2.286142857 -8.790136841631364 65.03469819297533 -6.724573250949946 83.31167560470999 -7.498515907707696 110.0106688767445 -2.0892329332304977 175.82545734187386
2.367755102 -2.103565309113617 47.09317830856886 -7.625165198486242 78.06382539402227 -8.174488426520663 101.14331140110016 -4.573331318493338 -143.24133777548917
2.449367346 -2.302410058493162 16.076478517851783 -5.389644286471636 50.70377866654674 -9.256614171046573 81.93601721106961 -8.531574367074835 -111.4553125346046
2.530979591 -9.527950963619238 -4.497950818283208 -5.676055905127444 5.310096137573172 -5.586121523448893 8.725023637240751 -8.386319078495426 -39.41088641254543
2.612591836 -14.008591438348358 34.46150720012991 -9.244074917185213 -27.652900705471435 -8.547835646797905 -29.279028010085238 -5.184624424731135 -25.067576627242538
2.694204081 -16.409525043932053 -52.459406551759116 -12.763472958922078 -21.681621479604 -7.991571343020874 -52.1900980656568 -1.8117728346407818 9.259470514464075
2.775816326 -8.252986127282346 -72.99397289824574 -9.834627730630011 -48.374798693955206 -5.927342699740842 -64.5595321620158 -1.2730039833051046 28.937193309838303
2.857428571 -7.458258645370281 -92.3935373040604 -11.261497871601982 -72.30311987311742 -7.444259642563551 -71.34450831781933 -9.709517093908989 116.75227506299579
2.939040816 -10.749648863538022 -86.35668945629868 -10.30432060605463 -94.31155235855113 -10.252359046341905 -78.99386361253626 -9.457191695562976 -137.01338065567137
3.020653061 -13.399129692724944 -38.72918372530529 -11.22162288937314 -117.50988478225517 -12.283504202186318 -119.0487506027292 -7.607394700286893 -103.6102908707434
3.102265306 -16.837835641826814 0.9670710216775753 -14.005884969417146 -122.86606230291564 -12.975152064792034 -141.94841194689926 -7.074130830228781 -82.01017841531574
3.183877551 -10.430527555603863 165.0470262583448 -11.917201597666459 -133.83169393256247 -13.07477745429508 -139.9074249601481 -5.237321368663514 -54.00512763510979
3.265489795 -7.046466652589532 171.52760302626942 -10.645693707252102 -154.71625012796807 -12.8314261069985 -168.04838882798654 -5.0346440639117525 -21.895439567465957
3.34710204 -8.643495257422762 165.88730157267946 -9.047859918064816 -156.59853647072953 -8.901652513486177 156.06565259002542 -8.17664197327338 20.125585642429687
3.428714285 -14.517130943952282 -165.7148102232162 -10.103280824439768 165.31315987201916 -4.93404904711716 172.83649170145324 -4.999855004471498 111.60200497417645
3.51032653 -12.320768986458257 -124.38748385358177 -9.687626381917175 132.20416047908282 -6.026711457741097 153.4136015556137 -5.60606033045016 165.63403506939866
3.591938775 -33.76646982462975 -96.301256622253 -6.543733972260978 117.5567184748049 -7.178891304680121 138.37588726446867 -7.542758451807735 -165.34912295298398
3.67355102 -10.325930879428162 42.19450937802793 -4.475717146666996 98.3312575602615 -11.700586756395383 107.66659582756 -9.252265061396718 -125.20747352305172
3.755163265 -9.501186480771882 51.560532525327574 -3.9706670734376304 66.93966490713314 -7.049744801928823 66.86709716166953 -9.928140714224908 -110.69120703447368
3.83677551 -6.147361107763356 118.15810346111546 -1.1483012907826697 51.236243363119435 -6.543957042188059 33.81954702883251 -19.625791689348496 -55.53610499357625
3.918387755 -6.190375222851162 123.81615570371841 -0.6305564016412903 14.204714222196836 -3.8877820435943624 -15.881797510943644 -10.720589498371329 11.665028668041417
4.0 -13.769432852516537 141.92756954548963 -0.9630990294191666 -26.13301619975471 0.060409477112741417 -25.62493445863204 -4.341013374820223 47.16934582252668
