!Created with skrf (http://scikit-rf.org).
# GHz S DB R 50.0 
!freq dBS11 angS11 dBS21 angS21 dBS12 angS12 dBS22 angS22
0.001 1.846026494576347 -69.42923012940918 -21.351685992555765 108.40042817321778 -0.13610827402954928 73.59933121231843 -15.599186060553842 10.608486624054901
0.082612244 -33.21137062133819 -29.157569413531807 -0.027317030391942623 0.17026017758412212 0.09354314618194969 0.05554814967130692 -38.809429769143186 73.26704192504363
0.164224489 -34.95896854540711 -41.46893731246554 0.05242454593818644 0.3377973527806193 0.05601002341603588 0.398201617335657 -42.797651910030545 -74.70264300820264
0.245836734 -36.96301113429672 82.59460602005734 -0.015050848908390183 0.30604002356678767 -0.04505232340070223 0.5065752260396289 -41.198091817997515 132.149970823197
0.327448979 -37.605412265715636 54.854059299215855 -0.022932448189701353 -0.30817440344193786 -0.022816891095867244 -0.31704001994665215 -39.37329959115587 117.48899154886234
0.409061224 -37.20337334238391 119.40223161989145 0.025707924318944708 -0.29019789312296823 0.008245404170380548 -0.2715021648358986 -39.88770906916995 134.8525454079134
0.490673469 -36.43590814226325 55.596186409628906 0.04388014712393981 0.27134364552404766 -0.0049542155135571305 -0.01764923073540814 -31.00649709029588 -85.46115311882123
0.572285714 -34.011987398297364 -38.13679059381244 -0.02084224773218126 0.275022967186793 -0.16629598564426737 0.06225679858625186 -33.461776930261344 -30.26363660381353
0.653897959 -38.05125123920723 -148.5427984111928 0.017887509390699257 0.644081743601877 0.025210982153105924 -0.02835433141107259 -38.159481515075925 -28.159223947097615
0.735510204 -43.05517325422321 -3.643309658849954 0.042718879840963495 -0.2497863373337393 -0.0012005439491143864 -0.03335499674649202 -59.19074887096828 10.215392625922865
0.817122448 -37.7118380177283 -12.781147124677348 -0.05783784594444368 -0.706222981927457 0.056496569021306155 -0.4395144758420644 -29.68409038502752 39.40460554623475
0.898734693 -31.530488996750346 162.51782345541264 0.05757392289178451 -0.2338810896154678 0.15524134026933667 -1.1055047039538461 -29.272317864161828 105.3181858731053
0.980346938 -33.59775920496081 -174.55413680313984 -0.03858063663966809 0.10748883413434425 0.0752380115777607 -0.772863953686907 -29.028377214451044 8.185745664602258
1.061959183 -38.76677956791285 64.10183851684297 0.016663288642835436 -0.2607756514795167 -0.03661244243190683 -0.1357423557499599 -38.745091748208736 -100.4152218357831
1.143571428 -37.97226148149438 -143.57623698349929 0.02604995644949619 0.3160278343166035 -0.09638536977274846 -0.5276901514269599 -25.257285707776205 -52.404460866031485
1.225183673 -39.756403497392114 -110.13535513837465 -0.07579691328663604 -0.5763256951536796 -0.07051559323989477 -0.20148162236535394 -29.84848883081545 -139.32502119354547
1.306795918 -30.90946424492886 -0.3105360259045525 0.04569548839842342 -0.6043486847496852 0.010618459430702339 -1.2961183048448361 -32.49285735243109 -39.76688922559673
1.388408163 -33.2335197092581 96.72716438486908 0.08486488106795653 -0.07665968224456922 -0.08467926968511076 -0.8166169408633989 -47.13028284339124 65.38725452338772
1.470020408 -27.324905361360067 -116.03527207077654 -0.012968078400999523 0.22948834037098373 -0.06702810499414935 0.009417401596680312 -37.04791086792306 -77.48774671037329
1.551632653 -33.6208963513215 20.65354109963998 -0.03968071114760107 -0.7110942117610743 0.10397177966133044 -0.49216700762960547 -27.089649930102738 85.80373878496741
1.633244897 -27.484795548417583 43.484782883012755 -0.026282111306542108 0.05613213180640612 0.08267872320510501 -0.36116875123548076 -29.944106969846498 109.73979098952151
1.714857142 -33.75134498716641 -112.15555644659668 0.0002136544864265193 -0.31381104650236563 -0.07613159276261043 -0.08502653070894838 -32.562865999762316 -90.20510028343068
1.796469387 -44.299686059810796 117.03227818139298 -0.0807360167506567 0.5819596753712675 -0.23347976639059453 0.33509732022970884 -29.421843590401874 -88.26929432947618
1.878081632 -35.09132356293001 67.1168848782935 -0.03484707132555222 -1.8513576282510154 0.03665956736517121 -2.4250779688209825 -22.59862482911877 67.11526622351897
1.959693877 -34.25416665020505 -179.68475766981703 0.03591054716895919 0.41030056650073954 0.08930862633301513 0.39317492444976526 -45.37237358469199 -22.083614264330706
2.041306122 -29.344340434726988 135.28607435665964 0.006086655448442305 0.20328216479224068 -0.026102144041336154 -0.7857057990983256 -31.67869278563231 -34.461880349751986
2.122918367 -30.303875222920666 -35.98030468600527 -0.03897154550611284 0.40441664310449765 -0.2038612442650413 -0.16943536291699612 -24.829253463930392 -75.80533734952495
2.204530612 -26.14289192504495 -169.90713608473453 -0.039237172389709224 0.9353690373942305 -0.03435216873425766 0.5435004878840098 -34.46679363016897 154.16088528058728
2.286142857 -20.04845841664463 67.79681164212087 0.6447860122235234 0.9249558817098125 0.2863551291380604 1.7775618618038926 -28.527564403903433 -176.85145452975115
2.367755102 -18.76334902922913 14.126398583185669 -0.21375938699665406 -1.9669795563577737 -0.7871936648890304 0.5090256976576165 -24.91593742739113 -79.65759227269454
2.449367346 -18.659660830723844 26.072763572475917 -0.11746877122129612 -0.5098926817920024 0.30559845210310277 0.4286359880692476 -22.919178797226824 -177.80374633757816
2.530979591 -24.99678603070795 75.42705249399965 0.19792472445605613 1.1288584792314298 0.19174373916745663 1.251747988846668 -22.391899155940685 107.24517333291178
2.612591836 -20.579932328646365 42.70513711389535 0.0683486831732172 -0.30626166841572744 -0.3801469860468438 -1.5690234638891911 -25.771264171159128 -12.483397716457123
2.694204081 -15.285324362573341 25.93431097379966 0.5518812403629406 -4.823880604196459 -0.34063460400318607 0.40621495994886014 -21.94097000622433 -105.11039956848043
2.775816326 -24.07752255869877 -108.19540575243599 -0.6153019735820807 -1.5918191739232663 -0.37410089409145203 -2.7963886124351536 -33.71521721654404 -19.967109446828466
2.857428571 -24.820347705095244 61.783365027525804 0.1982772695307565 -1.974802627871589 0.045745134924133166 -0.14037404520575106 -31.59117003664116 150.22202687854605
2.939040816 -27.57123830772318 42.177278207054506 0.10671302348283847 -0.9315631898500495 -0.16479444396851695 -0.34155269614770706 -40.06197480142827 -109.64089844774378
3.020653061 -27.33153421202242 83.40733545295147 0.2669267713950651 1.1254294058115666 -0.12660041659127877 5.010767518993794 -22.577336670547297 -151.97446456648487
3.102265306 -28.117909779353532 -49.850553045953916 0.05428075489337197 0.7054973312815821 -0.06440754403683402 2.0325268222337476 -29.084898178027174 -110.31700761966091
3.183877551 -28.610036950316122 155.83748769079946 0.028257084362810072 0.9453189751822466 -0.06941006209065906 -0.019971234473690334 -28.688017738029863 16.728488389946612
3.265489795 -27.465225108844542 -127.77874752666874 -0.31100468345777055 -1.894460396343169 -0.08925491757701505 -3.2715562271339778 -27.31123298727583 1.680322304939559
3.34710204 -23.58214326049053 -73.12988713881155 -0.32969089501772475 -1.1528114371770675 0.013657899670462277 2.6059298108604074 -32.60891096089802 -172.0138006610297
3.428714285 -35.52192802806022 101.56744857432426 0.012699925302006712 0.06848757518830523 0.10962298287631755 0.0143921177235606 -28.683696589335455 85.04373677430988
3.51032653 -25.146237531786472 69.43508835134159 0.15118046261322365 0.6357578891581991 0.06199709747050051 1.3582947090603021 -27.416333246663214 157.75193988040974
3.591938775 -24.380723472233935 -97.85024801555755 -0.1336970116470922 1.6015938825318063 -0.2651061622822807 1.9748643956647796 -25.298509657502144 -103.71477778720792
3.67355102 -41.40057427984967 139.27717472117504 -0.008193879219915186 0.2719567728404244 -0.03463828904475652 0.153639951217454 -44.74838421556285 94.00232717883895
3.755163265 -28.13452980830716 -50.224802392868945 0.10935285031192586 1.4597407413626293 0.07834265379607738 3.428984776637352 -26.091191270511437 -177.18404882519008
3.83677551 -41.759460861812265 -127.72298838673136 0.5513350483165856 2.2258022273480074 -0.714378991116576 3.022564384586599 -19.28666289498574 -104.88798633367965
3.918387755 -24.005969636173916 -54.281177420076034 -0.4001708084781758 -2.365781864230902 -0.008154882697247233 1.805596269766229 -20.90592279797271 173.46189505212595
4.0 -21.439662457655103 155.1741204905087 -1.5220371395905696 10.30046059756874 -1.4463964166111882 4.452019686136826 -14.313436025422401 -88.86851211437076
