!Created with skrf (http://scikit-rf.org).
# GHz S DB R 50.0 
!freq dBS11 angS11 dBS21 angS21 dBS12 angS12 dBS22 angS22
0.001 0.5590825087232228 -139.37941762048501 -7.38665378498999 38.41413039424318 -0.6086176433742131 6.011622693755251 -32.585499130361946 -119.44746555724855
0.082612244 -33.09874505197016 6.295114057292976 0.01638133243598557 0.35131705864908913 0.048597033246531 0.24809952510050712 -39.773869993664505 108.56277736642866
0.164224489 -34.478123614047675 -56.235982972213655 0.03796479942918199 0.45200300894897955 0.053043097810505105 0.6836720113664689 -39.56339508308543 -2.7086113911386898
0.245836734 -49.450197500831194 53.78370560734536 -0.01084653188873839 0.09381474824798366 -0.03029405220941333 0.14156615470334938 -41.95451153939372 135.96203830215424
0.327448979 -49.287565073590365 -13.65736446944452 -0.051815014067091845 -0.2452981934637277 0.004696567758998873 -0.0489603198147511 -36.48347866237713 121.19415815532788
0.409061224 -44.17184546689296 -139.77894961937295 -0.02901127947346526 -0.16953293477223685 -0.012053517461811094 0.01969029719252894 -33.82547442264766 94.84961862045884
0.490673469 -31.93823491242506 144.35658739342756 0.01079224187995859 -0.2860245939942011 -0.0017264515108192879 0.07105038755749485 -35.13007785496765 -49.160154466645224
0.572285714 -42.51066869746964 76.45191818373728 -0.0012325286694793577 0.187815651222497 -0.06175271365966573 0.07234770301407815 -34.479798017632405 -51.50614645779924
0.653897959 -43.712422426650406 86.15085238205994 -0.053558472851861647 0.32352757723560055 -0.03470366004600653 -0.635518864214407 -50.079359900613994 10.49739523623123
0.735510204 -42.78146180886131 0.7612705597263515 0.05988793436104478 0.22144293113996036 0.01656474114233104 0.12169347250802032 -31.827258802804774 47.190932280029664
0.817122448 -40.19619417377574 73.37314305799984 0.019036391824273063 -0.3406098691376781 -0.017361955774152435 -0.08369170291228963 -37.009087373000035 37.73591726708128
0.898734693 -39.23432016255278 73.2852746811071 0.03850412375913969 -0.28391606448371665 -0.0022871010696539655 -0.2525221300167302 -36.025700800910144 109.47704254477624
0.980346938 -31.12779128008755 -104.83790482825124 -0.043997653328194664 -0.27568455334192643 0.05254388573166503 -0.41839835244279755 -28.564840816677126 43.892132692277585
1.061959183 -39.13663785296034 -5.1279649571280626 -0.04589146656183921 0.12871834359931345 -0.19876701625524557 -0.6908310161461995 -30.654762672440054 -25.378392326449582
1.143571428 -33.803615105643104 -82.08659359933888 0.012683810622424524 0.14414840653282282 -0.06247583688285697 -0.29384645657796643 -24.554371106845174 -56.46956997211681
1.225183673 -39.28525531691405 -148.33636812549662 -0.11975984750471382 -0.008806230061814035 -0.04337974831032751 0.7870047678875899 -31.24452997944005 151.78477711509092
1.306795918 -35.834812564594564 0.33427616299296814 -0.05660074978320624 -0.9122993170349658 -0.07515861712810379 -0.8503598929972678 -26.39516344854837 -84.8672297965155
1.388408163 -31.856327006027556 74.74823867946878 0.08314508575228648 -0.39848327852304455 -0.0640834813054609 -0.4948023521689773 -36.85567957432951 49.89407813631341
1.470020408 -31.14577740507425 -140.62402918053593 0.03502099608653083 0.2977146575181424 0.13482661527047682 0.2310717545183622 -41.22670714699992 76.75121456009818
1.551632653 -30.56872200376102 25.903900878191045 -0.06747329334855377 -0.7226777807271536 0.014440577409543874 -0.8810175862437782 -35.48198415131516 115.04780835690589
1.633244897 -32.56237496229325 18.267416539500484 0.014559604513018883 0.15205164836413337 0.08398547229318253 0.6422357961492733 -27.55814316177661 -177.42800502041416
1.714857142 -40.49451147197354 -95.36921645213714 -0.047655858832176 0.17935616948084326 0.04562242817844178 0.3791646747027803 -49.7513945476937 -53.890758418227726
1.796469387 -39.86337541833193 135.80105769838516 0.09559271949628215 0.6291113506468555 0.010926874537592932 0.9037879819808271 -39.995314502084895 166.4765333463188
1.878081632 -46.359947831813656 -29.215374496485257 0.08129644114282672 -1.160088836506612 0.19335319007589175 -1.1360973225982927 -26.56407203826914 83.17985584869638
1.959693877 -27.215660214359076 -90.51836901459552 0.013230467154174742 0.5309442565243566 -0.03409170291336755 0.5676586941402587 -29.648268738111145 -109.0437106526489
2.041306122 -26.81387478783075 73.82843010824395 0.10819076277839981 -0.15221253546996663 -0.2718823096152657 0.027664739919620616 -26.925703763784373 -76.96256963344736
2.122918367 -32.733235906945154 101.29154329914442 0.005908015149506628 0.7995017417198969 -0.15084223047890674 -0.16710962289549733 -29.43160736649017 -28.126414773761546
2.204530612 -24.936419963197594 -163.0312127879853 -0.042460047737297314 0.4265986566627978 -0.12919936813229072 -0.5728457925951781 -36.95190970036313 -65.07295701399276
2.286142857 -33.50725097533486 91.3302092311197 0.05919210658337566 0.607180513518791 -0.09003598472601407 -0.7636788491300822 -31.67987237429124 -91.98241433394813
2.367755102 -19.576823931432656 22.833213699421027 -0.32053008198857447 -3.7846582609434 -0.28796940313889635 -1.8544091587080256 -27.59827714586827 41.167162588886875
2.449367346 -29.26138406288887 -94.98962298400187 -0.05711941582911182 0.6073219482795079 0.10778223133500037 -0.697499743647474 -25.534671201090838 -88.78650243653094
2.530979591 -16.44639457686257 12.278414338476557 0.19546020453463853 -4.251788155205341 -0.09172451221420916 -0.22435601629513072 -29.759070377315435 3.7288008394300665
2.612591836 -11.804858277315944 24.516961659254726 -0.04684771496646873 -2.886937747160602 -0.16232192218027314 -0.6460442885178249 -26.75641273621548 -132.39555798105434
2.694204081 -18.554204055695422 30.34319539392419 0.5253917424760689 -2.499351139883628 -0.08500998656315954 1.8151751173154633 -18.471716798085446 -52.055674066530706
2.775816326 -23.52349036099867 -148.48051356760027 -0.3710105225718371 0.9984650417410934 -0.13709700190087587 -0.4490623465650802 -39.877346182458055 44.70173015848544
2.857428571 -21.06322427233417 63.72432565373034 0.22039345895960627 -0.6383111882843099 -0.21025960513491718 -5.78786104283609 -24.923282196602724 21.886353747500337
2.939040816 -28.472984612496397 4.914092726487538 -0.032442677969722694 -1.50878952223032 -0.1143125726067776 2.608880033752646 -21.1954831454932 -155.330881414314
3.020653061 -36.961393557310146 158.42624638487422 0.08341797828004219 0.675520923787663 0.1949194974683799 3.138953333643804 -26.552885722410572 161.39960582355474
3.102265306 -27.303625525668032 -142.59267265507282 0.11431665429556839 0.9434201857070057 -0.050222096335296 0.8422589098773616 -34.16323068434549 -85.83839453322398
3.183877551 -37.13370107873883 134.56554540360972 -0.0830738616681169 -0.054152875720675724 -0.05945959582822079 0.1189874483975837 -35.522004762243704 167.07890468619303
3.265489795 -42.46052772451149 4.079105527746513 0.005347213842321854 -1.1708954832664613 0.03976100472851081 -0.7969643586785723 -38.6787514460145 50.866028173423494
3.34710204 -23.099648654965673 -106.19019525837038 -0.10075410774454786 1.141460001428907 -0.2446611705861284 4.692840230849607 -23.795383895466017 -121.90912069836743
3.428714285 -32.17319844476743 82.70779080159824 0.08965461958551328 -0.3345099048085501 -0.1947844877944795 -1.3997490077240164 -25.594568241030107 -5.552643001892734
3.51032653 -38.17893690790652 -29.533116967695396 -0.16999156075229452 0.2247277815016403 -0.09760716894035742 2.8436572603137513 -27.52588080299727 165.59400512988478
3.591938775 -27.445494329040464 -116.36003312958199 0.02456590879532909 1.5315443362901764 -0.20220473705745995 1.0473862953612372 -28.290108173829953 -99.59818047808898
3.67355102 -32.27607271880674 -173.25483067090056 -0.15413884700487085 0.11512095640823036 -0.06631316124393526 0.2715849605797114 -31.57033042172347 168.36852514046285
3.755163265 -21.881221802274517 -93.06408421214782 -0.8199051336530812 2.141474378727969 -0.36677109172631617 3.2455803913435726 -24.667371975746363 159.7598714282647
3.83677551 -26.73905760393799 171.1117891086554 0.4966309094029202 1.00005341282682 0.024784348184209617 1.40270194846281 -29.19625650360453 -177.2189903948706
3.918387755 -32.938757562418594 -162.0109243616181 0.11756314696474765 0.9352456314218852 -0.027179261243749787 -0.476840980952563 -26.161529656904268 12.695287537554318
4.0 -17.4939083690453 143.82390277111787 -1.468683817193948 9.108233669369724 -1.5797109291989988 1.4921460234330937 -13.44076761079344 -76.32719370983024
