! PocketVna 1.60  pocketvna.com
! Live measurements ((Reflection-S11) Linear 10000000-3000000000/800 calibrated)
# Hz S RI R 50
! Hz          ReS11                      ImS11                     ReS21    ImS21    ReS12                      ImS12                     ReS22    ImS22    
10000000      0.98295126157028789        -0.13590525594974323      0                          0                         0        0        0        0        
13742177      0.9833569889706707         -0.18750003730707476      0                          0                         0        0        0        0        
17484355      0.97423107059841241        -0.25297573406904422      0                          0                         0        0        0        0        
21226533      0.95015144092168891        -0.29171211343746778      0                          0                         0        0        0        0        
24968710      0.93375734602258875        -0.33955793809278034      0                          0                         0        0        0        0        
28710888      0.91294719786919409        -0.3830923230348654       0                          0                         0        0        0        0        
32453066      0.88801511647729836        -0.4284840017598775       0                          0                         0        0        0        0        
36195244      0.86692447329698163        -0.47908346113293265      0                          0                         0        0        0        0        
39937421      0.83799791135019641        -0.5136817381919867       0                          0                         0        0        0        0        
43679599      0.79705713822884816        -0.5616299084571682       0                          0                         0        0        0        0        
47421777      0.76768187857965065        -0.61956363797131453      0                          0                         0        0        0        0        
51163954      0.74536742454648963        -0.64934968728633724      0                          0                         0        0        0        0        
54906132      0.71271580269301582        -0.68028505447127186      0                          0                         0        0        0        0        
58648310      0.67769363183326192        -0.72046312184871963      0                          0                         0        0        0        0        
62390488      0.64819912299997839        -0.76234014609552059      0                          0                         0        0        0        0        
66132665      0.60873819025081444        -0.78541438406190378      0                          0                         0        0        0        0        
69874843      0.55856416872352255        -0.81247199848466145      0                          0                         0        0        0        0        
73617021      0.52366917423269932        -0.8329626594368692       0                          0                         0        0        0        0        
77359198      0.49240693052875939        -0.84951461763334246      0                          0                         0        0        0        0        
81101376      0.4448767045069425         -0.87739753340425164      0                          0                         0        0        0        0        
84843554      0.40636715032852055        -0.89393304407791363      0                          0                         0        0        0        0        
88585732      0.360994838530318          -0.88988584673973459      0                          0                         0        0        0        0        
92327909      0.31209738333015136        -0.91908383609242605      0                          0                         0        0        0        0        
96070087      0.26382693324771872        -0.92808245606509343      0                          0                         0        0        0        0        
99812265      0.21479571140684475        -0.94703635991937329      0                          0                         0        0        0        0        
103554443     0.17293669894724148        -0.94366929440679392      0                          0                         0        0        0        0        
107296620     0.11187310493327367        -0.9382405205439891       0                          0                         0        0        0        0        
111038798     0.062166177199631273       -0.93501049422544913      0                          0                         0        0        0        0        
114780976     0.028255410445786323       -0.94253923470552858      0                          0                         0        0        0        0        
118523153     -0.010800957288943636      -0.95091028894136065      0                          0                         0        0        0        0        
122265331     -0.076063736239253624      -0.93914754742181483      0                          0                         0        0        0        0        
126007509     -0.11419560687761784       -0.93088101950609825      0                          0                         0        0        0        0        
129749687     -0.16831161530646771       -0.91378175204082379      0                          0                         0        0        0        0        
133491864     -0.21764005056860189       -0.90847474542228979      0                          0                         0        0        0        0        
137234042     -0.2469066679382407        -0.90839687672068858      0                          0                         0        0        0        0        
140976220     -0.29591018964073307       -0.90603651389382989      0                          0                         0        0        0        0        
144718397     -0.33174184393075251       -0.89509337931411681      0                          0                         0        0        0        0        
148460575     -0.375850374380853         -0.87215072836448415      0                          0                         0        0        0        0        
152202753     -0.39151273433553124       -0.85132257022867408      0                          0                         0        0        0        0        
155944931     -0.44503210154237416       -0.84507754318896122      0                          0                         0        0        0        0        
159687108     -0.4718668357034434        -0.81210529953435973      0                          0                         0        0        0        0        
163429286     -0.50827968472829266       -0.79528336721124071      0                          0                         0        0        0        0        
167171464     -0.53920373119328913       -0.77898767540636971      0                          0                         0        0        0        0        
170913642     -0.56691723183840914       -0.72967383502598426      0                          0                         0        0        0        0        
174655819     -0.59697308433581575       -0.70924890834032495      0                          0                         0        0        0        0        
178397997     -0.63249752331439324       -0.68172452764404645      0                          0                         0        0        0        0        
182140175     -0.64639157565435545       -0.64718299493368769      0                          0                         0        0        0        0        
185882352     -0.67954579202252852       -0.60288078164983783      0                          0                         0        0        0        0        
189624530     -0.70858574310196121       -0.56455446210085436      0                          0                         0        0        0        0        
193366708     -0.73114655585551636       -0.54270226598832738      0                          0                         0        0        0        0        
197108886     -0.75475872823339107       -0.49621814903886274      0                          0                         0        0        0        0        
200851063     -0.77965592108556803       -0.47170297745235734      0                          0                         0        0        0        0        
204593241     -0.80679146128775581       -0.43072563320658336      0                          0                         0        0        0        0        
208335419     -0.82008756995699228       -0.3996305010261027       0                          0                         0        0        0        0        
212077596     -0.83585877756929572       -0.35924876672874462      0                          0                         0        0        0        0        
215819774     -0.859437466960703         -0.31324682992861241      0                          0                         0        0        0        0        
219561952     -0.86029890214679605       -0.27905244376092397      0                          0                         0        0        0        0        
223304130     -0.87614895289613026       -0.23584140174650922      0                          0                         0        0        0        0        
227046307     -0.88399864370566206       -0.20680025648518702      0                          0                         0        0        0        0        
230788485     -0.90468129205470604       -0.17465271588818787      0                          0                         0        0        0        0        
234530663     -0.90069767900664011       -0.11647634337624485      0                          0                         0        0        0        0        
238272841     -0.89607322658172495       -0.081535265642480523     0                          0                         0        0        0        0        
242015018     -0.9225875011053386        -0.045244032941506786     0                          0                         0        0        0        0        
245757196     -0.90561371028898618       -0.0040894421944689015    0                          0                         0        0        0        0        
249499374     -0.90232120902138491       0.030864762958265329      0                          0                         0        0        0        0        
253241551     -0.88523740435273801       0.060115114222721443      0                          0                         0        0        0        0        
256983729     -0.8882339614128375        0.11670115761468818       0                          0                         0        0        0        0        
260725907     -0.86893486065676773       0.15902155760994696       0                          0                         0        0        0        0        
264468085     -0.87752674731160352       0.18569852711149271       0                          0                         0        0        0        0        
268210262     -0.85928470264934798       0.22877687699700999       0                          0                         0        0        0        0        
271952440     -0.85385607921689732       0.26245356403731751       0                          0                         0        0        0        0        
275694618     -0.8308343233244615        0.31243213298020484       0                          0                         0        0        0        0        
279436795     -0.81463224303285831       0.33774082910922321       0                          0                         0        0        0        0        
283178973     -0.80457046022294354       0.38157866387603867       0                          0                         0        0        0        0        
286921151     -0.77759122038487127       0.40943265968701092       0                          0                         0        0        0        0        
290663329     -0.74290437960909272       0.45119953109893302       0                          0                         0        0        0        0        
294405506     -0.73905247863167089       0.48731172123824823       0                          0                         0        0        0        0        
298147684     -0.71877865115589545       0.52198739000448813       0                          0                         0        0        0        0        
301889862     -0.69547418030125441       0.54570013991683319       0                          0                         0        0        0        0        
305632040     -0.66316827395231648       0.58382100987009666       0                          0                         0        0        0        0        
309374217     -0.64549756491949961       0.61395468796211028       0                          0                         0        0        0        0        
313116395     -0.61979307166810982       0.64131209928824562       0                          0                         0        0        0        0        
316858573     -0.58805081436802109       0.65842475192889249       0                          0                         0        0        0        0        
320600750     -0.55072328985970809       0.67912568831027753       0                          0                         0        0        0        0        
324342928     -0.53508546469815033       0.7109174236860748        0                          0                         0        0        0        0        
328085106     -0.50461267527273068       0.73539923687124942       0                          0                         0        0        0        0        
331827284     -0.46901110687945485       0.74982278669416424       0                          0                         0        0        0        0        
335569461     -0.42841003061628552       0.76724156156451084       0                          0                         0        0        0        0        
339311639     -0.40035585771611093       0.7762761077387571        0                          0                         0        0        0        0        
343053817     -0.36545990228613412       0.77804716002075092       0                          0                         0        0        0        0        
346795994     -0.32904524370999788       0.81818986582117692       0                          0                         0        0        0        0        
350538172     -0.29336706122905487       0.8235086376944174        0                          0                         0        0        0        0        
354280350     -0.24479967119281151       0.82422266261818644       0                          0                         0        0        0        0        
358022528     -0.21584155853319048       0.83520208596313217       0                          0                         0        0        0        0        
361764705     -0.17226450778563027       0.84687689108765307       0                          0                         0        0        0        0        
365506883     -0.12820230638988603       0.84852084092233337       0                          0                         0        0        0        0        
369249061     -0.091362488982287229      0.85055876818003184       0                          0                         0        0        0        0        
372991239     -0.051259622971976879      0.84906833955232475       0                          0                         0        0        0        0        
376733416     -0.0077554235933447136     0.84349466546014629       0                          0                         0        0        0        0        
380475594     0.029056541460717136       0.84841577258993683       0                          0                         0        0        0        0        
384217772     0.074299350194955205       0.83003831201206146       0                          0                         0        0        0        0        
387959949     0.10863930312359119        0.83147320421918491       0                          0                         0        0        0        0        
391702127     0.1501644978730389         0.80768626270408994       0                          0                         0        0        0        0        
395444305     0.18950557989675462        0.80184223246052311       0                          0                         0        0        0        0        
399186483     0.22778373517055808        0.78348677206959894       0                          0                         0        0        0        0        
402928660     0.2722200103502731         0.78423702537564255       0                          0                         0        0        0        0        
406670838     0.30618183701556922        0.75866884071966179       0                          0                         0        0        0        0        
410413016     0.33244993196639394        0.7503357194024175        0                          0                         0        0        0        0        
414155193     0.36296608806889358        0.72209662822389642       0                          0                         0        0        0        0        
417897371     0.40752187705484055        0.71596886540466975       0                          0                         0        0        0        0        
421639549     0.43094612713360764        0.67806865636051894       0                          0                         0        0        0        0        
425381727     0.4707469032083223         0.65185926213117606       0                          0                         0        0        0        0        
429123904     0.49185839383890334        0.63043334996956835       0                          0                         0        0        0        0        
432866082     0.51947884198777095        0.58453017782220484       0                          0                         0        0        0        0        
436608260     0.55138591012022231        0.5692879999426087        0                          0                         0        0        0        0        
440350438     0.57476867558641997        0.53332987535018284       0                          0                         0        0        0        0        
444092615     0.58911395225818519        0.49100801544804534       0                          0                         0        0        0        0        
447834793     0.62119468805803324        0.47135689047234003       0                          0                         0        0        0        0        
451576971     0.63099928281032669        0.43810801876922828       0                          0                         0        0        0        0        
455319148     0.65352295616618306        0.39846105211854183       0                          0                         0        0        0        0        
459061326     0.66997920790708088        0.36618044149243067       0                          0                         0        0        0        0        
462803504     0.68047017323451098        0.32651913595290433       0                          0                         0        0        0        0        
466545682     0.68811534223825299        0.28317454308975948       0                          0                         0        0        0        0        
470287859     0.69337889446889611        0.2517346097302019        0                          0                         0        0        0        0        
474030037     0.71249374751266381        0.21138811401462937       0                          0                         0        0        0        0        
