! PocketVna 1.60  pocketvna.com
! Live measurements ((Reflection-S11) Linear 10000000-3000000000/800 calibrated)
# Hz S RI R 50
! Hz          ReS11                      ImS11                      ReS21    ImS21    ReS12                      ImS12                      ReS22    ImS22    
10000000      0.97757842001717088        -0.17850908247753941       0                          0                          0        0        0        0        
13742177      0.97559521258857407        -0.23543146284321079       0                          0                          0        0        0        0        
17484355      0.95184976993842774        -0.30087972711873062       0                          0                          0        0        0        0        
21226533      0.9359435157263738         -0.35750036549240782       0                          0                          0        0        0        0        
24968710      0.91615884852613494        -0.39826471290115462       0                          0                          0        0        0        0        
28710888      0.88149771860031156        -0.45110906593558314       0                          0                          0        0        0        0        
32453066      0.84273107046976636        -0.50771852295569464       0                          0                          0        0        0        0        
36195244      0.80436233520422706        -0.56396150877557594       0                          0                          0        0        0        0        
39937421      0.77405753843205549        -0.61499529875908332       0                          0                          0        0        0        0        
43679599      0.72596345593817302        -0.65304020715342292       0                          0                          0        0        0        0        
47421777      0.68117690296932332        -0.72008473221911651       0                          0                          0        0        0        0        
51163954      0.65011443154589887        -0.75416047139648845       0                          0                          0        0        0        0        
54906132      0.59636347938703305        -0.78220442415907809       0                          0                          0        0        0        0        
58648310      0.54129300520858681        -0.81327175380076533       0                          0                          0        0        0        0        
62390488      0.49584270214598641        -0.86298041706131312       0                          0                          0        0        0        0        
66132665      0.44152440487235811        -0.87702133244321201       0                          0                          0        0        0        0        
69874843      0.38560859798268132        -0.908878862076964         0                          0                          0        0        0        0        
73617021      0.3364612348895139         -0.92466473761007117       0                          0                          0        0        0        0        
77359198      0.29392502815397376        -0.93414943501408043       0                          0                          0        0        0        0        
81101376      0.23186400718609082        -0.95565245894845929       0                          0                          0        0        0        0        
84843554      0.17380672676082828        -0.956120376348775         0                          0                          0        0        0        0        
88585732      0.12042977058636196        -0.94107819488692512       0                          0                          0        0        0        0        
92327909      0.064555287062039488       -0.96166847965534807       0                          0                          0        0        0        0        
96070087      -0.0037827381124397965     -0.9560174710327054        0                          0                          0        0        0        0        
99812265      -0.062904898477300783      -0.95946793749931936       0                          0                          0        0        0        0        
103554443     -0.11253803451601568       -0.93882622877323529       0                          0                          0        0        0        0        
107296620     -0.18585979340233053       -0.92060678445360022       0                          0                          0        0        0        0        
111038798     -0.24084374708546286       -0.89681479569405431       0                          0                          0        0        0        0        
114780976     -0.28826104159553606       -0.89490818226301039       0                          0                          0        0        0        0        
118523153     -0.33693719604679917       -0.88620000863108395       0                          0                          0        0        0        0        
122265331     -0.40192308382936026       -0.85689239879761425       0                          0                          0        0        0        0        
126007509     -0.44201982404922452       -0.8328306252566946        0                          0                          0        0        0        0        
129749687     -0.49179663174672256       -0.80051764415921245       0                          0                          0        0        0        0        
133491864     -0.54381860132023807       -0.77481733821238441       0                          0                          0        0        0        0        
137234042     -0.57803319199161063       -0.75108071502150064       0                          0                          0        0        0        0        
140976220     -0.61827391814743593       -0.72056258120063699       0                          0                          0        0        0        0        
144718397     -0.65442195078083021       -0.68700775498390043       0                          0                          0        0        0        0        
148460575     -0.6951815265390453        -0.64594820321832369       0                          0                          0        0        0        0        
152202753     -0.70675710016240345       -0.60440394434184563       0                          0                          0        0        0        0        
155944931     -0.75125418459774418       -0.57132327416079354       0                          0                          0        0        0        0        
159687108     -0.77073674902290645       -0.52448457485686484       0                          0                          0        0        0        0        
163429286     -0.79800395664109447       -0.47920116786060446       0                          0                          0        0        0        0        
167171464     -0.81909128956071242       -0.43278482786961614       0                          0                          0        0        0        0        
170913642     -0.83173253393521496       -0.37366546012553853       0                          0                          0        0        0        0        
174655819     -0.85734060330414941       -0.32287389279611567       0                          0                          0        0        0        0        
178397997     -0.87514775266082911       -0.2738771759961286        0                          0                          0        0        0        0        
182140175     -0.87997748130832076       -0.2252983144788453        0                          0                          0        0        0        0        
185882352     -0.89437807381791412       -0.16914267177931006       0                          0                          0        0        0        0        
189624530     -0.91407809293372544       -0.11573506616689518       0                          0                          0        0        0        0        
193366708     -0.91940269288241139       -0.074985944386357972      0                          0                          0        0        0        0        
197108886     -0.91703215412881955       -0.020565473520046049      0                          0                          0        0        0        0        
200851063     -0.92567186738984297       0.027703611210648581       0                          0                          0        0        0        0        
204593241     -0.9221152341243134        0.081883849313811749       0                          0                          0        0        0        0        
208335419     -0.91358583987710362       0.12267430810421476        0                          0                          0        0        0        0        
212077596     -0.90213159550984956       0.16259657139841277        0                          0                          0        0        0        0        
215819774     -0.88445696994526135       0.21884285119755487        0                          0                          0        0        0        0        
219561952     -0.87329101365593464       0.25949002589972342        0                          0                          0        0        0        0        
223304130     -0.85370179897152687       0.30513446470260358        0                          0                          0        0        0        0        
227046307     -0.84697763445163177       0.35813168164401932        0                          0                          0        0        0        0        
230788485     -0.80705277078671678       0.40046883251540188        0                          0                          0        0        0        0        
234530663     -0.78396225035243639       0.43962586212255395        0                          0                          0        0        0        0        
238272841     -0.76069461863817134       0.46657417115973593        0                          0                          0        0        0        0        
242015018     -0.72499482878440713       0.51692891763297899        0                          0                          0        0        0        0        
245757196     -0.7015939717030103        0.5588616095231751         0                          0                          0        0        0        0        
249499374     -0.65532844652454469       0.61136989838716538        0                          0                          0        0        0        0        
253241551     -0.63419973705777155       0.62382680050775485        0                          0                          0        0        0        0        
256983729     -0.57230767236697588       0.64760650531722841        0                          0                          0        0        0        0        
260725907     -0.53442540400258232       0.68312086712773945        0                          0                          0        0        0        0        
264468085     -0.48750175948901037       0.71958866097113239        0                          0                          0        0        0        0        
268210262     -0.46695373662204687       0.7580937854615557         0                          0                          0        0        0        0        
271952440     -0.41509545707605383       0.79462320243361784        0                          0                          0        0        0        0        
275694618     -0.36888760950434996       0.80169226004202043        0                          0                          0        0        0        0        
279436795     -0.32590446228127645       0.82391101255086052        0                          0                          0        0        0        0        
283178973     -0.27646910801956465       0.85799336735523435        0                          0                          0        0        0        0        
286921151     -0.22039055879103184       0.88944669380634522        0                          0                          0        0        0        0        
290663329     -0.18321315786139988       0.87754506293190959        0                          0                          0        0        0        0        
294405506     -0.13308336520667807       0.88692740640736978        0                          0                          0        0        0        0        
298147684     -0.092159063315170847      0.89537473430124481        0                          0                          0        0        0        0        
301889862     -0.041366770990635987      0.91139484003193527        0                          0                          0        0        0        0        
305632040     0.017742054433638871       0.92391087804844041        0                          0                          0        0        0        0        
309374217     0.04748296812611727        0.91549476583602007        0                          0                          0        0        0        0        
313116395     0.084214170924688719       0.89966710779585179        0                          0                          0        0        0        0        
316858573     0.13785101435236632        0.89018073402290498        0                          0                          0        0        0        0        
320600750     0.17805989848195736        0.88005095062380012        0                          0                          0        0        0        0        
324342928     0.23167284676831251        0.86520027750647899        0                          0                          0        0        0        0        
328085106     0.27953498958641693        0.84983481819966888        0                          0                          0        0        0        0        
331827284     0.31638945601863816        0.83130457905862465        0                          0                          0        0        0        0        
335569461     0.36822835283467625        0.80036012209962681        0                          0                          0        0        0        0        
339311639     0.40884084940906223        0.77545406325815314        0                          0                          0        0        0        0        
343053817     0.42918229586972445        0.73825792145760805        0                          0                          0        0        0        0        
346795994     0.48440988851231509        0.71662261188274068        0                          0                          0        0        0        0        
350538172     0.51646144864712362        0.69116008728600875        0                          0                          0        0        0        0        
354280350     0.5457714840333423         0.63859156754481705        0                          0                          0        0        0        0        
358022528     0.58648307938027477        0.60822327414718735        0                          0                          0        0        0        0        
361764705     0.6220328124102561         0.58067463447888312        0                          0                          0        0        0        0        
365506883     0.64363991994569947        0.53837931275571183        0                          0                          0        0        0        0        
369249061     0.67835910614639761        0.49201396373695472        0                          0                          0        0        0        0        
372991239     0.69307950327571066        0.44979096669840135        0                          0                          0        0        0        0        
376733416     0.71837208964674815        0.40799485195964097        0                          0                          0        0        0        0        
380475594     0.74157071125835838        0.36202379109038546        0                          0                          0        0        0        0        
384217772     0.75122681519371448        0.31799238440344041        0                          0                          0        0        0        0        
387959949     0.76214733414132807        0.27016361347472273        0                          0                          0        0        0        0        
391702127     0.76774705197966708        0.22227404067106935        0                          0                          0        0        0        0        
395444305     0.77880524416337549        0.16975953041094413        0                          0                          0        0        0        0        
399186483     0.78008693184178335        0.11875098315079274        0                          0                          0        0        0        0        
402928660     0.78274051955064583        0.074601890091373704       0                          0                          0        0        0        0        
406670838     0.7811179543042317         0.026981099199782012       0                          0                          0        0        0        0        
410413016     0.77546974951961756        -0.020136057643651836      0                          0                          0        0        0        0        
414155193     0.76661860192915876        -0.066420167179739711      0                          0                          0        0        0        0        
417897371     0.75313969690393379        -0.1096882734392233        0                          0                          0        0        0        0        
421639549     0.74410832516012215        -0.16342577401987493       0                          0                          0        0        0        0        
425381727     0.73005015635409953        -0.20750463663209473       0                          0                          0        0        0        0        
429123904     0.70494753469622806        -0.24746190701494108       0                          0                          0        0        0        0        
432866082     0.69811541746214734        -0.29134535854200688       0                          0                          0        0        0        0        
436608260     0.65988989325336089        -0.32843698086003287       0                          0                          0        0        0        0        
440350438     0.63676541595430802        -0.36249353910416621       0                          0                          0        0        0        0        
444092615     0.6106755850535206         -0.40901372935128888       0                          0                          0        0        0        0        
447834793     0.57931989837524966        -0.43860369501747326       0                          0                          0        0        0        0        
451576971     0.53737030570198729        -0.47831233006526497       0                          0                          0        0        0        0        
455319148     0.5101849919130933         -0.49036279926561255       0                          0                          0        0        0        0        
459061326     0.48169340248206888        -0.52762372841547567       0                          0                          0        0        0        0        
462803504     0.43836544553313272        -0.55239541296702033       0                          0                          0        0        0        0        
466545682     0.41268075011328181        -0.5852367003655039        0                          0                          0        0        0        0        
