!Created with skrf (http://scikit-rf.org).
# Hz S RI R 50.0 
!freq ReS11 ImS11
10000000.0 0.9858865091104511 -0.10571653994779104
10990990.0 0.9802076648614704 -0.11153006661995193
11981981.0 0.969068272522506 -0.11635453476096383
12972972.0 0.9753554073735187 -0.12816228290778564
13963963.0 0.9619107148427679 -0.150568562357326
14954954.0 0.9604834800686239 -0.15301990715226993
15945945.0 0.963383373662918 -0.1750330601427309
16936936.0 0.9518462740381203 -0.1866222687077121
17927927.0 0.9468248687270264 -0.19465599900054542
18918918.0 0.9496434820178858 -0.20575622284168738
19909909.0 0.9513451472727029 -0.22518422503504323
20900900.0 0.9363389142480036 -0.23159283141657808
21891891.0 0.9343728576131178 -0.2391290543284177
22882882.0 0.9302884517794193 -0.2544678434616982
23873873.0 0.9224857719286927 -0.2667859155317108
24864864.0 0.9298411516920069 -0.2855669590589989
25855855.0 0.9176579377376224 -0.2926486540495377
26846846.0 0.9163339961301203 -0.3017661049077475
27837837.0 0.9049275064204462 -0.32285159057549273
28828828.0 0.9187288455163326 -0.33371532500890444
29819819.0 0.8973167635038961 -0.33868098377459943
30810810.0 0.8921245850861421 -0.34910682592901254
31801801.0 0.8945010686875933 -0.35973570311821246
32792792.0 0.8899047957425568 -0.3738584750256293
33783783.0 0.882500454110129 -0.3876192077780837
34774774.0 0.8725558020314618 -0.3911395055378568
35765765.0 0.8707306885107342 -0.40902662570916337
36756756.0 0.8755985509170229 -0.4188252025394784
37747747.0 0.8658813132014601 -0.43241215242517067
38738738.0 0.8640033082182355 -0.4458923593823553
39729729.0 0.8662493094443658 -0.44345690659858034
40720720.0 0.8553346660514295 -0.4604814348474142
41711711.0 0.8603424024568846 -0.47534711247988937
42702702.0 0.8545450096408701 -0.48178244378237095
43693693.0 0.8492763455573978 -0.488590899166022
44684684.0 0.8444931276983708 -0.49068643430752545
45675675.0 0.8369358868700688 -0.5072695865267758
46666666.0 0.8389159108211041 -0.5091617152922312
47657657.0 0.8273703335361968 -0.5238610810266081
48648648.0 0.8133326284533557 -0.5313513913896651
49639639.0 0.8225879301816076 -0.5320573550950747
50630630.0 0.8214575875666426 -0.5538006966580288
51621621.0 0.8278399317310605 -0.5619118525028737
52612612.0 0.7942629463205256 -0.5587311085878686
53603603.0 0.8061414532107313 -0.564406692398399
54594594.0 0.8027736633409125 -0.5707767479737897
55585585.0 0.7960024000945796 -0.5793691914518925
56576576.0 0.7841413641422179 -0.5861757852159588
57567567.0 0.7906114429526355 -0.5945748366712043
58558558.0 0.7772022997293525 -0.5921190505792325
59549549.0 0.7669360961110451 -0.599475945786605
60540540.0 0.7641919148854484 -0.6011519721701939
61531531.0 0.7485771638019347 -0.6082518061199098
62522522.0 0.7556981993113356 -0.6090981547355996
63513513.0 0.7440790364510499 -0.6166396053123643
64504504.0 0.7355433266643869 -0.6272715893693623
65495495.0 0.7335875301762478 -0.6253503329930132
66486486.0 0.7271720669034154 -0.6237150757717496
67477477.0 0.7201433290780107 -0.6303498829677661
68468468.0 0.711371380014583 -0.6353433428002611
69459459.0 0.7098218305303914 -0.6524046721331693
70450450.0 0.7018412577355936 -0.6534867287117809
71441441.0 0.7052240356807107 -0.6431070785418114
72432432.0 0.6795016185729723 -0.6470575057556993
73423423.0 0.6790029505075212 -0.6450469086105384
74414414.0 0.673977156783131 -0.6594857660596309
75405405.0 0.6586985215251386 -0.6588310722009929
76396396.0 0.6630490380193385 -0.6529280719518369
77387387.0 0.6516862208034155 -0.6611724700541083
78378378.0 0.6356242730131701 -0.6650517701925149
79369369.0 0.6247967522399879 -0.6663457513800171
80360360.0 0.6206892747450484 -0.6714958456118132
81351351.0 0.6137054323373226 -0.6605466058466425
82342342.0 0.6094655298969099 -0.669653608418525
83333333.0 0.5998725088832471 -0.6653793980392545
84324324.0 0.5844419525529717 -0.6619633971997547
85315315.0 0.5757645061380521 -0.6623139790183268
86306306.0 0.5714863005610944 -0.6698409616686234
87297297.0 0.5589108706323836 -0.6623064473644893
88288288.0 0.5518193531408115 -0.6659332773038436
89279279.0 0.5360523426978122 -0.6643030518752673
90270270.0 0.5298640790792337 -0.6699819178505612
91261261.0 0.5183078215585393 -0.6675584070310852
92252252.0 0.5136423473991243 -0.6629567984194327
93243243.0 0.5061807018649769 -0.6620242513206025
94234234.0 0.49432857627198074 -0.659866436603946
95225225.0 0.48464447027408825 -0.6642438060667173
96216216.0 0.4715341560142703 -0.6547341081283409
97207207.0 0.4639362813869795 -0.6582434179173382
98198198.0 0.4549184116391797 -0.6635732921722848
99189189.0 0.44705282115063405 -0.6616364813307449
100180180.0 0.4293490051127343 -0.6532580386037372
101171171.0 0.4206329660151767 -0.65270235901906
102162162.0 0.4023042145916066 -0.6590375669982127
103153153.0 0.396893158602593 -0.6630996209861376
104144144.0 0.3894357866393071 -0.6557365020275725
105135135.0 0.37771446871560393 -0.6587623431456838
106126126.0 0.3683933692197959 -0.6562314015204176
107117117.0 0.3624411856231891 -0.649013574882668
108108108.0 0.34612468331313323 -0.6544974534066839
109099099.0 0.3408094924644354 -0.6533300889955228
110090089.0 0.32558846495687555 -0.6563117953774671
111081080.0 0.31323994896913443 -0.6587126724570403
112072071.0 0.3054132703684204 -0.6491905736898813
113063062.0 0.29601036134251635 -0.6500545794411007
114054053.0 0.2797658715210988 -0.6421002819652202
115045044.0 0.265998540717307 -0.6510795091120218
116036035.0 0.2615951047139279 -0.6484362706987447
117027026.0 0.24998890581004757 -0.6477117925644966
118018017.0 0.23657251297788207 -0.6409045325197726
119009008.0 0.22709495052314088 -0.6424372179643134
119999999.0 0.22054385944593458 -0.6432715241127139
120990990.0 0.20672362905968533 -0.6424106195375311
121981981.0 0.1894567907647231 -0.6404892525567557
122972972.0 0.1796643320102107 -0.6376445922400421
123963963.0 0.166522604377085 -0.6381298880765822
124954954.0 0.16354517876918861 -0.6360305791441561
125945945.0 0.14676218775603866 -0.6364508942827172
126936936.0 0.13616420575909538 -0.6322617695128998
127927927.0 0.13406216264268322 -0.628796125520909
128918918.0 0.12180153239419123 -0.6291243489223552
129909909.0 0.10980658003687138 -0.6236749412603935
130900900.0 0.10322818977092874 -0.6261647569311316
131891891.0 0.09263579387739185 -0.6305055429669447
132882882.0 0.07677056634332224 -0.6320961876798863
133873873.0 0.07370203182845103 -0.6255385655374528
134864864.0 0.06320295168583479 -0.6194022424872411
135855855.0 0.05034794503157547 -0.6336824075588321
136846846.0 0.04276184397348137 -0.6338073038825799
137837837.0 0.037636762407667 -0.6213557742873588
138828828.0 0.035163315378748505 -0.6169837469220801
139819819.0 0.020014685458410564 -0.6229255068433357
140810810.0 0.009773038492254305 -0.6244740551586683
141801801.0 0.00791709135884644 -0.6255005171808715
142792792.0 -0.003483113019017714 -0.6204578110095744
143783783.0 -0.017406715878625745 -0.614738829053425
144774774.0 -0.01643724150768522 -0.6164238533692413
145765765.0 -0.026715510032600087 -0.6155408950759156
146756756.0 -0.04032482951504546 -0.6143796176340879
147747747.0 -0.03668728367772134 -0.6184836726629102
148738738.0 -0.06075404422646469 -0.6140038744421668
149729729.0 -0.05919096300659932 -0.6109634677455646
150720720.0 -0.0656663461540854 -0.6145646750138044
151711711.0 -0.06669021541921838 -0.6107799964757179
152702702.0 -0.07433512160227662 -0.6103247454459133
153693693.0 -0.08126984994571096 -0.6127984945686591
154684684.0 -0.09665721150018569 -0.6014293624303918
155675675.0 -0.09545303461234045 -0.6114829370863023
156666666.0 -0.09715858209787132 -0.6080697621077471
157657657.0 -0.11258948577442784 -0.6029517746982196
158648648.0 -0.11093553547541712 -0.6041079657418578
159639639.0 -0.12168638680023025 -0.6018323225731531
160630630.0 -0.12965063648596664 -0.6070778078842316
161621621.0 -0.13433730558910728 -0.5986407372103331
162612612.0 -0.1378575403115354 -0.6046761829266242
163603603.0 -0.14069761178919105 -0.5957474340689736
164594594.0 -0.14495299095810732 -0.5904204793157432
165585585.0 -0.13917543399372456 -0.5889913638440708
166576576.0 -0.1544404443022258 -0.5894126692909514
167567567.0 -0.154331980676764 -0.5893408438601577
168558558.0 -0.1553414500781941 -0.5948351436591669
169549549.0 -0.1574573590066939 -0.5856118463790109
170540540.0 -0.1613044645310251 -0.5772019488505522
171531531.0 -0.169208380900994 -0.5810910917587016
172522522.0 -0.16968939116720516 -0.5853383394211225
173513513.0 -0.17110164326731592 -0.5722142520032558
174504504.0 -0.17364609311526258 -0.5797934254086995
175495495.0 -0.17241660362745304 -0.5697606799515289
176486486.0 -0.18142089860288602 -0.5776197208644751
177477477.0 -0.180405752729764 -0.5680357046886274
178468468.0 -0.18313255329238232 -0.5678051259972473
179459459.0 -0.17996286472927403 -0.5564938672223676
180450450.0 -0.18989985007621824 -0.5540724426405045
181441441.0 -0.19256773086077605 -0.5455471910996312
182432432.0 -0.19488773498491818 -0.5518035523183598
183423423.0 -0.19678348007922197 -0.5429973185637915
184414414.0 -0.19811838692238526 -0.5446454331090708
185405405.0 -0.19083046646712964 -0.5359840675602607
186396396.0 -0.19590211077772623 -0.5352219895896586
187387387.0 -0.19780409679899724 -0.5365124724299053
188378378.0 -0.19495634368223258 -0.5310331861287615
189369369.0 -0.19983289254606018 -0.5141549729240731
190360360.0 -0.2029383549098821 -0.5202417004055202
191351351.0 -0.2047593525471465 -0.51294314099103
192342342.0 -0.2090421630659295 -0.5136213930762519
193333333.0 -0.20297255491286315 -0.4994187777569993
194324324.0 -0.21253452120763994 -0.4939254842252687
195315315.0 -0.2098310629105241 -0.495376901086857
196306306.0 -0.21341890795561058 -0.479070519020775
197297297.0 -0.2106146452819201 -0.48320236660228644
198288288.0 -0.20748446603497772 -0.4709002841506371
199279279.0 -0.21424293266263006 -0.4744908705642744
200270270.0 -0.2177749674022178 -0.4635608537163065
201261261.0 -0.2185395729048072 -0.45142095134726246
202252252.0 -0.21615955555472577 -0.4445437020779044
203243243.0 -0.22102469437189676 -0.4427258129060839
204234234.0 -0.2148633710528458 -0.4460261072913422
205225225.0 -0.21554854573006166 -0.42701274192257077
206216216.0 -0.21761070245923808 -0.4297207253396145
207207207.0 -0.21566116985274575 -0.4246190129337166
208198198.0 -0.21649320617102663 -0.4048773231001682
209189188.0 -0.2140518674539882 -0.41272068297638065
210180179.0 -0.21302440943296008 -0.4049284312383675
211171170.0 -0.21841034447194407 -0.39744173116810744
212162161.0 -0.2231759966200576 -0.39709245719824193
213153152.0 -0.21150311035780145 -0.38949417686061183
214144143.0 -0.21576059556533267 -0.38084719018748714
215135134.0 -0.21408933096539007 -0.3762607740914514
216126125.0 -0.21821383649772663 -0.3694824690348174
217117116.0 -0.2184595926300984 -0.3642065747026104
218108107.0 -0.21832011021128217 -0.3608891949260714
219099098.0 -0.21428448198272643 -0.34579229215594176
220090089.0 -0.2236508870089109 -0.3440105343400398
221081080.0 -0.225511111180141 -0.3390429056433061
222072071.0 -0.21996744069421226 -0.334024070565083
223063062.0 -0.21786257748537163 -0.3232824353605426
224054053.0 -0.22005457405786943 -0.3189551521459003
225045044.0 -0.2242855895740089 -0.3130206217922379
226036035.0 -0.22047458641782092 -0.3095626044851104
227027026.0 -0.22121135705230777 -0.30075580516470724
228018017.0 -0.2185031654018208 -0.29386742316213665
229009008.0 -0.21930812769730035 -0.2845721910689003
229999999.0 -0.2196521763594974 -0.2801033049491354
230990990.0 -0.2208624769713765 -0.280567241400298
231981981.0 -0.22188493192319503 -0.2774982922114594
232972972.0 -0.2243629829406889 -0.2622006808037567
233963963.0 -0.22502748261039618 -0.2536666493077876
234954954.0 -0.22037886280834929 -0.24885222727521716
235945945.0 -0.22416801808142983 -0.24565010233657625
236936936.0 -0.22490933027093452 -0.23977573641157657
237927927.0 -0.22516903893265083 -0.23458633891355785
238918918.0 -0.22520096060420136 -0.2289660525309266
239909909.0 -0.22422082799842002 -0.22412630945426337
240900900.0 -0.2276433803651945 -0.21529703393127786
241891891.0 -0.2194631969131362 -0.21452312777419213
242882882.0 -0.22490537576815572 -0.20894068778412578
243873873.0 -0.22063720013587096 -0.20374602368100914
244864864.0 -0.2339566073521726 -0.1998644633477531
245855855.0 -0.23120453210304015 -0.1931062931830042
246846846.0 -0.22524971286209738 -0.19317350500850106
247837837.0 -0.22559676954799146 -0.18266370352240602
248828828.0 -0.22898528207715074 -0.1825413383248109
249819819.0 -0.23174189600397488 -0.17647148470077978
250810810.0 -0.22018890560245552 -0.1748493804489849
251801801.0 -0.2265523517782535 -0.16335936607006907
252792792.0 -0.22759845225311404 -0.1629852830882368
253783783.0 -0.22347486481486112 -0.16005082823115035
254774774.0 -0.2277927898176786 -0.15420095968267566
255765765.0 -0.2249352204362538 -0.15741646716369528
256756756.0 -0.2203877324348218 -0.14814634260037196
257747747.0 -0.22760959953466464 -0.14552719969586603
258738738.0 -0.2242634865911607 -0.14384560082678244
259729729.0 -0.2247503085362509 -0.13473177208393083
260720720.0 -0.21841877653728503 -0.131207932134352
261711711.0 -0.22093331783465953 -0.13033280842283645
262702702.0 -0.21521236556120638 -0.12040064063554357
263693693.0 -0.22005960082217124 -0.12228454536577749
264684684.0 -0.21847810806142542 -0.11880421056899415
265675675.0 -0.22279517373139335 -0.11509219619475786
266666666.0 -0.21923182793638607 -0.1072861379723018
267657657.0 -0.21901627323638995 -0.10557278563443928
268648648.0 -0.21662043319549373 -0.1060605973428087
269639639.0 -0.21608042779913783 -0.10205720998103152
270630630.0 -0.20838598229698457 -0.10181859202921417
271621621.0 -0.20763565446673382 -0.09644507648433531
272612612.0 -0.20854311745967102 -0.09509556833046029
273603603.0 -0.2123019486294957 -0.08713632259098403
274594594.0 -0.21026905857221279 -0.08977444180289507
275585585.0 -0.2072899080141566 -0.08281458992706803
276576576.0 -0.20559785015282683 -0.07758697588537722
277567567.0 -0.20631223490370298 -0.07935928826145244
278558558.0 -0.19968453995819035 -0.07601634492510245
279549549.0 -0.1987915970104025 -0.07845395378374032
280540540.0 -0.20390379623649169 -0.07008875534868397
281531531.0 -0.19556773142135586 -0.06564353063257111
282522522.0 -0.19589730112714598 -0.0706221367632871
283513513.0 -0.19587846276375032 -0.06170893069052508
284504504.0 -0.19231658379797778 -0.06130061441743717
285495495.0 -0.19107036641876018 -0.05857932701920676
286486486.0 -0.19419224661671908 -0.05408933034539287
287477477.0 -0.1890354034124423 -0.05268421731617412
288468468.0 -0.18579270077890797 -0.0510232166722171
289459459.0 -0.18040360797565025 -0.04976017260888066
290450450.0 -0.18049020020971462 -0.0427285248220286
291441441.0 -0.1777554943021079 -0.043980837386548344
292432432.0 -0.1755132030861163 -0.04136634856563748
293423423.0 -0.1722325330462 -0.03764029838896488
294414414.0 -0.17177500002629087 -0.034527014666100864
295405405.0 -0.16777239086251716 -0.034836497855634696
296396396.0 -0.16437248928593962 -0.027656702892204454
297387387.0 -0.1699659415764755 -0.03322501437873293
298378378.0 -0.15866638764611773 -0.028681604285338058
299369369.0 -0.16376942876934752 -0.02647771423098677
300360360.0 -0.15390777287876733 -0.025072671367541655
301351351.0 -0.15989628722761462 -0.01852052592728648
302342342.0 -0.149175378074767 -0.0196933918249651
303333333.0 -0.15447047881403753 -0.014670481444279515
304324324.0 -0.15267826691058795 -0.02032960938547712
305315315.0 -0.14388364610375304 -0.016393207409376442
306306306.0 -0.14036113507095305 -0.018852004934785893
307297297.0 -0.14370369769635616 -0.013526610357586177
308288287.0 -0.1416096590176512 -0.008470600092617686
309279278.0 -0.14003327307378166 -0.004839797941321722
310270269.0 -0.13286911266755985 -0.0014194960151688862
311261260.0 -0.12950191766026076 -0.0016144597500247215
312252251.0 -0.12672919992090648 -0.002521381999443628
313243242.0 -0.13255012330498994 0.0030980927581371054
314234233.0 -0.12185816588898657 -0.003032788624424132
315225224.0 -0.11896724555890237 -0.004593071970746987
316216215.0 -0.12115279689273517 0.007258939105800333
317207206.0 -0.10772384855112971 0.006295545116713597
318198197.0 -0.10799461255109888 0.008046461983162945
319189188.0 -0.10832464406835174 0.009190539465768532
320180179.0 -0.10367380422954997 0.01203043625882394
321171170.0 -0.10640830941945889 0.005950621435860004
322162161.0 -0.1015015453316307 0.009669363863458624
323153152.0 -0.10141637560244987 0.010045747163954677
324144143.0 -0.09687172894345841 0.008302116774595358
325135134.0 -0.09160234666791145 0.015251999585378595
326126125.0 -0.09362471712758658 0.016091044292335988
327117116.0 -0.08255510389851883 0.013387146770482028
328108107.0 -0.0842852569963124 0.017085180508225384
329099098.0 -0.08640118066688285 0.018818706028760346
330090089.0 -0.07983578369668298 0.025126378889197665
331081080.0 -0.0763373288980802 0.01865424828307438
332072071.0 -0.06892959217162542 0.01933085299923054
333063062.0 -0.0675777715224205 0.015516614089456482
334054053.0 -0.06579860736161136 0.022922677661665114
335045044.0 -0.06782656696716549 0.02527813752771324
336036035.0 -0.06694921743007742 0.023021907599328872
337027026.0 -0.06046042626803649 0.02434391300814276
338018017.0 -0.05541092671726333 0.022895950516636843
339009008.0 -0.05249565525643096 0.02701384742860735
339999999.0 -0.0457952096059443 0.028089618544641204
340990990.0 -0.05477121921746042 0.027736286813151767
341981981.0 -0.04886130000108024 0.027608782458429904
342972972.0 -0.04617287531588188 0.029392756638606077
343963963.0 -0.03931031341907354 0.03233259256662013
344954954.0 -0.03780375226432309 0.032941492528969274
345945945.0 -0.03474105295782415 0.026416301777971607
346936936.0 -0.03409208629766747 0.035679458705828004
347927927.0 -0.03310037472175675 0.034636888659884124
348918918.0 -0.02739579720000751 0.023819790640188465
349909909.0 -0.023317644282254524 0.032034299469063554
350900900.0 -0.024308573791911592 0.03333111125805899
351891891.0 -0.014274133841341519 0.03624346580969673
352882882.0 -0.01797378048751541 0.027818005944556634
353873873.0 -0.017243109932787326 0.03299785817879852
354864864.0 -0.015257226172725069 0.03710678323755867
355855855.0 -0.008101114067335657 0.033060278163212886
356846846.0 -0.0032314326704864227 0.03423061145525097
357837837.0 -0.005660922439776062 0.03069833332284444
358828828.0 -0.006318100131263604 0.03213186830071624
359819819.0 0.00455442707239978 0.03523568089421125
360810810.0 -0.0012537925588624876 0.03097014597568437
361801801.0 0.0058770138162973495 0.03473419096547525
362792792.0 0.008100851292324518 0.031131227876622147
363783783.0 0.011503856821182545 0.0354034291126738
364774774.0 0.008411665531051049 0.02598748884211266
365765765.0 0.01207673835714973 0.03276789172894312
366756756.0 0.0062037628694099345 0.03129830789271393
367747747.0 0.018016221114905806 0.027823728874310838
368738738.0 0.021053104043083803 0.023063219362996157
369729729.0 0.022116728351903703 0.030668284089937492
370720720.0 0.022219246320272112 0.018041573303902325
371711711.0 0.029880213192593874 0.02998487183675358
372702702.0 0.026411241050334433 0.022510359381949452
373693693.0 0.036947553088725105 0.030246510630790646
374684684.0 0.029423049223703812 0.022429112530363504
375675675.0 0.042706862618917873 0.027842832972628573
376666666.0 0.03894742107201077 0.025084313348378795
377657657.0 0.04255425856025841 0.020191520383894712
378648648.0 0.04379918140191025 0.013256595043881436
379639639.0 0.047367097187257956 0.016420170031586245
380630630.0 0.04764951887634311 0.010521096451516887
381621621.0 0.04603974332286831 0.015791791412082867
382612612.0 0.04887977442234792 0.017312367147227836
383603603.0 0.05341300708166513 0.013777610986897892
384594594.0 0.04980516796873263 0.015530547206066836
385585585.0 0.059938081743416805 0.01786943221964521
